"# Channel 1"
"# Trace 1"
Frequency; Formatted Data; Formatted Data
+3,00000000000E+005; +9,38091275441E-002; +0,00000000000E+000
+9,02985000000E+007; -2,38354824275E-001; +0,00000000000E+000
+1,80297000000E+008; -3,76109973158E-001; +0,00000000000E+000
+2,70295500000E+008; -5,71298113006E-001; +0,00000000000E+000
+3,60294000000E+008; -7,37215817742E-001; +0,00000000000E+000
+4,50292500000E+008; -8,58838290985E-001; +0,00000000000E+000
+5,40291000000E+008; -9,42624082057E-001; +0,00000000000E+000
+6,30289500000E+008; -1,08166575006E+000; +0,00000000000E+000
+7,20288000000E+008; -1,20749302826E+000; +0,00000000000E+000
+8,10286500000E+008; -1,24123348712E+000; +0,00000000000E+000
+9,00285000000E+008; -1,29565803942E+000; +0,00000000000E+000
+9,90283500000E+008; -1,34397062748E+000; +0,00000000000E+000
+1,08028200000E+009; -1,39698775886E+000; +0,00000000000E+000
+1,17028050000E+009; -1,45110530008E+000; +0,00000000000E+000
+1,26027900000E+009; -1,51632120610E+000; +0,00000000000E+000
+1,35027750000E+009; -1,59649471871E+000; +0,00000000000E+000
+1,44027600000E+009; -1,67930181369E+000; +0,00000000000E+000
+1,53027450000E+009; -1,78364497321E+000; +0,00000000000E+000
+1,62027300000E+009; -1,87937321651E+000; +0,00000000000E+000
+1,71027150000E+009; -2,02867647282E+000; +0,00000000000E+000
+1,80027000000E+009; -2,14755115914E+000; +0,00000000000E+000
+1,89026850000E+009; -2,36876690569E+000; +0,00000000000E+000
+1,98026700000E+009; -2,67160644324E+000; +0,00000000000E+000
+2,07026550000E+009; -2,86323959017E+000; +0,00000000000E+000
+2,16026400000E+009; -3,23040786536E+000; +0,00000000000E+000
+2,25026250000E+009; -3,56687482673E+000; +0,00000000000E+000
+2,34026100000E+009; -3,92606929163E+000; +0,00000000000E+000
+2,43025950000E+009; -4,34782239387E+000; +0,00000000000E+000
+2,52025800000E+009; -4,72560603192E+000; +0,00000000000E+000
+2,61025650000E+009; -5,62391388953E+000; +0,00000000000E+000
+2,70025500000E+009; -6,40232700334E+000; +0,00000000000E+000
+2,79025350000E+009; -7,40406360533E+000; +0,00000000000E+000
+2,88025200000E+009; -8,17262218102E+000; +0,00000000000E+000
+2,97025050000E+009; -9,56049629985E+000; +0,00000000000E+000
+3,06024900000E+009; -1,06208666307E+001; +0,00000000000E+000
+3,15024750000E+009; -1,26647895697E+001; +0,00000000000E+000
+3,24024600000E+009; -1,45452926380E+001; +0,00000000000E+000
+3,33024450000E+009; -1,74794046361E+001; +0,00000000000E+000
+3,42024300000E+009; -2,03707507919E+001; +0,00000000000E+000
+3,51024150000E+009; -2,06265033060E+001; +0,00000000000E+000
+3,60024000000E+009; -2,25084899838E+001; +0,00000000000E+000
+3,69023850000E+009; -2,51118001351E+001; +0,00000000000E+000
+3,78023700000E+009; -4,70471915964E+001; +0,00000000000E+000
+3,87023550000E+009; -3,48044927432E+001; +0,00000000000E+000
+3,96023400000E+009; -2,78140721437E+001; +0,00000000000E+000
+4,05023250000E+009; -2,25694719691E+001; +0,00000000000E+000
+4,14023100000E+009; -1,78907712494E+001; +0,00000000000E+000
+4,23022950000E+009; -1,69961428617E+001; +0,00000000000E+000
+4,32022800000E+009; -1,61522387039E+001; +0,00000000000E+000
+4,41022650000E+009; -1,50641942496E+001; +0,00000000000E+000
+4,50022500000E+009; -1,52227433329E+001; +0,00000000000E+000
+4,59022350000E+009; -1,71111482558E+001; +0,00000000000E+000
+4,68022200000E+009; -1,77676736925E+001; +0,00000000000E+000
+4,77022050000E+009; -2,04346157291E+001; +0,00000000000E+000
+4,86021900000E+009; -2,66958891160E+001; +0,00000000000E+000
+4,95021750000E+009; -2,41526543558E+001; +0,00000000000E+000
+5,04021600000E+009; -2,04798569343E+001; +0,00000000000E+000
+5,13021450000E+009; -1,73768077069E+001; +0,00000000000E+000
+5,22021300000E+009; -1,56102834381E+001; +0,00000000000E+000
+5,31021150000E+009; -1,31626260025E+001; +0,00000000000E+000
+5,40021000000E+009; -1,26950092891E+001; +0,00000000000E+000
+5,49020850000E+009; -1,20076858998E+001; +0,00000000000E+000
+5,58020700000E+009; -1,17183997428E+001; +0,00000000000E+000
+5,67020550000E+009; -1,19353045538E+001; +0,00000000000E+000
+5,76020400000E+009; -1,26889616193E+001; +0,00000000000E+000
+5,85020250000E+009; -1,37453127989E+001; +0,00000000000E+000
+5,94020100000E+009; -1,41272103537E+001; +0,00000000000E+000
+6,03019950000E+009; -1,57033230898E+001; +0,00000000000E+000
+6,12019800000E+009; -1,56117876363E+001; +0,00000000000E+000
+6,21019650000E+009; -1,79471698935E+001; +0,00000000000E+000
+6,30019500000E+009; -1,78738745589E+001; +0,00000000000E+000
+6,39019350000E+009; -1,70938880772E+001; +0,00000000000E+000
+6,48019200000E+009; -1,67832696133E+001; +0,00000000000E+000
+6,57019050000E+009; -1,66460472511E+001; +0,00000000000E+000
+6,66018900000E+009; -1,61462498032E+001; +0,00000000000E+000
+6,75018750000E+009; -1,54794972028E+001; +0,00000000000E+000
+6,84018600000E+009; -1,60174397275E+001; +0,00000000000E+000
+6,93018450000E+009; -1,59020230394E+001; +0,00000000000E+000
+7,02018300000E+009; -1,51371802162E+001; +0,00000000000E+000
+7,11018150000E+009; -1,52677502776E+001; +0,00000000000E+000
+7,20018000000E+009; -1,59940680696E+001; +0,00000000000E+000
+7,29017850000E+009; -1,44982743060E+001; +0,00000000000E+000
+7,38017700000E+009; -1,57349704392E+001; +0,00000000000E+000
+7,47017550000E+009; -1,60150961027E+001; +0,00000000000E+000
+7,56017400000E+009; -1,51335196825E+001; +0,00000000000E+000
+7,65017250000E+009; -2,13511685810E+001; +0,00000000000E+000
+7,74017100000E+009; -2,40494520145E+001; +0,00000000000E+000
+7,83016950000E+009; -3,57821846306E+001; +0,00000000000E+000
+7,92016800000E+009; -2,28975425969E+001; +0,00000000000E+000
+8,01016650000E+009; -2,46481502986E+001; +0,00000000000E+000
+8,10016500000E+009; -3,39411364439E+001; +0,00000000000E+000
+8,19016350000E+009; -2,49818454747E+001; +0,00000000000E+000
+8,28016200000E+009; -2,27407162728E+001; +0,00000000000E+000
+8,37016050000E+009; -2,03623215969E+001; +0,00000000000E+000
+8,46015900000E+009; -1,94992653953E+001; +0,00000000000E+000
+8,55015750000E+009; -2,08897422846E+001; +0,00000000000E+000
+8,64015600000E+009; -2,06914514884E+001; +0,00000000000E+000
+8,73015450000E+009; -1,80099151257E+001; +0,00000000000E+000
+8,82015300000E+009; -1,76107859237E+001; +0,00000000000E+000
+8,91015150000E+009; -1,37748246716E+001; +0,00000000000E+000
+9,00015000000E+009; -1,13453230765E+001; +0,00000000000E+000
+9,09014850000E+009; -8,83102203298E+000; +0,00000000000E+000
+9,18014700000E+009; -7,67181320557E+000; +0,00000000000E+000
+9,27014550000E+009; -6,88982167123E+000; +0,00000000000E+000
+9,36014400000E+009; -6,73692688502E+000; +0,00000000000E+000
+9,45014250000E+009; -6,49387374293E+000; +0,00000000000E+000
+9,54014100000E+009; -6,59030613321E+000; +0,00000000000E+000
+9,63013950000E+009; -6,64674091079E+000; +0,00000000000E+000
+9,72013800000E+009; -6,60392012698E+000; +0,00000000000E+000
+9,81013650000E+009; -6,58432730982E+000; +0,00000000000E+000
+9,90013500000E+009; -6,79042190191E+000; +0,00000000000E+000
+9,99013350000E+009; -6,79674687493E+000; +0,00000000000E+000
+1,00801320000E+010; -6,84411385136E+000; +0,00000000000E+000
+1,01701305000E+010; -6,88600656858E+000; +0,00000000000E+000
+1,02601290000E+010; -7,21021334212E+000; +0,00000000000E+000
+1,03501275000E+010; -7,47800100373E+000; +0,00000000000E+000
+1,04401260000E+010; -8,36020024815E+000; +0,00000000000E+000
+1,05301245000E+010; -7,95340700826E+000; +0,00000000000E+000
+1,06201230000E+010; -7,82624244467E+000; +0,00000000000E+000
+1,07101215000E+010; -7,87954938792E+000; +0,00000000000E+000
+1,08001200000E+010; -7,55285302371E+000; +0,00000000000E+000
+1,08901185000E+010; -8,23108872791E+000; +0,00000000000E+000
+1,09801170000E+010; -8,36356530647E+000; +0,00000000000E+000
+1,10701155000E+010; -8,98193809017E+000; +0,00000000000E+000
+1,11601140000E+010; -9,93015874572E+000; +0,00000000000E+000
+1,12501125000E+010; -1,07291371565E+001; +0,00000000000E+000
+1,13401110000E+010; -9,96686541196E+000; +0,00000000000E+000
+1,14301095000E+010; -1,07774768358E+001; +0,00000000000E+000
+1,15201080000E+010; -1,12513931981E+001; +0,00000000000E+000
+1,16101065000E+010; -1,19545154276E+001; +0,00000000000E+000
+1,17001050000E+010; -1,32959985172E+001; +0,00000000000E+000
+1,17901035000E+010; -1,42007422043E+001; +0,00000000000E+000
+1,18801020000E+010; -1,36239917353E+001; +0,00000000000E+000
+1,19701005000E+010; -1,49522579840E+001; +0,00000000000E+000
+1,20600990000E+010; -1,50721968797E+001; +0,00000000000E+000
+1,21500975000E+010; -1,53310386495E+001; +0,00000000000E+000
+1,22400960000E+010; -1,53184984616E+001; +0,00000000000E+000
+1,23300945000E+010; -1,74160526267E+001; +0,00000000000E+000
+1,24200930000E+010; -1,66809877875E+001; +0,00000000000E+000
+1,25100915000E+010; -1,75891880006E+001; +0,00000000000E+000
+1,26000900000E+010; -1,85084419643E+001; +0,00000000000E+000
+1,26900885000E+010; -1,81944951036E+001; +0,00000000000E+000
+1,27800870000E+010; -1,99399288455E+001; +0,00000000000E+000
+1,28700855000E+010; -2,04100122734E+001; +0,00000000000E+000
+1,29600840000E+010; -1,77318296495E+001; +0,00000000000E+000
+1,30500825000E+010; -1,66017322600E+001; +0,00000000000E+000
+1,31400810000E+010; -1,68637521068E+001; +0,00000000000E+000
+1,32300795000E+010; -1,70083032241E+001; +0,00000000000E+000
+1,33200780000E+010; -1,68840246719E+001; +0,00000000000E+000
+1,34100765000E+010; -1,60477902759E+001; +0,00000000000E+000
+1,35000750000E+010; -1,54441538012E+001; +0,00000000000E+000
+1,35900735000E+010; -1,31685883809E+001; +0,00000000000E+000
+1,36800720000E+010; -1,31370626627E+001; +0,00000000000E+000
+1,37700705000E+010; -1,36836924464E+001; +0,00000000000E+000
+1,38600690000E+010; -1,41216872308E+001; +0,00000000000E+000
+1,39500675000E+010; -1,32048132727E+001; +0,00000000000E+000
+1,40400660000E+010; -1,25971535937E+001; +0,00000000000E+000
+1,41300645000E+010; -1,16811497844E+001; +0,00000000000E+000
+1,42200630000E+010; -1,11454246800E+001; +0,00000000000E+000
+1,43100615000E+010; -9,28103615874E+000; +0,00000000000E+000
+1,44000600000E+010; -9,95879906501E+000; +0,00000000000E+000
+1,44900585000E+010; -9,85639480360E+000; +0,00000000000E+000
+1,45800570000E+010; -9,85088803955E+000; +0,00000000000E+000
+1,46700555000E+010; -1,04426770893E+001; +0,00000000000E+000
+1,47600540000E+010; -9,52759890943E+000; +0,00000000000E+000
+1,48500525000E+010; -9,32881470361E+000; +0,00000000000E+000
+1,49400510000E+010; -8,07083749621E+000; +0,00000000000E+000
+1,50300495000E+010; -8,18163204826E+000; +0,00000000000E+000
+1,51200480000E+010; -8,28452846643E+000; +0,00000000000E+000
+1,52100465000E+010; -8,41642309128E+000; +0,00000000000E+000
+1,53000450000E+010; -9,24913495805E+000; +0,00000000000E+000
+1,53900435000E+010; -8,76999651764E+000; +0,00000000000E+000
+1,54800420000E+010; -8,74684958933E+000; +0,00000000000E+000
+1,55700405000E+010; -9,91935396701E+000; +0,00000000000E+000
+1,56600390000E+010; -8,94784105831E+000; +0,00000000000E+000
+1,57500375000E+010; -9,14419879408E+000; +0,00000000000E+000
+1,58400360000E+010; -9,23016260039E+000; +0,00000000000E+000
+1,59300345000E+010; -1,01706788759E+001; +0,00000000000E+000
+1,60200330000E+010; -1,05880250254E+001; +0,00000000000E+000
+1,61100315000E+010; -1,22549899411E+001; +0,00000000000E+000
+1,62000300000E+010; -1,12882477459E+001; +0,00000000000E+000
+1,62900285000E+010; -1,19582082741E+001; +0,00000000000E+000
+1,63800270000E+010; -1,21947006718E+001; +0,00000000000E+000
+1,64700255000E+010; -1,39954934795E+001; +0,00000000000E+000
+1,65600240000E+010; -1,45245436553E+001; +0,00000000000E+000
+1,66500225000E+010; -1,75629996709E+001; +0,00000000000E+000
+1,67400210000E+010; -1,70382345688E+001; +0,00000000000E+000
+1,68300195000E+010; -1,56788871093E+001; +0,00000000000E+000
+1,69200180000E+010; -1,58724588294E+001; +0,00000000000E+000
+1,70100165000E+010; -1,53666744525E+001; +0,00000000000E+000
+1,71000150000E+010; -1,66108362792E+001; +0,00000000000E+000
+1,71900135000E+010; -1,93050490406E+001; +0,00000000000E+000
+1,72800120000E+010; -2,24383388319E+001; +0,00000000000E+000
+1,73700105000E+010; -2,13636740384E+001; +0,00000000000E+000
+1,74600090000E+010; -1,59341208054E+001; +0,00000000000E+000
+1,75500075000E+010; -1,53820189633E+001; +0,00000000000E+000
+1,76400060000E+010; -1,60552546587E+001; +0,00000000000E+000
+1,77300045000E+010; -1,62952885982E+001; +0,00000000000E+000
+1,78200030000E+010; -1,89448573223E+001; +0,00000000000E+000
+1,79100015000E+010; -2,08183882911E+001; +0,00000000000E+000
+1,80000000000E+010; -1,57013898582E+001; +0,00000000000E+000
