!Keysight Technologies.N5222B.MY60213399.A.14.00.23
!Date: Monday. June 05. 2023 21:55:23
!Correction: S11(C  1-Port  ) 
!S1P File: Measurement: :
# Hz S  dB   R 50
100000000 -0.032204509 -14.879144
111187500 -0.023528734 -16.509163
122375000 -0.019314731 -18.190109
133562500 -0.018001342 -19.880728
144750000 -0.014290538 -21.650545
155937500 -0.028460709 -23.44665
167125000 -0.033263691 -25.218767
178312500 -0.070411153 -27.006685
189500000 -0.10944534 -28.691589
200687500 -0.16872768 -30.434971
211875000 -0.21863429 -31.307453
223062500 -0.14463247 -32.561176
234250000 -0.10330388 -34.279175
245437500 -0.061601035 -36.116592
256625000 -0.052386384 -38.002445
267812500 -0.053076025 -39.885712
279000000 -0.063184284 -41.74543
290187500 -0.077120937 -43.715302
301375000 -0.10536519 -45.762547
312562500 -0.17513572 -47.818085
323750000 -0.29459375 -49.828476
334937500 -0.53995961 -51.193531
346125000 -0.61385524 -50.767979
357312500 -0.44674462 -51.207104
368500000 -0.26352838 -53.006046
379687500 -0.18075247 -55.020859
390875000 -0.13473278 -57.156303
402062500 -0.11335927 -59.230465
413250000 -0.12170246 -61.347176
424437500 -0.13773589 -63.397251
435625000 -0.1565367 -65.383324
446812500 -0.2008547 -67.454597
458000000 -0.2552706 -69.5159
469187500 -0.35059041 -71.535889
480375000 -0.47871801 -73.307892
491562500 -0.63345516 -74.980217
502750000 -0.79988968 -75.773216
513937500 -0.87458634 -75.959396
525125000 -0.77116406 -76.164749
536312500 -0.58803391 -77.388992
547500000 -0.43658283 -79.1828
558687500 -0.31740698 -81.402924
569875000 -0.27763924 -83.898933
581062500 -0.28130898 -86.227089
592250000 -0.30399516 -88.480042
603437500 -0.34359339 -90.735664
614625000 -0.41570246 -93.08802
625812500 -0.54639357 -95.207748
637000000 -0.72978467 -96.962967
648187500 -0.90663594 -97.964699
659375000 -0.98719513 -98.295341
670562500 -0.91061193 -98.648773
681750000 -0.72322196 -99.818466
692937500 -0.60042512 -102.06369
704125000 -0.54962111 -104.26003
715312500 -0.51307505 -106.63467
726500000 -0.52168334 -109.14217
737687500 -0.59442025 -111.67181
748875000 -0.7240684 -114.14548
760062500 -0.9419955 -116.13892
771250000 -1.1769102 -117.22741
782437500 -1.3220958 -117.25234
793625000 -1.2418642 -117.34574
804812500 -1.1018324 -118.20946
816000000 -0.9263441 -119.6769
827187500 -0.78919595 -121.72526
838375000 -0.68965739 -124.03204
849562500 -0.63266301 -126.39331
860750000 -0.60032701 -128.96536
871937500 -0.616831 -131.60748
883125000 -0.67194164 -134.20602
894312500 -0.76578492 -136.79407
905500000 -0.89675927 -139.30882
916687500 -1.0929506 -141.62651
927875000 -1.3483561 -143.56442
939062500 -1.707768 -144.68887
950250000 -1.965578 -143.77608
961437500 -1.8447003 -142.48045
972625000 -1.5442175 -142.70747
983812500 -1.1990111 -144.24574
995000000 -0.96593148 -147.01472
1006187500 -0.85707176 -149.98172
1017375000 -0.78776848 -152.65915
1028562500 -0.76441449 -155.65587
1039750000 -0.7858305 -158.51534
1050937500 -0.85559404 -161.52539
1062125000 -0.96453166 -164.39203
1073312500 -1.1688207 -167.54573
1084500000 -1.5198064 -170.12912
1095687500 -1.9808185 -171.3015
1106875000 -2.3237433 -170.27907
1118062500 -2.3031211 -168.30904
1129250000 -1.9179264 -167.81769
1140437500 -1.5328559 -169.53957
1151625000 -1.259222 -172.28185
1162812500 -1.1083949 -175.44043
1174000000 -1.0452765 -178.67406
1185187500 -1.0552055 178.01385
1196375000 -1.1528009 174.74249
1207562500 -1.3187954 171.75778
1218750000 -1.5862676 169.15114
1229937500 -1.8838193 167.58521
1241125000 -2.1271803 166.9489
1252312500 -2.2260072 167.17676
1263500000 -2.0966141 167.13829
1274687500 -1.8493521 166.0188
1285875000 -1.6256117 163.7773
1297062500 -1.4880996 160.79486
1308250000 -1.4791447 157.65483
1319437500 -1.5434371 154.80034
1330625000 -1.6602548 152.14626
1341812500 -1.7959056 149.75865
1353000000 -1.9769839 147.70799
1364187500 -2.1257446 146.18167
1375375000 -2.2813749 144.85663
1386562500 -2.3982909 144.26112
1397750000 -2.3510573 143.99449
1408937500 -2.1574593 143.10628
1420125000 -1.9025764 141.08972
1431312500 -1.7137934 138.21648
1442500000 -1.6376936 134.75465
1453687500 -1.6990602 131.21091
1464875000 -1.8698679 128.42154
1476062500 -1.9868143 126.27549
1487250000 -2.0769799 123.7429
1498437500 -2.2413273 121.24146
1509625000 -2.4827306 119.12479
1520812500 -2.7657957 117.79594
1532000000 -2.9565735 117.65578
1543187500 -3.0232043 117.68435
1554375000 -2.9096978 118.0905
1565562500 -2.6138916 117.34008
1576750000 -2.3100157 115.56139
1587937500 -2.0388446 112.91399
1599125000 -1.8345752 109.5361
1610312500 -1.7257284 105.78635
1621500000 -1.7097458 101.99345
1632687500 -1.7764426 98.006577
1643875000 -1.9430069 94.269188
1655062500 -2.1991062 90.665993
1666250000 -2.5612686 87.420372
1677437500 -3.0848372 85.029289
1688625000 -3.6545365 84.80912
1699812500 -3.9980175 86.47036
1711000000 -3.9808893 88.945808
1722187500 -3.5928192 90.045914
1733375000 -3.126111 89.073669
1744562500 -2.7205544 86.624794
1755750000 -2.4432862 83.311043
1766937500 -2.2879488 79.634491
1778125000 -2.2583656 75.890228
1789312500 -2.3228564 72.388901
1800500000 -2.4453089 69.300072
1811687500 -2.6074989 66.708847
1822875000 -2.7256522 64.569016
1834062500 -2.8070035 62.516068
1845250000 -2.8724644 60.422031
1856437500 -2.9115148 58.251358
1867625000 -2.9573584 55.921734
1878812500 -3.0253885 53.395187
1890000000 -3.1648674 50.817207
1901187500 -3.3301845 48.453297
1912375000 -3.5643761 46.502869
1923562500 -3.8019135 45.292553
1934750000 -3.9838181 44.552071
1945937500 -4.1169562 44.514309
1957125000 -4.0865493 44.842278
1968312500 -3.877557 44.888756
1979500000 -3.5488942 44.045208
1990687500 -3.173526 42.035988
2001875000 -2.8632743 39.129967
2013062500 -2.6085131 35.532818
2024250000 -2.4512267 31.398787
2035437500 -2.4250884 27.066292
2046625000 -2.4931259 22.839775
2057812500 -2.6367791 18.736893
2069000000 -2.8603919 14.809742
2080187500 -3.1927781 11.061036
2091375000 -3.6210697 8.132494
2102562500 -4.1192012 5.8160963
2113750000 -4.6948428 4.8742762
2124937500 -5.2004728 5.9127436
2136125000 -5.4466739 8.376111
2147312500 -5.3154364 11.322098
2158500000 -4.8077517 12.930196
2169687500 -4.1927457 12.225994
2180875000 -3.6039038 9.7507544
2192062500 -3.1521688 6.0044985
2203250000 -2.8223655 1.4658231
2214437500 -2.6598406 -3.4127233
2225625000 -2.633455 -8.378232
2236812500 -2.7190599 -13.321736
2248000000 -2.9300056 -18.00029
2259187500 -3.2590597 -22.020384
2270375000 -3.6003947 -25.660616
2281562500 -4.0601306 -28.725929
2292750000 -4.559001 -30.472544
2303937500 -4.9685354 -31.382738
2315125000 -5.3118815 -31.520401
2326312500 -5.4676642 -31.043015
2337500000 -5.5098372 -30.938736
2348687500 -5.4668388 -31.273834
2359875000 -5.3992782 -31.722937
2371062500 -5.2483687 -32.192719
2382250000 -5.0211306 -33.218513
2393437500 -4.7354345 -34.523144
2404625000 -4.3785791 -36.83345
2415812500 -4.0680962 -40.159691
2427000000 -3.8264375 -44.21682
2438187500 -3.7131104 -48.779591
2449375000 -3.7084825 -53.560844
2460562500 -3.827435 -58.199051
2471750000 -4.0156941 -62.620262
2482937500 -4.3054361 -66.844971
2494125000 -4.6334844 -70.590012
2505312500 -5.0210118 -73.990692
2516500000 -5.4694486 -77.087738
2527687500 -5.9999475 -79.655518
2538875000 -6.6182818 -80.976692
2550062500 -7.2119169 -80.722336
2561250000 -7.6078167 -78.999527
2572437500 -7.7719798 -76.192856
2583625000 -7.5307894 -73.448997
2594812500 -6.9914141 -72.411598
2606000000 -6.3063717 -73.384285
2617187500 -5.6608038 -76.737946
2628375000 -5.1912413 -81.71167
2639562500 -4.9338508 -87.445961
2650750000 -4.900538 -93.330673
2661937500 -4.9948478 -99.067223
2673125000 -5.2277532 -104.60474
2684312500 -5.565104 -109.71777
2695500000 -5.9940457 -114.56638
2706687500 -6.5247827 -118.51533
2717875000 -7.0537953 -122.10653
2729062500 -7.7269998 -125.37955
2740250000 -8.5222263 -127.21744
2751437500 -9.3103037 -126.99207
2762625000 -9.9083376 -124.51789
2773812500 -10.041873 -121.22655
2785000000 -9.8532915 -118.7162
2796187500 -9.3604469 -117.8612
2807375000 -8.7890234 -119.10827
2818562500 -8.2556047 -122.43517
2829750000 -7.9355273 -127.33266
2840937500 -7.8385363 -132.37971
2852125000 -7.8450961 -137.21507
2863312500 -7.8692427 -142.15189
2874500000 -8.0782413 -147.36943
2885687500 -8.3257914 -151.98482
2896875000 -8.5789204 -156.52319
2908062500 -8.9322271 -161.35246
2919250000 -9.3806677 -165.76166
2930437500 -9.9208364 -169.4518
2941625000 -10.352488 -172.65681
2952812500 -10.946776 -176.34726
2964000000 -11.576519 -178.24019
2975187500 -12.099249 179.7923
2986375000 -12.658727 178.40012
2997562500 -13.256577 178.27403
3008750000 -13.743977 179.40392
3019937500 -13.951315 -177.91797
3031125000 -13.630492 -174.92728
3042312500 -12.898375 -174.76016
3053500000 -12.164038 -178.07945
3064687500 -11.572761 176.62149
3075875000 -11.144691 170.08075
3087062500 -10.973897 162.18596
3098250000 -11.103203 154.47256
3109437500 -11.31302 146.83479
3120625000 -11.742076 139.65907
3131812500 -12.341515 133.29419
3143000000 -12.829305 128.27332
3154187500 -13.320801 123.05447
3165375000 -13.777466 117.52338
3176562500 -14.489717 111.19245
3187750000 -15.465814 106.69853
3198937500 -16.672899 103.91466
3210125000 -17.762302 106.24569
3221312500 -18.292921 111.49454
3232500000 -17.976519 116.02658
3243687500 -17.135939 118.41006
3254875000 -16.04108 116.36704
3266062500 -15.132556 111.0567
3277250000 -14.536762 103.58553
3288437500 -14.19051 96.272575
3299625000 -13.935019 88.531532
3310812500 -14.026445 80.778587
3322000000 -14.184633 74.846802
3333187500 -14.219199 69.198257
3344375000 -14.212752 62.622467
3355562500 -14.559975 55.931316
3366750000 -14.978568 51.898228
3377937500 -15.232234 47.91703
3389125000 -15.494238 44.867149
3400312500 -15.804108 42.357048
3411500000 -15.796248 41.901413
3422687500 -15.612558 39.852436
3433875000 -15.430309 36.830601
3445062500 -15.352819 34.965355
3456250000 -14.96753 32.771721
3467437500 -14.646646 28.629734
3478625000 -14.645962 23.794788
3489812500 -14.717124 22.075151
3501000000 -14.425665 20.347696
3512187500 -14.131262 17.055246
3523375000 -13.931936 14.227385
3534562500 -13.636526 10.927878
3545750000 -13.402999 6.8697696
3556937500 -13.354923 3.0480366
3568125000 -13.290107 -0.45411229
3579312500 -13.193062 -3.4884582
3590500000 -13.252485 -6.7786212
3601687500 -13.243475 -9.1265869
3612875000 -13.174929 -11.348435
3624062500 -13.138034 -14.044415
3635250000 -13.130189 -16.009073
3646437500 -13.11266 -18.338152
3657625000 -13.134343 -19.315353
3668812500 -12.946614 -20.478962
3680000000 -12.757865 -22.21249
3691187500 -12.55291 -24.199879
3702375000 -12.344441 -26.148188
3713562500 -12.117701 -28.191774
3724750000 -11.949776 -30.930372
3735937500 -11.72698 -33.482048
3747125000 -11.654395 -36.699314
3758312500 -11.564275 -38.933907
3769500000 -11.355208 -41.734039
3780687500 -11.312979 -45.485641
3791875000 -11.465337 -48.688702
3803062500 -11.580349 -50.900719
3814250000 -11.715083 -52.884418
3825437500 -11.922513 -54.27002
3836625000 -12.069476 -54.163891
3847812500 -12.012597 -54.314468
3859000000 -11.829399 -53.8937
3870187500 -11.475562 -55.360744
3881375000 -11.285808 -57.168526
3892562500 -11.112133 -58.578102
3903750000 -10.775539 -60.68042
3914937500 -10.610133 -64.141533
3926125000 -10.663092 -66.603539
3937312500 -10.544524 -68.803314
3948500000 -10.554333 -71.623184
3959687500 -10.589157 -73.639999
3970875000 -10.622692 -75.534393
3982062500 -10.585187 -77.410202
3993250000 -10.604046 -79.450623
4004437500 -10.71421 -81.725525
4015625000 -10.831324 -82.862755
4026812500 -10.863173 -83.751762
4038000000 -10.800231 -84.987625
4049187500 -10.825563 -86.469101
4060375000 -10.836676 -87.636414
4071562500 -10.853354 -88.561119
4082750000 -10.812899 -89.386932
4093937500 -10.718964 -90.303619
4105125000 -10.621355 -91.376328
4116312500 -10.457219 -92.709053
4127500000 -10.328126 -94.626297
4138687500 -10.26139 -96.610725
4149875000 -10.210133 -98.534386
4161062500 -10.156449 -100.62376
4172250000 -10.180605 -102.81061
4183437500 -10.271097 -104.51871
4194625000 -10.258358 -106.00492
4205812500 -10.283509 -107.77504
4217000000 -10.325269 -109.39947
4228187500 -10.415609 -110.9083
4239375000 -10.419908 -112.05367
4250562500 -10.438437 -114.14368
4261750000 -10.637359 -115.54655
4272937500 -10.783576 -115.85132
4284125000 -10.770292 -115.94942
4295312500 -10.661085 -116.47379
4306500000 -10.616332 -117.61482
4317687500 -10.468697 -118.32491
4328875000 -10.337193 -120.30424
4340062500 -10.301957 -122.18318
4351250000 -10.321914 -123.98964
4362437500 -10.369418 -125.24784
4373625000 -10.26973 -126.85769
4384812500 -10.330267 -129.22272
4396000000 -10.440404 -130.64931
4407187500 -10.494983 -132.0809
4418375000 -10.551783 -133.70772
4429562500 -10.691109 -134.82132
4440750000 -10.718732 -135.99709
4451937500 -10.838034 -137.3541
4463125000 -10.958551 -138.30733
4474312500 -11.06015 -138.71651
4485500000 -11.117029 -139.30809
4496687500 -11.13939 -139.20044
4507875000 -10.987014 -139.48698
4519062500 -10.88346 -140.98506
4530250000 -10.834777 -142.43997
4541437500 -10.826932 -143.83003
4552625000 -10.876386 -145.29065
4563812500 -10.884762 -146.25092
4575000000 -10.910491 -147.37195
4586187500 -10.814097 -148.47678
4597375000 -10.811339 -150.54074
4608562500 -10.912854 -152.19084
4619750000 -11.038225 -153.58917
4630937500 -11.100611 -154.25276
4642125000 -11.10073 -155.52693
4653312500 -11.232543 -157.06532
4664500000 -11.426521 -157.51686
4675687500 -11.448195 -157.46683
4686875000 -11.419935 -158.35907
4698062500 -11.47755 -158.83842
4709250000 -11.367054 -159.23088
4720437500 -11.38305 -160.68472
4731625000 -11.376186 -161.05333
4742812500 -11.276022 -162.20969
4754000000 -11.340858 -163.35268
4765187500 -11.263196 -163.69026
4776375000 -11.135056 -165.16812
4787562500 -11.146005 -166.95302
4798750000 -11.160967 -168.10271
4809937500 -11.144968 -169.1879
4821125000 -11.101122 -170.74498
4832312500 -11.17141 -172.27647
4843500000 -11.184231 -173.19139
4854687500 -11.174178 -174.91089
4865875000 -11.249405 -176.28751
4877062500 -11.305216 -177.25195
4888250000 -11.294618 -178.47426
4899437500 -11.298482 179.97493
4910625000 -11.366184 178.30988
4921812500 -11.485821 176.97417
4933000000 -11.63545 175.98741
4944187500 -11.701676 175.76234
4955375000 -11.699615 175.16745
4966562500 -11.611237 174.39252
4977750000 -11.514113 172.52411
4988937500 -11.660604 170.19484
5000125000 -11.777138 169.83664
5011312500 -11.749683 168.59741
5022500000 -11.821243 167.14082
5033687500 -11.855599 165.89218
5044875000 -11.949829 164.49118
5056062500 -12.051271 163.1913
5067250000 -12.183033 162.01537
5078437500 -12.326577 161.10947
5089625000 -12.442648 161.0455
5100812500 -12.352617 160.43448
5112000000 -12.411375 159.01091
5123187500 -12.508162 157.80005
5134375000 -12.601423 157.74899
5145562500 -12.546181 157.05049
5156750000 -12.559761 155.55005
5167937500 -12.580095 154.81859
5179125000 -12.57534 153.57037
5190312500 -12.650367 151.87111
5201500000 -12.787621 151.10886
5212687500 -12.801631 150.07069
5223875000 -12.851831 149.8992
5235062500 -12.789102 148.2388
5246250000 -12.902122 146.8362
5257437500 -13.019177 146.05373
5268625000 -13.034021 145.22388
5279812500 -13.032562 144.22144
5291000000 -13.097581 142.80801
5302187500 -13.224576 142.10233
5313375000 -13.225309 141.17937
5324562500 -13.253687 140.04979
5335750000 -13.363073 138.94403
5346937500 -13.439563 138.29231
5358125000 -13.462358 137.65776
5369312500 -13.39636 136.8349
5380500000 -13.378724 134.79443
5391687500 -13.624586 133.65732
5402875000 -13.677915 133.80977
5414062500 -13.596405 132.62567
5425250000 -13.655771 131.47931
5436437500 -13.687146 130.15567
5447625000 -13.802728 128.93875
5458812500 -13.873764 128.60933
5470000000 -13.879601 127.85406
5481187500 -13.878385 127.13963
5492375000 -13.825387 125.98944
5503562500 -13.821257 124.49382
5514750000 -13.863738 123.16498
5525937500 -13.925823 121.78632
5537125000 -14.022716 121.08189
5548312500 -13.957735 120.13487
5559500000 -13.989442 118.7251
5570687500 -13.981894 117.2142
5581875000 -14.069735 115.57623
5593062500 -14.198205 114.81615
5604250000 -14.122656 114.07195
5615437500 -14.160408 111.8117
5626625000 -14.286996 110.54526
5637812500 -14.433828 109.5572
5649000000 -14.454552 108.50006
5660187500 -14.594397 107.61548
5671375000 -14.611022 107.4333
5682562500 -14.531709 106.20081
5693750000 -14.55924 104.87836
5704937500 -14.545654 103.06139
5716125000 -14.756672 101.38006
5727312500 -14.933979 101.40396
5738500000 -14.797385 100.92118
5749687500 -14.813769 99.720566
5760875000 -14.72747 98.578125
5772062500 -14.679405 96.671722
5783250000 -14.757257 95.146637
5794437500 -14.761915 93.563202
5805625000 -14.830674 92.257446
5816812500 -14.823968 90.941353
5828000000 -14.815417 89.007339
5839187500 -14.992308 87.218369
5850375000 -15.108691 86.440155
5861562500 -15.079932 86.142563
5872750000 -14.901628 84.200439
5883937500 -15.05606 81.598045
5895125000 -15.176387 80.733162
5906312500 -15.1879 79.423431
5917500000 -15.282815 77.900024
5928687500 -15.381033 77.236732
5939875000 -15.259952 76.240631
5951062500 -15.193945 74.06945
5962250000 -15.246773 71.60363
5973437500 -15.422736 69.601791
5984625000 -15.551301 68.831169
5995812500 -15.548537 67.807014
6007000000 -15.555069 66.199318
6018187500 -15.594542 64.819817
6029375000 -15.631192 62.967781
6040562500 -15.756357 61.983795
6051750000 -15.705946 61.417553
6062937500 -15.536949 59.879902
6074125000 -15.48189 57.034981
6085312500 -15.662084 55.18956
6096500000 -15.714029 53.733509
6107687500 -15.808015 52.066765
6118875000 -15.835113 51.517124
6130062500 -15.714573 49.595531
6141250000 -15.800623 47.483829
6152437500 -15.829176 45.871033
6163625000 -15.90635 44.233067
6174812500 -15.893107 43.198513
6186000000 -15.870978 41.600853
6197187500 -15.830025 39.960884
6208375000 -15.74441 38.091385
6219562500 -15.69057 35.949516
6230750000 -15.74017 33.583317
6241937500 -15.728519 31.904808
6253125000 -15.703974 29.723133
6264312500 -15.732231 27.406313
6275500000 -15.827368 25.651842
6286687500 -15.852318 23.823977
6297875000 -15.903316 22.742996
6309062500 -15.80897 19.985231
6320250000 -16.08218 18.164188
6331437500 -16.055782 18.113159
6342625000 -15.899887 16.477226
6353812500 -15.902713 13.890854
6365000000 -15.935315 12.540692
6376187500 -15.911488 10.935692
6387375000 -15.824775 9.1925402
6398562500 -15.75891 7.0198889
6409750000 -15.764631 4.9573765
6420937500 -15.761931 3.0170727
6432125000 -15.800993 1.6680945
6443312500 -15.647271 0.25709525
6454500000 -15.560601 -1.926457
6465687500 -15.496883 -4.0895429
6476875000 -15.41737 -6.1669674
6488062500 -15.418306 -8.6468401
6499250000 -15.443522 -9.8358278
6510437500 -15.211504 -11.875723
6521625000 -15.198904 -15.232695
6532812500 -15.355245 -16.860386
6544000000 -15.240319 -18.306662
6555187500 -15.200867 -20.8755
6566375000 -15.27477 -22.825785
6577562500 -15.290592 -24.610212
6588750000 -15.324064 -25.989302
6599937500 -15.275317 -27.673006
6611125000 -15.348418 -29.2577
6622312500 -15.387605 -29.733047
6633500000 -15.160677 -29.639671
6644687500 -14.724326 -31.880117
6655875000 -14.652319 -35.057919
6667062500 -14.561239 -37.203953
6678250000 -14.480073 -39.655228
6689437500 -14.465319 -41.759033
6700625000 -14.347979 -43.807884
6711812500 -14.31403 -45.825401
6723000000 -14.248083 -48.287399
6734187500 -14.255023 -50.204411
6745375000 -14.168188 -52.166637
6756562500 -14.238384 -54.541309
6767750000 -14.236593 -55.816616
6778937500 -14.220614 -57.423588
6790125000 -14.256259 -58.883347
6801312500 -14.153677 -59.767086
6812500000 -14.083396 -61.391396
6823687500 -13.974299 -62.840405
6834875000 -13.868989 -64.23027
6846062500 -13.703244 -66.532379
6857250000 -13.718068 -68.719261
6868437500 -13.694089 -69.699341
6879625000 -13.536622 -71.375557
6890812500 -13.459314 -73.330002
6902000000 -13.363295 -75.093575
6913187500 -13.313184 -77.046188
6924375000 -13.270956 -78.64077
6935562500 -13.18224 -79.944412
