!Keysight Technologies,N5222B,MY60213399,A.14.00.23
!Date: Monday, June 05, 2023 20:21:40
!Correction: S11(C  1-Port  ) 
!S1P File: Measurement: :
# Hz S  dB   R 50
100000000 -0.022235664 -15.029055
111187500 -0.035580397 -16.735895
122375000 -0.050654113 -18.346308
133562500 -0.060932614 -19.921455
144750000 -0.05625524 -21.486166
155937500 -0.052963872 -23.163637
167125000 -0.049312625 -24.835327
178312500 -0.04905396 -26.556955
189500000 -0.052526295 -28.262768
200687500 -0.055564307 -29.967745
211875000 -0.058160007 -31.725195
223062500 -0.066498652 -33.441139
234250000 -0.076468304 -35.185329
245437500 -0.09552487 -36.963455
256625000 -0.10801949 -38.738865
267812500 -0.14132319 -40.544434
279000000 -0.18886423 -42.258976
290187500 -0.21800305 -43.885071
301375000 -0.27774301 -45.624615
312562500 -0.38546956 -46.818844
323750000 -0.33359382 -47.749214
334937500 -0.29137781 -49.219814
346125000 -0.24824089 -50.949371
357312500 -0.2198946 -52.731686
368500000 -0.19102038 -54.498371
379687500 -0.18772182 -56.523617
390875000 -0.21129097 -58.446484
402062500 -0.23960806 -60.289925
413250000 -0.28212932 -62.179173
424437500 -0.33917287 -63.81094
435625000 -0.37037417 -65.388725
446812500 -0.39381254 -67.054558
458000000 -0.42946145 -68.66861
469187500 -0.48738846 -70.226028
480375000 -0.49917448 -71.465614
491562500 -0.48930344 -72.89872
502750000 -0.4697184 -74.480003
513937500 -0.44457844 -76.151993
525125000 -0.44217318 -77.937363
536312500 -0.45012653 -79.607994
547500000 -0.44149339 -81.320251
558687500 -0.42309296 -83.078033
569875000 -0.41711819 -84.898628
581062500 -0.41598222 -86.782227
592250000 -0.42566583 -88.719894
603437500 -0.44720083 -90.635269
614625000 -0.47262269 -92.601921
625812500 -0.52370876 -94.459366
637000000 -0.57604599 -96.209625
648187500 -0.61012983 -97.931511
659375000 -0.64863408 -99.567711
670562500 -0.67379105 -101.13837
681750000 -0.68106455 -102.82523
692937500 -0.69038111 -104.44912
704125000 -0.68953484 -106.13577
715312500 -0.67635083 -107.91382
726500000 -0.6537866 -109.7729
737687500 -0.64935881 -111.81158
748875000 -0.66207898 -113.93577
760062500 -0.68947655 -116.04449
771250000 -0.71963501 -118.1417
782437500 -0.77259719 -120.21735
793625000 -0.83268994 -122.26398
804812500 -0.88770837 -124.28682
816000000 -0.95696712 -126.24269
827187500 -1.0282575 -128.25191
838375000 -1.1216617 -130.19734
849562500 -1.2024271 -132.0354
860750000 -1.3084769 -133.83873
871937500 -1.3834466 -135.55824
883125000 -1.468064 -137.29381
894312500 -1.5587211 -139.18265
905500000 -1.6916299 -140.88336
916687500 -1.8091569 -142.49854
927875000 -1.9222846 -143.65562
939062500 -1.9952623 -144.91414
950250000 -2.0641577 -146.20052
961437500 -2.1163518 -147.55022
972625000 -2.1719432 -148.75543
983812500 -2.1891966 -150.14081
995000000 -2.2477922 -151.50046
1006187500 -2.2460938 -152.86264
1017375000 -2.2716031 -154.5202
1028562500 -2.343904 -155.96419
1039750000 -2.3753152 -157.26494
1050937500 -2.4081676 -158.80774
1062125000 -2.4814532 -160.07202
1073312500 -2.5053213 -161.12627
1084500000 -2.5124354 -162.34935
1095687500 -2.5236661 -163.37532
1106875000 -2.505738 -164.43066
1118062500 -2.4114172 -165.37856
1129250000 -2.2880535 -167.08179
1140437500 -2.235733 -168.88545
1151625000 -2.1848035 -170.73297
1162812500 -2.1396272 -172.61656
1174000000 -2.1194377 -174.57431
1185187500 -2.1056674 -176.37758
1196375000 -2.0702381 -178.31335
1207562500 -2.0855289 179.65651
1218750000 -2.1109941 177.85289
1229937500 -2.1160865 176.25513
1241125000 -2.1109126 174.55963
1252312500 -2.0911376 172.97455
1263500000 -2.0579195 171.23798
1274687500 -2.0157309 169.49048
1285875000 -1.9750178 167.56944
1297062500 -1.9351853 165.62277
1308250000 -1.900098 163.5481
1319437500 -1.8874078 161.49889
1330625000 -1.890823 159.45129
1341812500 -1.8965263 157.41508
1353000000 -1.9136848 155.48294
1364187500 -1.9202601 153.61461
1375375000 -1.9236767 151.71602
1386562500 -1.9256904 149.97359
1397750000 -1.9143744 148.26515
1408937500 -1.8618469 146.48366
1420125000 -1.8103671 144.47165
1431312500 -1.7501419 142.36838
1442500000 -1.7237573 140.21223
1453687500 -1.6937701 137.96346
1464875000 -1.6915176 135.66988
1476062500 -1.6779627 133.57864
1487250000 -1.6514387 131.24673
1498437500 -1.6579927 128.9234
1509625000 -1.6565577 126.61515
1520812500 -1.67083 124.31561
1532000000 -1.6969389 121.98218
1543187500 -1.7383822 119.67243
1554375000 -1.7819211 117.5032
1565562500 -1.8217474 115.34206
1576750000 -1.8697366 113.16461
1587937500 -1.917565 111.16553
1599125000 -1.9469457 109.17667
1610312500 -1.9757154 107.15739
1621500000 -1.9936421 105.16123
1632687500 -2.0206351 103.0883
1643875000 -2.0415387 101.06973
1655062500 -2.0518024 99.038834
1666250000 -2.0714598 96.9692
1677437500 -2.066812 94.837379
1688625000 -2.0685501 92.645309
1699812500 -2.08972 90.322319
1711000000 -2.1137378 88.097244
1722187500 -2.1485548 85.750702
1733375000 -2.1805198 83.483406
1744562500 -2.2401462 81.180695
1755750000 -2.3203266 79.022751
1766937500 -2.3750854 76.955055
1778125000 -2.4395583 74.933388
1789312500 -2.4913936 72.892647
1800500000 -2.5623569 70.72226
1811687500 -2.6477144 68.84964
1822875000 -2.716444 66.976563
1834062500 -2.7974122 65.386696
1845250000 -2.8309438 63.840534
1856437500 -2.8263686 62.062984
1867625000 -2.8478591 60.252045
1878812500 -2.8501639 58.383488
1890000000 -2.8715892 56.379726
1901187500 -2.8898466 54.551025
1912375000 -2.9127584 52.613735
1923562500 -2.9139755 50.838921
1934750000 -2.9239335 48.873978
1945937500 -2.9377723 46.860619
1957125000 -2.9643893 45.067963
1968312500 -2.9811828 43.242588
1979500000 -3.0000706 41.552418
1990687500 -2.9741874 39.969757
2001875000 -2.9197469 38.236443
2013062500 -2.8700211 36.325554
2024250000 -2.8195202 34.419678
2035437500 -2.7517688 32.318409
2046625000 -2.6956561 30.0693
2057812500 -2.644038 27.673723
2069000000 -2.6194057 25.150274
2080187500 -2.6259558 22.743048
2091375000 -2.635957 20.403275
2102562500 -2.6411376 18.165892
2113750000 -2.6412675 15.91896
2124937500 -2.6338003 13.685931
2136125000 -2.612067 11.371545
2147312500 -2.5887794 9.1018133
2158500000 -2.5673246 6.7666922
2169687500 -2.5426548 4.3051419
2180875000 -2.5186334 1.8375529
2192062500 -2.5003319 -0.8249976
2203250000 -2.516911 -3.4399443
2214437500 -2.5109196 -6.0640078
2225625000 -2.538532 -8.6844778
2236812500 -2.546248 -11.305001
2248000000 -2.5693181 -14.048949
2259187500 -2.613189 -16.725807
2270375000 -2.6379845 -19.351204
2281562500 -2.673322 -22.169363
2292750000 -2.7368324 -24.940157
2303937500 -2.8061008 -27.627148
2315125000 -2.8490055 -30.228508
2326312500 -2.9198761 -33.169716
2337500000 -3.0221677 -35.866329
2348687500 -3.1189816 -38.352669
2359875000 -3.2026322 -40.861382
2371062500 -3.2540522 -43.372181
2382250000 -3.3644447 -46.037041
2393437500 -3.4305034 -48.40955
2404625000 -3.453172 -51.048359
2415812500 -3.5273569 -53.924034
2427000000 -3.6178908 -56.702553
2438187500 -3.7182612 -59.353947
2449375000 -3.7735391 -62.07851
2460562500 -3.8679047 -65.202507
2471750000 -3.9975715 -68.21048
2482937500 -4.1174002 -71.226868
2494125000 -4.2949228 -74.383865
2505312500 -4.4956393 -77.110443
2516500000 -4.652091 -79.736191
2527687500 -4.837934 -82.591553
2538875000 -5.0310593 -85.46949
2550062500 -5.2611222 -88.101685
2561250000 -5.476038 -90.573402
2572437500 -5.6817856 -92.994026
2583625000 -5.9069347 -95.528923
2594812500 -6.1389489 -97.754326
2606000000 -6.3227015 -99.622665
2617187500 -6.4811316 -102.0768
2628375000 -6.6559072 -104.10422
2639562500 -6.7685242 -106.74918
2650750000 -6.9786234 -109.52058
2661937500 -7.2807574 -112.26273
2673125000 -7.5145879 -113.86292
2684312500 -7.6907248 -116.21361
2695500000 -7.9136672 -118.28091
2706687500 -8.1008816 -120.65865
2717875000 -8.3624725 -122.83559
2729062500 -8.59056 -125.00471
2740250000 -8.8462515 -126.65921
2751437500 -9.0150976 -128.49617
2762625000 -9.2187624 -130.30107
2773812500 -9.3404779 -131.75681
2785000000 -9.470726 -134.23042
2796187500 -9.6688156 -136.22354
2807375000 -9.7488213 -138.07307
2818562500 -9.9188461 -140.57362
2829750000 -10.131531 -142.63171
2840937500 -10.257909 -144.15222
2852125000 -10.316908 -146.4677
2863312500 -10.472218 -148.98395
2874500000 -10.71807 -151.09341
2885687500 -10.822205 -152.51695
2896875000 -10.834182 -154.23566
2908062500 -10.844839 -156.62047
2919250000 -10.766706 -159.33017
2930437500 -10.831315 -162.66663
2941625000 -10.949836 -165.93175
2952812500 -11.036842 -168.26625
2964000000 -11.021899 -172.21153
2975187500 -11.167649 -175.36182
2986375000 -11.255636 -178.66435
2997562500 -11.286046 177.53339
3008750000 -11.496102 173.89166
3019937500 -11.590045 170.83817
3031125000 -11.684107 167.12042
3042312500 -11.710916 163.21916
3053500000 -11.91854 158.44801
3064687500 -12.181278 155.07504
3075875000 -12.322048 151.47099
3087062500 -12.451994 147.38522
3098250000 -12.66846 143.56754
3109437500 -12.942358 139.9176
3120625000 -13.039021 137.49162
3131812500 -12.940059 134.0573
3143000000 -12.958763 128.56282
3154187500 -13.232522 124.24901
3165375000 -13.263914 121.11243
3176562500 -13.242529 115.72866
3187750000 -13.600111 110.59139
3198937500 -13.767097 107.97432
3210125000 -13.901897 104.6248
3221312500 -13.802212 101.49407
3232500000 -13.719308 96.735825
3243687500 -13.778619 91.983536
3254875000 -13.829113 87.874237
3266062500 -13.859282 83.352837
3277250000 -13.894616 79.189682
3288437500 -14.007446 74.585251
3299625000 -14.058194 71.202209
3310812500 -13.988633 66.681984
3322000000 -13.957026 62.560928
3333187500 -14.126575 57.497406
3344375000 -14.310417 54.263977
3355562500 -14.324593 52.114193
3366750000 -14.062378 48.724155
3377937500 -14.062158 43.95713
3389125000 -14.127199 40.289051
3400312500 -14.155932 37.945541
3411500000 -13.983964 34.448235
3422687500 -13.926284 30.704235
3433875000 -13.9277 27.744244
3445062500 -13.805373 24.517715
3456250000 -13.695311 20.471893
3467437500 -13.673204 16.49803
3478625000 -13.78301 13.246458
3489812500 -13.885473 10.443033
3501000000 -13.847052 8.6956167
3512187500 -13.710524 6.0243373
3523375000 -13.626529 1.7144445
3534562500 -13.793791 -0.92980367
3545750000 -13.913651 -3.5322242
3556937500 -13.898974 -4.8142514
3568125000 -13.85458 -7.4126048
3579312500 -13.893845 -9.7165442
3590500000 -13.925891 -10.795446
3601687500 -13.756764 -12.242085
3612875000 -13.598416 -15.329641
3624062500 -13.796272 -17.89031
3635250000 -13.732217 -18.106079
3646437500 -13.510681 -20.065302
3657625000 -13.540312 -22.689539
3668812500 -13.538459 -23.995758
3680000000 -13.514829 -24.792528
3691187500 -13.276736 -26.467098
3702375000 -13.15668 -28.135622
3713562500 -13.062138 -30.652384
3724750000 -13.023664 -31.646711
3735937500 -12.871469 -34.008228
3747125000 -12.84517 -35.446381
3758312500 -12.743099 -37.259563
3769500000 -12.787794 -38.804726
3780687500 -12.630882 -39.244728
3791875000 -12.416059 -41.218987
3803062500 -12.302208 -43.172836
3814250000 -12.322668 -44.9687
3825437500 -12.183963 -45.747276
3836625000 -11.982003 -47.79081
3847812500 -11.906017 -49.447262
3859000000 -11.746882 -51.289509
3870187500 -11.722378 -53.217487
3881375000 -11.572561 -54.381004
3892562500 -11.480696 -56.955772
3903750000 -11.40641 -57.97216
3914937500 -11.308894 -60.081295
3926125000 -11.290277 -61.111404
3937312500 -10.992963 -62.873177
3948500000 -10.941137 -65.212143
3959687500 -10.877099 -67.365715
3970875000 -10.845021 -68.962753
3982062500 -10.774819 -70.312607
3993250000 -10.677041 -72.2239
4004437500 -10.577287 -73.49131
4015625000 -10.458417 -75.590309
4026812500 -10.349594 -77.165108
4038000000 -10.224266 -79.520851
4049187500 -10.193183 -82.41346
4060375000 -10.252092 -84.020691
4071562500 -10.209109 -85.402634
4082750000 -10.082083 -87.904816
4093937500 -10.12749 -89.822052
4105125000 -10.067653 -92.231918
4116312500 -10.260937 -93.979263
4127500000 -10.235353 -94.808289
4138687500 -10.159779 -96.515953
4149875000 -10.185019 -98.234627
4161062500 -10.090174 -99.997673
4172250000 -10.2005 -101.95563
4183437500 -10.283062 -103.05965
4194625000 -10.184531 -103.82045
4205812500 -10.134398 -106.1152
4217000000 -10.261196 -107.70351
4228187500 -10.145398 -108.03474
4239375000 -10.062847 -110.79597
4250562500 -10.130688 -111.90398
4261750000 -10.099375 -113.39892
4272937500 -9.973731 -115.04463
4284125000 -10.034325 -117.79565
4295312500 -10.182305 -119.37223
4306500000 -10.220866 -119.89593
4317687500 -10.127542 -121.48647
4328875000 -10.112072 -123.29535
4340062500 -10.193519 -125.16441
4351250000 -10.207476 -126.27508
4362437500 -10.161191 -128.4417
4373625000 -10.297797 -130.22568
4384812500 -10.403006 -131.66624
4396000000 -10.490037 -132.70113
4407187500 -10.525126 -133.98135
4418375000 -10.600746 -135.28828
4429562500 -10.739188 -136.17502
4440750000 -10.669871 -136.52364
4451937500 -10.676619 -138.53696
4463125000 -10.762245 -139.18634
4474312500 -10.722624 -140.2168
4485500000 -10.677976 -141.90132
4496687500 -10.751161 -143.51682
4507875000 -10.895149 -144.36285
4519062500 -10.838573 -144.78905
4530250000 -10.707157 -146.55829
4541437500 -10.79544 -148.76004
4552625000 -10.892272 -149.84398
4563812500 -10.982936 -151.21564
4575000000 -11.08656 -152.39417
4586187500 -11.1918 -152.78543
4597375000 -11.168871 -153.44775
4608562500 -11.153251 -154.59776
4619750000 -11.191851 -155.86932
4630937500 -11.195325 -156.71248
4642125000 -11.213124 -158.28459
4653312500 -11.2894 -159.20731
4664500000 -11.306461 -160.69319
4675687500 -11.464025 -162.06206
4686875000 -11.599311 -162.38388
4698062500 -11.592402 -162.51576
4709250000 -11.616739 -163.43307
4720437500 -11.581229 -164.10817
4731625000 -11.594951 -165.29561
4742812500 -11.565926 -165.56093
4754000000 -11.525093 -167.55505
4765187500 -11.66236 -168.12544
4776375000 -11.619747 -168.81126
4787562500 -11.550064 -169.76422
4798750000 -11.528402 -170.97177
4809937500 -11.470634 -172.48059
4821125000 -11.439038 -173.92705
4832312500 -11.553406 -175.99017
4843500000 -11.710808 -176.56239
4854687500 -11.687181 -177.32629
4865875000 -11.741701 -178.51056
4877062500 -11.820543 -179.09702
4888250000 -11.770152 -179.54195
4899437500 -11.67342 179.10106
4910625000 -11.764406 177.77881
4921812500 -11.750352 177.05652
4933000000 -11.66701 175.82927
4944187500 -11.67762 174.25555
4955375000 -11.796639 172.76228
4966562500 -11.813775 171.80185
4977750000 -11.929852 170.62387
4988937500 -11.940276 169.42827
5000125000 -12.049154 169.38576
5011312500 -11.951717 167.88268
5022500000 -12.07016 166.93224
5033687500 -12.09703 166.10326
5044875000 -12.05943 165.62791
5056062500 -11.949084 164.48164
5067250000 -11.929995 162.35863
5078437500 -12.100315 161.1804
5089625000 -12.08835 160.18718
5100812500 -12.187239 159.05284
5112000000 -12.15754 158.19156
5123187500 -12.126624 156.83022
5134375000 -12.287377 154.72786
5145562500 -12.460749 154.6008
5156750000 -12.43081 154.32013
5167937500 -12.491076 152.67358
5179125000 -12.599177 152.77884
5190312500 -12.391747 152.35571
5201500000 -12.355729 150.19937
5212687500 -12.415722 148.33742
5223875000 -12.597186 147.71405
5235062500 -12.56549 147.18114
5246250000 -12.523613 145.54129
5257437500 -12.601601 143.93323
5268625000 -12.739597 142.63385
5279812500 -12.801115 142.08661
5291000000 -12.907857 140.96434
5302187500 -13.012433 140.10786
5313375000 -13.097128 139.85069
5324562500 -13.025923 140.04822
5335750000 -12.865875 138.18813
5346937500 -12.954535 137.2099
5358125000 -12.894008 136.29878
5369312500 -12.810035 135.29709
5380500000 -12.735849 132.55939
5391687500 -12.883268 130.64743
5402875000 -13.135559 129.55659
5414062500 -13.147986 128.38217
5425250000 -13.384366 128.27934
5436437500 -13.301205 128.35307
5447625000 -13.16084 127.51513
5458812500 -13.061655 125.10992
5470000000 -13.197564 123.03352
5481187500 -13.364621 121.64603
5492375000 -13.499419 121.09383
5503562500 -13.496395 120.44957
5514750000 -13.496993 119.13934
5525937500 -13.492621 118.01406
5537125000 -13.523316 115.76611
5548312500 -13.675582 113.91187
5559500000 -13.822941 113.04206
5570687500 -13.89656 111.24866
5581875000 -14.076131 110.11486
5593062500 -14.276948 109.19138
5604250000 -14.350782 109.30802
5615437500 -14.313989 108.1778
5626625000 -14.447302 106.66479
5637812500 -14.567609 106.90193
5649000000 -14.508181 106.0425
5660187500 -14.44704 104.53104
5671375000 -14.56546 103.21636
5682562500 -14.643634 101.78175
5693750000 -14.717608 100.83014
5704937500 -14.81105 99.269905
5716125000 -14.987869 98.104843
5727312500 -15.136361 97.053497
5738500000 -15.266155 96.51413
5749687500 -15.428521 95.93042
5760875000 -15.303272 95.620201
5772062500 -15.4322 93.550179
5783250000 -15.528548 93.221954
5794437500 -15.480032 91.8479
5805625000 -15.545399 89.831627
5816812500 -15.823026 88.773468
5828000000 -15.898204 88.327553
5839187500 -15.951777 87.423355
5850375000 -16.062819 86.969208
5861562500 -16.07547 85.963722
5872750000 -16.265009 84.150253
5883937500 -16.501726 84.437675
5895125000 -16.543636 84.477638
5906312500 -16.53256 84.777985
5917500000 -16.425247 83.592705
5928687500 -16.485905 82.398132
5939875000 -16.549559 81.562973
5951062500 -16.593449 80.303429
5962250000 -16.767893 79.148865
5973437500 -16.858051 78.935394
5984625000 -16.884813 78.418076
5995812500 -16.854353 77.129608
6007000000 -16.965403 75.835922
6018187500 -17.031338 75.472237
6029375000 -17.003481 74.622543
6040562500 -16.962055 72.248474
6051750000 -17.163647 70.870598
6062937500 -17.432337 69.927917
6074125000 -17.608114 70.346512
6085312500 -17.506205 71.639702
6096500000 -17.318512 71.272919
6107687500 -17.144268 70.534485
6118875000 -16.991133 69.365891
6130062500 -16.835764 67.745903
6141250000 -16.830324 65.710571
6152437500 -16.892422 63.341766
6163625000 -17.163639 62.294277
6174812500 -17.254963 62.269482
6186000000 -17.333981 62.320873
6197187500 -17.262512 62.841423
6208375000 -17.084333 62.485783
6219562500 -16.920916 61.718773
6230750000 -16.743593 59.966621
6241937500 -16.576506 58.272934
6253125000 -16.637699 55.267704
6264312500 -16.765112 54.455631
6275500000 -16.810766 53.723675
6286687500 -16.63855 52.915195
6297875000 -16.571651 51.691486
6309062500 -16.443081 50.253349
6320250000 -16.272394 48.99157
6331437500 -16.087646 46.848576
6342625000 -15.980145 43.84713
6353812500 -16.167219 41.62249
6365000000 -16.198877 40.790428
6376187500 -16.162325 40.016113
6387375000 -16.014593 38.926437
6398562500 -15.958553 37.616581
6409750000 -15.721067 36.740017
6420937500 -15.429851 34.453491
6432125000 -15.339184 31.262943
6443312500 -15.398717 28.800001
6454500000 -15.410893 26.906723
6465687500 -15.460956 25.529303
6476875000 -15.351822 23.672358
6488062500 -15.398802 21.987711
6499250000 -15.318385 20.714649
6510437500 -15.226289 19.113121
6521625000 -15.15917 17.190075
6532812500 -14.965332 15.301721
6544000000 -14.974408 12.969533
6555187500 -14.830503 11.569794
6566375000 -14.725104 8.6160774
6577562500 -14.807405 6.5608873
6588750000 -14.741938 5.7779107
6599937500 -14.46687 3.8214004
6611125000 -14.346734 1.2302111
6622312500 -14.235892 -0.85334349
6633500000 -14.07618 -3.4187901
6644687500 -14.032162 -6.1258302
6655875000 -14.012834 -8.7265339
6667062500 -14.011792 -10.298342
6678250000 -13.903551 -11.959206
6689437500 -13.726611 -13.771266
6700625000 -13.51843 -16.472668
6711812500 -13.500813 -19.368114
6723000000 -13.449877 -21.464773
6734187500 -13.323009 -23.77149
6745375000 -13.314164 -26.61541
6756562500 -13.311371 -28.624495
6767750000 -13.248286 -30.412548
6778937500 -13.182157 -32.340324
6790125000 -13.062722 -34.312519
6801312500 -12.958986 -36.384743
6812500000 -12.855741 -38.757771
6823687500 -12.74466 -40.957859
6834875000 -12.723544 -43.566948
6846062500 -12.672382 -45.342758
6857250000 -12.590972 -47.493702
6868437500 -12.452102 -49.287067
6879625000 -12.315372 -51.813766
6890812500 -12.22782 -54.506313
6902000000 -12.224601 -57.146038
6913187500 -12.195025 -59.364902
6924375000 -12.200175 -61.496109
6935562500 -12.133715 -63.136009
6946750000 -12.018431 -65.199883
