!Keysight Technologies,N5222B,MY60213399,A.14.00.23
!Date: Monday, June 05, 2023 20:47:32
!Correction: S11(C  1-Port  ) 
!S1P File: Measurement: :
# Hz S  dB   R 50
100000000 -0.0078339428 -13.796581
111187500 -0.013177291 -15.369917
122375000 -0.013598198 -16.888577
133562500 -0.020542169 -18.416775
144750000 -0.022243991 -19.931969
155937500 -0.026194675 -21.442339
167125000 -0.025541836 -22.963346
178312500 -0.02491409 -24.49259
189500000 -0.024310382 -26.043009
200687500 -0.025000786 -27.592188
211875000 -0.024656352 -29.159542
223062500 -0.030494347 -30.691544
234250000 -0.0301036 -32.241951
245437500 -0.038043525 -33.792408
256625000 -0.038091052 -35.29924
267812500 -0.048573323 -36.954327
279000000 -0.06317535 -38.46312
290187500 -0.071728915 -40.019531
301375000 -0.088830203 -41.564209
312562500 -0.11710043 -43.078262
323750000 -0.12510391 -44.393887
334937500 -0.12318927 -45.826019
346125000 -0.12040512 -47.273533
357312500 -0.10322117 -48.800907
368500000 -0.094795913 -50.341354
379687500 -0.099402167 -51.943451
390875000 -0.10652699 -53.478245
402062500 -0.11648244 -55.002403
413250000 -0.12143306 -56.546326
424437500 -0.12853841 -58.034439
435625000 -0.13455682 -59.603836
446812500 -0.15049474 -61.077835
458000000 -0.16411294 -62.516819
469187500 -0.17459133 -64.004135
480375000 -0.18369766 -65.385979
491562500 -0.18935254 -66.820747
502750000 -0.18792482 -68.282318
513937500 -0.17845684 -69.715233
525125000 -0.17886062 -71.231453
536312500 -0.18611629 -72.72982
547500000 -0.18421131 -74.283836
558687500 -0.18679751 -75.791496
569875000 -0.1886885 -77.267044
581062500 -0.20220315 -78.776871
592250000 -0.20527446 -80.220528
603437500 -0.20456782 -81.704018
614625000 -0.2063968 -83.284676
625812500 -0.22277462 -84.742004
637000000 -0.23500896 -86.195671
648187500 -0.24071933 -87.692093
659375000 -0.24690738 -89.186867
670562500 -0.26277426 -90.617012
681750000 -0.26874241 -92.038643
692937500 -0.26743287 -93.452454
704125000 -0.26513967 -94.926239
715312500 -0.26684871 -96.310677
726500000 -0.26440644 -97.760216
737687500 -0.25454947 -99.209885
748875000 -0.24548446 -100.75407
760062500 -0.24410114 -102.27525
771250000 -0.23967972 -103.78222
782437500 -0.23993579 -105.34821
793625000 -0.24194585 -106.86107
804812500 -0.24170418 -108.42016
816000000 -0.25281259 -109.90554
827187500 -0.25596112 -111.40928
838375000 -0.26650411 -112.988
849562500 -0.27459276 -114.49989
860750000 -0.29215437 -115.95634
871937500 -0.29680002 -117.43968
883125000 -0.31019127 -118.93015
894312500 -0.32540751 -120.42356
905500000 -0.34221518 -121.90045
916687500 -0.34493339 -123.40997
927875000 -0.34897768 -124.82179
939062500 -0.36724588 -126.31586
950250000 -0.37883419 -127.7628
961437500 -0.38634321 -129.24916
972625000 -0.38573295 -130.65869
983812500 -0.39299235 -132.12375
995000000 -0.40055007 -133.6902
1006187500 -0.41652295 -135.19974
1017375000 -0.44121259 -136.63943
1028562500 -0.46587163 -138.11198
1039750000 -0.48095939 -139.51085
1050937500 -0.49290454 -140.9639
1062125000 -0.50716871 -142.35371
1073312500 -0.52015406 -143.74208
1084500000 -0.53338033 -145.12753
1095687500 -0.53738493 -146.53806
1106875000 -0.54712933 -147.95329
1118062500 -0.56307542 -149.30431
1129250000 -0.57034039 -150.64128
1140437500 -0.5733698 -151.98245
1151625000 -0.56614721 -153.34828
1162812500 -0.56365895 -154.80257
1174000000 -0.55315143 -156.15588
1185187500 -0.54984522 -157.56856
1196375000 -0.54213399 -159.06631
1207562500 -0.53920519 -160.53116
1218750000 -0.54545283 -161.96495
1229937500 -0.53736383 -163.36913
1241125000 -0.53709638 -164.8089
1252312500 -0.53133929 -166.19545
1263500000 -0.51366413 -167.67648
1274687500 -0.50790572 -169.21799
1285875000 -0.50744629 -170.7484
1297062500 -0.49872237 -172.20207
1308250000 -0.49019882 -173.67657
1319437500 -0.49056163 -175.18687
1330625000 -0.49235973 -176.65456
1341812500 -0.4786365 -178.15642
1353000000 -0.47286513 -179.61426
1364187500 -0.46336123 178.82068
1375375000 -0.45978451 177.22217
1386562500 -0.4609628 175.65761
1397750000 -0.45552015 174.1187
1408937500 -0.45934656 172.58994
1420125000 -0.45917189 170.98625
1431312500 -0.44972372 169.43524
1442500000 -0.44642043 167.89369
1453687500 -0.45154375 166.31316
1464875000 -0.43921873 164.71704
1476062500 -0.4536137 163.07645
1487250000 -0.45513207 161.50999
1498437500 -0.45318526 159.9256
1509625000 -0.45812902 158.28143
1520812500 -0.467296 156.70419
1532000000 -0.47949642 155.14999
1543187500 -0.47427043 153.56375
1554375000 -0.47905096 151.93172
1565562500 -0.48406914 150.34497
1576750000 -0.48782694 148.73308
1587937500 -0.4832896 147.07872
1599125000 -0.48864725 145.39359
1610312500 -0.50368047 143.7511
1621500000 -0.52106518 142.15617
1632687500 -0.52198344 140.54251
1643875000 -0.5307709 138.86295
1655062500 -0.54592538 137.25041
1666250000 -0.55350131 135.56825
1677437500 -0.55725706 133.94598
1688625000 -0.55930936 132.22342
1699812500 -0.57041186 130.53328
1711000000 -0.59159303 128.78537
1722187500 -0.61116338 127.05331
1733375000 -0.62409478 125.37166
1744562500 -0.64074981 123.7057
1755750000 -0.66165572 122.01618
1766937500 -0.68211967 120.37665
1778125000 -0.6953373 118.70414
1789312500 -0.71390188 117.02645
1800500000 -0.72342318 115.31741
1811687500 -0.74611235 113.62415
1822875000 -0.75867933 111.96448
1834062500 -0.76826882 110.26266
1845250000 -0.78614938 108.44807
1856437500 -0.81039602 106.73969
1867625000 -0.83171362 105.01405
1878812500 -0.84813684 103.30355
1890000000 -0.85957277 101.43822
1901187500 -0.89211875 99.614822
1912375000 -0.91951555 97.825722
1923562500 -0.95060611 96.087601
1934750000 -0.97915709 94.3209
1945937500 -1.006399 92.486099
1957125000 -1.0423783 90.717621
1968312500 -1.0729839 88.981651
1979500000 -1.0996934 87.170601
1990687500 -1.1387806 85.342392
2001875000 -1.1839197 83.518532
2013062500 -1.2309694 81.859795
2024250000 -1.2597133 80.26384
2035437500 -1.2753129 78.459686
2046625000 -1.3087484 76.573517
2057812500 -1.3576941 74.835281
2069000000 -1.3948742 73.043304
2080187500 -1.4383453 71.356697
2091375000 -1.4688876 69.598259
2102562500 -1.4907002 67.910461
2113750000 -1.5233822 66.143944
2124937500 -1.5307726 64.363518
2136125000 -1.5461606 62.448296
2147312500 -1.56113 60.532906
2158500000 -1.6055763 58.449829
2169687500 -1.6605439 56.565559
2180875000 -1.702732 54.778149
2192062500 -1.720425 52.769051
2203250000 -1.7954648 50.701271
2214437500 -1.8667412 48.948627
2225625000 -1.9216012 47.168785
2236812500 -1.9607025 45.44725
2248000000 -1.9915107 43.600937
2259187500 -2.0464258 41.701836
2270375000 -2.0758677 39.946655
2281562500 -2.0873611 37.977917
2292750000 -2.1208949 35.91217
2303937500 -2.1951938 33.84631
2315125000 -2.2459986 31.962107
2326312500 -2.2941875 30.043642
2337500000 -2.3350229 28.01306
2348687500 -2.4040425 26.131769
2359875000 -2.4410136 24.249184
2371062500 -2.4669056 22.281765
2382250000 -2.5037181 20.070427
2393437500 -2.5638049 17.89319
2404625000 -2.6426024 15.757457
2415812500 -2.7237184 13.784739
2427000000 -2.773705 11.72684
2438187500 -2.844377 9.5117712
2449375000 -2.938812 7.3777256
2460562500 -3.0280426 5.3674207
2471750000 -3.1260951 3.1461232
2482937500 -3.2535074 1.2002918
2494125000 -3.3477287 -0.44851843
2505312500 -3.4120939 -2.4912035
2516500000 -3.5361664 -4.3868375
2527687500 -3.6073589 -6.0522962
2538875000 -3.6695759 -7.8059425
2550062500 -3.7056389 -9.837821
2561250000 -3.8066165 -11.973035
2572437500 -3.880636 -13.768658
2583625000 -3.9382226 -15.8751
2594812500 -4.0491214 -17.932795
2606000000 -4.1049342 -19.677794
2617187500 -4.1529465 -21.873972
2628375000 -4.2175636 -24.275028
2639562500 -4.3496971 -26.687405
2650750000 -4.4961052 -28.701511
2661937500 -4.6020746 -30.399096
2673125000 -4.6578045 -32.6465
2684312500 -4.8126764 -35.058453
2695500000 -4.9728389 -36.906906
2706687500 -5.0961127 -38.630909
2717875000 -5.1927805 -40.621368
2729062500 -5.2951589 -42.648617
2740250000 -5.4715819 -44.732376
2751437500 -5.5933819 -46.412388
2762625000 -5.685431 -48.296844
2773812500 -5.8129001 -50.566208
2785000000 -5.9966207 -52.448502
2796187500 -6.1379113 -53.986382
2807375000 -6.2590137 -55.688164
2818562500 -6.3587427 -57.065041
2829750000 -6.4020414 -58.787167
2840937500 -6.4293356 -60.67165
2852125000 -6.5038567 -63.115913
2863312500 -6.5962615 -65.369598
2874500000 -6.7629075 -67.896011
2885687500 -6.9246006 -69.738358
2896875000 -7.0873494 -72.114746
2908062500 -7.3338246 -73.80426
2919250000 -7.4817705 -75.24511
2930437500 -7.6307964 -76.78923
2941625000 -7.7399545 -78.348145
2952812500 -7.8180432 -80.026932
2964000000 -7.9091396 -82.304695
2975187500 -8.0979338 -84.532448
2986375000 -8.3058701 -85.783249
2997562500 -8.3800097 -87.481842
3008750000 -8.4708357 -89.324982
3019937500 -8.6153011 -91.142937
3031125000 -8.7278442 -92.833397
3042312500 -8.7941875 -94.928299
3053500000 -8.9913254 -97.13488
3064687500 -9.0857286 -98.580612
3075875000 -9.2294407 -100.84566
3087062500 -9.3884926 -102.58729
3098250000 -9.5496035 -104.45032
3109437500 -9.6372423 -106.13365
3120625000 -9.7618589 -108.70496
3131812500 -10.031177 -111.1296
3143000000 -10.314217 -112.31766
3154187500 -10.428128 -113.62223
3165375000 -10.551941 -115.47302
3176562500 -10.74126 -116.9862
3187750000 -10.829517 -118.70869
3198937500 -11.013181 -120.94978
3210125000 -11.233212 -122.41181
3221312500 -11.383435 -123.58961
3232500000 -11.511998 -125.21369
3243687500 -11.553043 -126.3554
3254875000 -11.64095 -128.54308
3266062500 -11.716618 -130.7319
3277250000 -11.950618 -132.62039
3288437500 -11.96156 -133.71996
3299625000 -11.971251 -136.67496
3310812500 -12.173997 -139.67302
3322000000 -12.39685 -141.98582
3333187500 -12.65505 -143.41859
3344375000 -12.706186 -145.4731
3355562500 -12.823265 -147.57306
3366750000 -12.939741 -150.29404
3377937500 -13.142356 -152.97276
3389125000 -13.329684 -155.06522
3400312500 -13.417182 -157.60281
3411500000 -13.659141 -160.27283
3422687500 -13.800126 -162.94826
3433875000 -14.034453 -165.36713
3445062500 -14.164598 -167.8558
3456250000 -14.239593 -171.00792
3467437500 -14.520619 -174.81699
3478625000 -14.746812 -177.52544
3489812500 -14.979371 179.08681
3501000000 -15.226869 176.15692
3512187500 -15.417579 172.83188
3523375000 -15.482294 169.55167
3534562500 -15.652225 163.93506
3545750000 -16.071926 158.77702
3556937500 -16.572498 154.12724
3568125000 -17.088516 151.45087
3579312500 -17.28727 148.0681
3590500000 -17.58987 143.17473
3601687500 -17.958588 138.47964
3612875000 -18.259594 133.97029
3624062500 -18.616451 129.55598
3635250000 -18.713606 123.63441
3646437500 -19.165358 117.06896
3657625000 -19.497765 113.04256
3668812500 -19.532366 107.10417
3680000000 -19.581972 98.954308
3691187500 -19.859184 90.902466
3702375000 -20.147247 82.75515
3713562500 -20.46801 75.660156
3724750000 -20.707167 68.750366
3735937500 -20.753147 63.058228
3747125000 -20.430418 56.08918
3758312500 -20.427973 45.657879
3769500000 -20.854925 39.539265
3780687500 -20.770189 37.228371
3791875000 -20.015074 31.891191
3803062500 -19.533924 24.068317
3814250000 -19.217405 17.761627
3825437500 -18.792845 11.080474
3836625000 -18.361025 4.3276982
3847812500 -18.169199 -4.1312346
3859000000 -18.267572 -10.038579
3870187500 -18.219368 -14.206617
3881375000 -18.055769 -18.412403
3892562500 -17.845873 -22.430149
3903750000 -17.72587 -26.06002
3914937500 -17.449005 -30.031454
3926125000 -17.241568 -33.274334
3937312500 -16.953943 -37.103848
3948500000 -16.785864 -40.943657
3959687500 -16.730518 -44.743286
3970875000 -16.579855 -47.06913
3982062500 -16.362499 -49.114288
3993250000 -15.90187 -52.022739
4004437500 -15.710662 -56.649147
4015625000 -15.71077 -60.705616
4026812500 -15.797927 -62.771332
4038000000 -15.603827 -64.383575
4049187500 -15.43449 -67.351158
4060375000 -15.333016 -69.300346
4071562500 -15.03895 -72.192947
4082750000 -14.923536 -75.768845
4093937500 -14.930262 -78.378174
4105125000 -14.810454 -80.980209
4116312500 -14.722221 -84.174911
4127500000 -14.783507 -86.825325
4138687500 -14.733813 -89.206177
4149875000 -14.761512 -91.728951
4161062500 -14.763361 -94.014671
4172250000 -14.829223 -96.505028
4183437500 -15.002419 -98.040009
4194625000 -14.97295 -98.667961
4205812500 -14.841336 -100.41697
4217000000 -14.83427 -102.21591
4228187500 -14.753954 -103.64457
4239375000 -14.620631 -105.75525
4250562500 -14.685907 -108.15627
4261750000 -14.640662 -109.30957
4272937500 -14.589787 -111.43347
4284125000 -14.518259 -113.0621
4295312500 -14.431308 -115.56638
4306500000 -14.487128 -117.71513
4317687500 -14.524995 -119.08346
4328875000 -14.393449 -120.76771
4340062500 -14.313128 -123.84093
4351250000 -14.465326 -126.00456
4362437500 -14.374247 -127.78745
4373625000 -14.471839 -130.45824
4384812500 -14.5765 -132.22107
4396000000 -14.622127 -134.32591
4407187500 -14.663895 -136.20053
4418375000 -14.70452 -138.701
4429562500 -14.849266 -140.75739
4440750000 -15.055514 -142.47664
4451937500 -15.17767 -143.53352
4463125000 -15.066957 -144.53333
4474312500 -15.010059 -147.40709
4485500000 -15.130958 -150.10329
4496687500 -15.220557 -152.05145
4507875000 -15.271954 -154.85071
4519062500 -15.539004 -157.90858
4530250000 -15.78763 -159.11481
4541437500 -15.908113 -160.24602
4552625000 -15.757981 -162.57689
4563812500 -15.927107 -166.7355
4575000000 -16.287785 -169.81978
4586187500 -16.603355 -171.72929
4597375000 -16.8755 -174.60852
4608562500 -17.218878 -176.12854
4619750000 -17.357883 -178.29866
4630937500 -17.589151 177.99213
4642125000 -17.99029 174.86742
4653312500 -18.377317 172.60487
4664500000 -18.671665 169.017
4675687500 -19.158695 165.24442
4686875000 -19.864437 160.95383
4698062500 -20.524029 160.03934
4709250000 -20.893063 157.36046
4720437500 -21.383034 152.49994
4731625000 -22.061602 147.76389
4742812500 -22.858471 142.34932
4754000000 -23.815151 135.74843
4765187500 -24.980482 129.08803
4776375000 -26.581865 122.64997
4787562500 -27.748957 117.47169
4798750000 -28.974157 109.95834
4809937500 -29.566355 98.989044
4821125000 -29.700827 82.490097
4832312500 -30.020344 59.074135
4843500000 -29.967705 41.342827
4854687500 -28.770735 24.040489
4865875000 -27.702696 8.5352488
4877062500 -26.439953 -2.6001155
4888250000 -25.27717 -11.75055
4899437500 -24.210217 -19.54026
4910625000 -23.259819 -24.236378
4921812500 -22.153889 -28.86158
4933000000 -21.179615 -33.243431
4944187500 -20.236685 -37.606251
4955375000 -19.356314 -42.109653
4966562500 -18.741444 -46.494297
4977750000 -18.065519 -49.397942
4988937500 -17.449902 -52.781418
5000125000 -16.828543 -56.413239
5011312500 -16.400192 -59.876568
5022500000 -15.918256 -62.470715
5033687500 -15.45366 -65.60804
5044875000 -15.040534 -68.849434
5056062500 -14.768512 -71.460068
5067250000 -14.434113 -73.3032
5078437500 -13.96874 -75.411308
5089625000 -13.529596 -77.739235
5100812500 -13.055095 -80.75132
5112000000 -12.752041 -84.054604
5123187500 -12.504002 -87.008041
5134375000 -12.306464 -89.283798
5145562500 -12.050642 -91.452103
5156750000 -11.726721 -93.840866
5167937500 -11.478691 -96.588493
5179125000 -11.303559 -99.178192
5190312500 -11.140287 -101.36634
5201500000 -10.945443 -103.5952
5212687500 -10.766707 -105.78717
5223875000 -10.61014 -107.97823
5235062500 -10.433007 -109.8457
5246250000 -10.212889 -112.11031
5257437500 -10.036225 -114.98672
5268625000 -10.026938 -117.32611
5279812500 -9.9271526 -119.00474
5291000000 -9.824852 -120.96722
5302187500 -9.7201471 -122.51299
5313375000 -9.5632181 -124.39773
5324562500 -9.4382601 -126.20664
5335750000 -9.3102331 -128.16092
5346937500 -9.1641388 -129.88156
5358125000 -8.9826336 -132.18669
5369312500 -8.8962317 -134.87715
5380500000 -8.916007 -137.04489
5391687500 -8.8623114 -138.54662
5402875000 -8.780551 -140.47626
5414062500 -8.7363005 -142.25232
5425250000 -8.6482716 -143.95056
5436437500 -8.5322866 -145.86433
5447625000 -8.4878073 -147.96373
5458812500 -8.4398069 -149.81815
5470000000 -8.3739252 -151.64764
5481187500 -8.3289118 -153.80014
5492375000 -8.3302631 -155.61229
5503562500 -8.2843761 -157.49287
5514750000 -8.2795324 -159.38879
5525937500 -8.2645674 -161.31215
5537125000 -8.3176575 -163.28954
5548312500 -8.3414917 -164.82283
5559500000 -8.3550348 -166.36014
5570687500 -8.3768082 -168.03691
5581875000 -8.4007626 -169.54495
5593062500 -8.3903227 -170.7748
5604250000 -8.3587904 -172.41005
5615437500 -8.300498 -174.03482
5626625000 -8.2978725 -176.05409
5637812500 -8.3213549 -177.92395
5649000000 -8.3662558 -179.60657
5660187500 -8.4413986 178.79515
5671375000 -8.4851093 177.48636
5682562500 -8.5175362 176.24583
5693750000 -8.470603 175.17191
5704937500 -8.4297018 173.33511
5716125000 -8.4533463 171.48775
5727312500 -8.5020857 169.80077
5738500000 -8.5389223 168.26117
5749687500 -8.5476561 166.52681
5760875000 -8.5877514 164.46696
5772062500 -8.7292948 162.65941
5783250000 -8.8314867 161.2531
5794437500 -8.9129705 159.82068
5805625000 -9.0146399 158.54074
5816812500 -9.041399 157.38852
5828000000 -9.0693092 155.77243
5839187500 -9.1313944 153.83221
5850375000 -9.2768822 152.46828
5861562500 -9.3359623 151.2616
5872750000 -9.4003897 149.72739
5883937500 -9.4793253 148.11009
5895125000 -9.6030846 146.32326
5906312500 -9.7822027 144.72395
5917500000 -9.9724636 143.52122
5928687500 -10.153616 142.77689
5939875000 -10.271581 142.09361
5951062500 -10.396242 141.35529
5962250000 -10.463184 140.70981
5973437500 -10.508351 139.74229
5984625000 -10.542806 138.36406
5995812500 -10.698179 136.84543
6007000000 -10.806108 135.77158
6018187500 -10.930202 134.30226
6029375000 -11.134786 132.97873
6040562500 -11.312861 131.95842
6051750000 -11.512885 131.2081
6062937500 -11.679001 130.68196
6074125000 -11.806242 130.17157
6085312500 -11.878744 129.55551
6096500000 -11.94307 128.82635
6107687500 -11.994619 127.44589
6118875000 -12.177039 126.00512
6130062500 -12.376071 125.3753
6141250000 -12.513604 124.89595
6152437500 -12.634788 124.12859
6163625000 -12.742414 123.42839
6174812500 -12.926855 122.16728
6186000000 -13.148118 121.60998
6197187500 -13.369759 121.35889
6208375000 -13.53978 121.23225
6219562500 -13.753425 121.31738
6230750000 -13.817572 121.95287
6241937500 -13.841545 121.40047
6253125000 -13.961131 120.76458
6264312500 -14.071807 120.46784
6275500000 -14.20298 119.62137
6286687500 -14.448904 119.03248
6297875000 -14.630898 119.17285
6309062500 -14.782305 119.05536
6320250000 -14.999184 119.02145
6331437500 -15.19733 120.09235
6342625000 -15.140985 121.15458
6353812500 -15.126467 120.6439
6365000000 -15.222852 120.09891
6376187500 -15.356124 120.43781
6387375000 -15.388338 120.46487
6398562500 -15.454958 120.80319
6409750000 -15.474718 120.73211
6420937500 -15.557294 120.58836
6432125000 -15.665235 121.07155
6443312500 -15.596397 121.78305
6454500000 -15.549792 120.96207
6465687500 -15.699887 121.0121
6476875000 -15.773479 121.62604
6488062500 -15.759992 122.16117
6499250000 -15.718601 122.78179
6510437500 -15.69992 122.64874
6521625000 -15.732138 123.23343
6532812500 -15.565721 123.66578
6544000000 -15.50736 122.97615
6555187500 -15.518877 122.66394
6566375000 -15.545681 122.63154
6577562500 -15.54135 122.94827
6588750000 -15.493026 123.12356
6599937500 -15.429681 123.11703
6611125000 -15.338446 123.19878
6622312500 -15.228653 122.76775
6633500000 -15.130597 122.18296
6644687500 -15.089112 121.24833
6655875000 -15.127225 120.69324
6667062500 -15.103766 120.88215
6678250000 -15.044248 120.73365
6689437500 -14.847401 120.74385
6700625000 -14.715994 119.39336
6711812500 -14.741034 118.51952
6723000000 -14.671362 118.20274
6734187500 -14.604308 117.30652
6745375000 -14.59453 116.69972
6756562500 -14.527639 116.29125
6767750000 -14.478588 115.38746
6778937500 -14.453594 114.81021
6790125000 -14.443211 114.42405
6801312500 -14.328547 114.29427
6812500000 -14.154703 113.25842
6823687500 -14.097865 111.77152
6834875000 -14.105169 110.57127
6846062500 -14.153557 109.96472
6857250000 -14.055613 110.06799
6868437500 -13.897272 109.08735
6879625000 -13.803424 107.77542
6890812500 -13.780973 106.78233
6902000000 -13.725467 106.02541
