!Keysight Technologies,N5222B,MY60213399,A.14.00.23
!Date: Monday, June 05, 2023 21:57:44
!Correction: S11(C  1-Port  ) 
!S1P File: Measurement: :
# Hz S  dB   R 50
100000000 -0.013363461 -13.754574
111187500 -0.011577904 -15.28294
122375000 -0.0099817012 -16.830252
133562500 -0.010374275 -18.383682
144750000 -0.0080523016 -19.95409
155937500 -0.013849048 -21.540884
167125000 -0.015223267 -23.116316
178312500 -0.029652942 -24.70174
189500000 -0.042805884 -26.245401
200687500 -0.061842594 -27.833143
211875000 -0.097414114 -29.110273
223062500 -0.075701185 -30.377745
234250000 -0.053044841 -31.889307
245437500 -0.028921667 -33.483856
256625000 -0.025736349 -35.124241
267812500 -0.028500054 -36.742424
279000000 -0.025510849 -38.318859
290187500 -0.030263389 -39.994434
301375000 -0.042569827 -41.656425
312562500 -0.073970914 -43.334709
323750000 -0.11439246 -44.999111
334937500 -0.20661153 -46.480839
346125000 -0.25886324 -47.247566
357312500 -0.20872465 -48.112587
368500000 -0.1281966 -49.593628
379687500 -0.085283324 -51.210556
390875000 -0.070093088 -52.92477
402062500 -0.057924684 -54.602608
413250000 -0.058229793 -56.266224
424437500 -0.062484629 -57.918579
435625000 -0.068201758 -59.518024
446812500 -0.081196524 -61.191849
458000000 -0.096788593 -62.846184
469187500 -0.13784972 -64.445389
480375000 -0.18467857 -65.9104
491562500 -0.22709021 -67.318886
502750000 -0.2419765 -68.661224
513937500 -0.29392064 -70.138031
525125000 -0.34214935 -71.079994
536312500 -0.29979002 -71.927406
547500000 -0.21688288 -73.250389
558687500 -0.1604678 -74.897758
569875000 -0.13962381 -76.654739
581062500 -0.12908453 -78.311386
592250000 -0.12356744 -79.99501
603437500 -0.13191481 -81.699066
614625000 -0.14612661 -83.426529
625812500 -0.17298609 -85.092964
637000000 -0.22649072 -86.727203
648187500 -0.29584444 -88.176544
659375000 -0.35904062 -89.198715
670562500 -0.35178772 -90.160263
681750000 -0.29671741 -91.241791
692937500 -0.24828447 -92.79969
704125000 -0.23226473 -94.359657
715312500 -0.20753545 -95.953506
726500000 -0.19968636 -97.620888
737687500 -0.20722836 -99.326187
748875000 -0.22886129 -100.99746
760062500 -0.26940531 -102.6273
771250000 -0.32417896 -104.14479
782437500 -0.39396897 -105.3811
793625000 -0.40824947 -106.3622
804812500 -0.3997834 -107.48279
816000000 -0.353798 -108.65365
827187500 -0.32143077 -110.04511
838375000 -0.27691495 -111.55492
849562500 -0.23952545 -113.12048
860750000 -0.22181559 -114.75189
871937500 -0.21964164 -116.43877
883125000 -0.2189343 -118.07137
894312500 -0.22443655 -119.7896
905500000 -0.25148565 -121.49634
916687500 -0.28497159 -123.18742
927875000 -0.33984575 -124.76279
939062500 -0.42721018 -126.27731
950250000 -0.52443743 -127.27286
961437500 -0.53808635 -127.82477
972625000 -0.47221979 -128.74638
983812500 -0.39098001 -130.02039
995000000 -0.32581484 -131.60101
1006187500 -0.2927303 -133.30521
1017375000 -0.26701775 -134.90416
1028562500 -0.25426346 -136.59657
1039750000 -0.2506623 -138.2412
1050937500 -0.25671846 -139.92239
1062125000 -0.26770735 -141.58826
1073312500 -0.28557977 -143.35803
1084500000 -0.32879254 -145.03038
1095687500 -0.3972604 -146.62027
1106875000 -0.48352543 -147.84886
1118062500 -0.52346605 -148.66924
1129250000 -0.48263288 -149.58574
1140437500 -0.42061627 -150.84198
1151625000 -0.37463018 -152.35703
1162812500 -0.34169984 -153.92365
1174000000 -0.32480153 -155.50122
1185187500 -0.31001166 -157.15459
1196375000 -0.30098757 -158.81317
1207562500 -0.31082103 -160.49287
1218750000 -0.32665592 -162.14273
1229937500 -0.35470742 -163.7204
1241125000 -0.39221087 -165.19695
1252312500 -0.42328644 -166.58624
1263500000 -0.42991412 -167.84758
1274687500 -0.41309419 -169.16792
1285875000 -0.39135221 -170.64143
1297062500 -0.37181494 -172.20387
1308250000 -0.3648777 -173.78938
1319437500 -0.37188911 -175.3409
1330625000 -0.3830018 -176.88223
1341812500 -0.3669084 -178.46481
1353000000 -0.38139114 179.94273
1364187500 -0.3949756 178.42523
1375375000 -0.40638468 176.94006
1386562500 -0.41750088 175.43843
1397750000 -0.41520512 173.95743
1408937500 -0.41650644 172.44095
1420125000 -0.41854805 170.94112
1431312500 -0.41207883 169.44022
1442500000 -0.39923111 167.84557
1453687500 -0.40091854 166.22404
1464875000 -0.40354165 164.59605
1476062500 -0.41784629 163.00612
1487250000 -0.42066276 161.36412
1498437500 -0.43231347 159.77138
1509625000 -0.43596232 158.17801
1520812500 -0.44753483 156.58064
1532000000 -0.4553678 154.97543
1543187500 -0.46920359 153.36534
1554375000 -0.48630518 151.79651
1565562500 -0.49544805 150.28703
1576750000 -0.50564802 148.75859
1587937500 -0.5043788 147.16801
1599125000 -0.49451333 145.55696
1610312500 -0.49132943 143.86115
1621500000 -0.50688535 142.2068
1632687500 -0.5254429 140.54109
1643875000 -0.52690154 138.9211
1655062500 -0.53668368 137.24226
1666250000 -0.55479091 135.58969
1677437500 -0.56501228 133.90707
1688625000 -0.57464314 132.22391
1699812500 -0.58819133 130.54771
1711000000 -0.60073543 128.83453
1722187500 -0.61784315 127.12524
1733375000 -0.63541764 125.47854
1744562500 -0.65145904 123.72922
1755750000 -0.66939688 122.01901
1766937500 -0.69015867 120.34964
1778125000 -0.70368725 118.68134
1789312500 -0.71925372 116.89898
1800500000 -0.74483848 115.19404
1811687500 -0.76168382 113.50464
1822875000 -0.78404719 111.75776
1834062500 -0.80801672 110.00256
1845250000 -0.82857567 108.2962
1856437500 -0.84668887 106.54852
1867625000 -0.880705 104.79144
1878812500 -0.8969537 103.11997
1890000000 -0.9177382 101.32063
1901187500 -0.93814653 99.517349
1912375000 -0.96996152 97.709236
1923562500 -1.0024841 95.97419
1934750000 -1.0330507 94.256866
1945937500 -1.0500705 92.491287
1957125000 -1.0777938 90.652031
1968312500 -1.1127051 88.845139
1979500000 -1.1443146 87.033485
1990687500 -1.1682428 85.333168
2001875000 -1.1804824 83.436066
2013062500 -1.2227017 81.536461
2024250000 -1.2495986 79.737625
2035437500 -1.2866218 77.874023
2046625000 -1.3261369 76.001564
2057812500 -1.3552839 74.090118
2069000000 -1.4078163 72.15007
2080187500 -1.4746997 70.253624
2091375000 -1.5454589 68.498306
2102562500 -1.6112968 66.734581
2113750000 -1.6758934 65.040382
2124937500 -1.7348137 63.474411
2136125000 -1.7584049 61.986271
2147312500 -1.7646568 60.322762
2158500000 -1.7626003 58.592785
2169687500 -1.7542882 56.750774
2180875000 -1.7533307 54.709126
2192062500 -1.7776407 52.548668
2203250000 -1.8033514 50.552109
2214437500 -1.82798 48.336349
2225625000 -1.8889111 46.101181
2236812500 -1.972761 43.854832
2248000000 -2.0569763 41.915691
2259187500 -2.1433458 39.903397
2270375000 -2.2465806 37.82362
2281562500 -2.3662348 35.926861
2292750000 -2.5002701 34.387886
2303937500 -2.6030948 33.040802
2315125000 -2.627789 31.744688
2326312500 -2.6289682 30.078039
2337500000 -2.6634381 28.266338
2348687500 -2.6901119 26.464582
2359875000 -2.7103863 24.645763
2371062500 -2.7254162 22.679779
2382250000 -2.7502506 20.66538
2393437500 -2.7876461 18.537821
2404625000 -2.821285 16.520798
2415812500 -2.8628645 14.304436
2427000000 -2.9381125 12.060941
2438187500 -3.0134892 10.02743
2449375000 -3.0965958 7.9451928
2460562500 -3.1679075 6.0466142
2471750000 -3.2185357 3.9040406
2482937500 -3.2969141 1.7508086
2494125000 -3.3878367 -0.64965105
2505312500 -3.5351477 -2.8224463
2516500000 -3.714587 -4.741292
2527687500 -3.8530965 -6.2649522
2538875000 -3.9723692 -7.8349433
2550062500 -4.088871 -9.3252544
2561250000 -4.1555328 -10.555716
2572437500 -4.1809897 -11.914757
2583625000 -4.1824236 -13.508061
2594812500 -4.1786332 -15.388485
2606000000 -4.1764903 -17.346813
2617187500 -4.2001476 -19.533567
2628375000 -4.2099924 -21.615017
2639562500 -4.2363806 -24.045691
2650750000 -4.3031859 -26.574242
2661937500 -4.386148 -29.011829
2673125000 -4.5075274 -31.49575
2684312500 -4.6154919 -33.857147
2695500000 -4.7719064 -36.257011
2706687500 -4.9190955 -38.507214
2717875000 -5.1045208 -40.960442
2729062500 -5.385057 -42.983829
2740250000 -5.6568151 -44.246231
2751437500 -5.8610969 -45.091221
2762625000 -5.946178 -45.759148
2773812500 -6.0294147 -46.672112
2785000000 -5.9876738 -47.281422
2796187500 -5.8419018 -49.035442
2807375000 -5.8161836 -51.598385
2818562500 -5.8786473 -53.840458
2829750000 -5.8992743 -56.010231
2840937500 -5.9591231 -58.667671
2852125000 -6.071785 -60.934345
2863312500 -6.1381679 -63.323715
2874500000 -6.2958393 -65.713341
2885687500 -6.398921 -68.00943
2896875000 -6.5816765 -70.540077
2908062500 -6.7881331 -72.443588
2919250000 -6.9667411 -74.3321
2930437500 -7.1485844 -75.978355
2941625000 -7.2879691 -77.471115
2952812500 -7.3709788 -79.311134
2964000000 -7.5185862 -81.519592
2975187500 -7.7384043 -83.349274
2986375000 -7.9165621 -84.691399
2997562500 -8.0565109 -86.124092
3008750000 -8.1923933 -87.514191
3019937500 -8.3249359 -88.58567
3031125000 -8.3371811 -89.564499
3042312500 -8.3267908 -91.430435
3053500000 -8.3358469 -93.560791
3064687500 -8.4805861 -95.651512
3075875000 -8.498106 -97.180313
3087062500 -8.4949083 -99.467796
3098250000 -8.496995 -102.36665
3109437500 -8.6874561 -105.58334
3120625000 -8.906477 -108.0218
3131812500 -9.0947142 -110.45205
3143000000 -9.31036 -113.02303
3154187500 -9.6436605 -115.58215
3165375000 -9.98522 -117.0647
3176562500 -10.283471 -118.74682
3187750000 -10.631042 -119.44485
3198937500 -10.845782 -119.42295
3210125000 -10.884395 -119.91919
3221312500 -10.975651 -121.19215
3232500000 -11.048795 -121.50453
3243687500 -10.97487 -122.47196
3254875000 -10.780637 -123.72472
3266062500 -10.567149 -126.78783
3277250000 -10.537016 -130.41151
3288437500 -10.571699 -134.69936
3299625000 -10.813946 -138.55328
3310812500 -11.078748 -142.47006
3322000000 -11.461812 -145.58496
3333187500 -11.856636 -149.09969
3344375000 -12.461508 -151.22858
3355562500 -12.881108 -152.11603
3366750000 -13.297004 -152.90179
3377937500 -13.513445 -153.39926
3389125000 -13.752893 -154.30551
3400312500 -13.912242 -154.41367
3411500000 -13.777581 -155.11696
3422687500 -13.629325 -158.41154
3433875000 -13.846635 -162.08614
3445062500 -13.983781 -164.22029
3456250000 -13.984169 -168.08617
3467437500 -14.23973 -172.42429
3478625000 -14.625968 -176.62823
3489812500 -15.115751 -179.7184
3501000000 -15.475466 177.44456
3512187500 -15.926841 174.38048
3523375000 -16.229536 171.77966
3534562500 -16.723309 167.40804
3545750000 -17.268784 164.95959
3556937500 -17.779854 162.16129
3568125000 -18.347019 160.71454
3579312500 -18.566906 158.63586
3590500000 -18.839548 155.24889
3601687500 -19.281042 151.93448
3612875000 -19.606634 147.55437
3624062500 -20.185421 144.99828
3635250000 -20.364859 141.65532
3646437500 -20.429386 137.98511
3657625000 -20.382776 131.56001
3668812500 -20.600765 124.00053
3680000000 -20.660408 115.78943
3691187500 -20.942307 104.89773
3702375000 -21.550241 94.099266
3713562500 -22.184029 85.496246
3724750000 -22.498665 76.813622
3735937500 -22.439901 65.827988
3747125000 -22.880522 53.884415
3758312500 -23.171843 42.199593
3769500000 -23.883274 31.140135
3780687500 -24.377893 23.594629
3791875000 -24.746124 15.877665
3803062500 -25.059711 9.2251472
3814250000 -25.770355 5.3600626
3825437500 -26.185595 6.3385768
3836625000 -26.076838 11.170107
3847812500 -25.102474 17.37365
3859000000 -22.768509 18.817553
3870187500 -21.109205 12.877376
3881375000 -19.515696 6.3436265
3892562500 -18.274893 -2.9700453
3903750000 -17.576553 -11.893699
3914937500 -17.015432 -21.223921
3926125000 -16.851559 -28.370378
3937312500 -16.598293 -34.882652
3948500000 -16.373762 -41.271664
3959687500 -16.317101 -48.400524
3970875000 -16.55233 -55.111004
3982062500 -17.003521 -59.437325
3993250000 -17.374567 -62.553299
4004437500 -17.78743 -64.73465
4015625000 -18.31712 -64.904388
4026812500 -18.546457 -62.05899
4038000000 -18.17067 -59.268578
4049187500 -17.686459 -58.83062
4060375000 -17.15094 -58.57357
4071562500 -16.506166 -59.754887
4082750000 -15.919407 -62.133549
4093937500 -15.472488 -65.374138
4105125000 -15.083886 -67.910851
4116312500 -14.581081 -71.901604
4127500000 -14.338288 -76.241745
4138687500 -14.142545 -80.567024
4149875000 -14.09194 -85.060394
4161062500 -14.1832 -89.023575
4172250000 -14.317602 -91.855682
4183437500 -14.332545 -94.689285
4194625000 -14.368098 -98.345322
4205812500 -14.664237 -101.89085
4217000000 -15.156566 -103.68849
4228187500 -15.31184 -103.44453
4239375000 -15.42893 -104.97982
4250562500 -15.704534 -105.70749
4261750000 -15.953609 -104.28291
4272937500 -15.785344 -102.78738
4284125000 -15.464067 -101.6109
4295312500 -14.960539 -102.12125
4306500000 -14.506042 -103.9254
4317687500 -14.052187 -106.71535
4328875000 -13.715636 -111.29546
4340062500 -13.682346 -115.45424
4351250000 -13.646191 -119.57417
4362437500 -13.750579 -124.23222
4373625000 -14.067343 -128.61188
4384812500 -14.52216 -131.41054
4396000000 -14.782251 -134.02617
4407187500 -15.245152 -137.37309
4418375000 -15.793854 -139.35069
4429562500 -16.502813 -141.17987
4440750000 -17.282244 -140.06377
4451937500 -17.836754 -137.6096
4463125000 -18.208296 -133.01489
4474312500 -17.868502 -128.67465
4485500000 -17.330898 -127.65143
4496687500 -17.019905 -129.01042
4507875000 -16.794127 -129.75452
4519062500 -16.534666 -131.30644
4530250000 -16.274454 -134.45775
4541437500 -16.391623 -138.36002
4552625000 -16.646055 -140.89713
4563812500 -16.880091 -143.59802
4575000000 -17.218048 -145.76607
4586187500 -17.689274 -148.81801
4597375000 -18.338375 -150.06755
4608562500 -19.006802 -150.88031
4619750000 -19.907351 -151.59712
4630937500 -21.002186 -148.82632
4642125000 -21.994726 -141.84943
4653312500 -22.06563 -130.91624
4664500000 -21.398294 -125.60797
4675687500 -21.010654 -121.5412
4686875000 -20.384459 -117.53051
4698062500 -19.540091 -113.76183
4709250000 -18.352896 -114.36369
4720437500 -17.677532 -117.38297
4731625000 -17.171701 -120.31366
4742812500 -16.827805 -123.86658
4754000000 -16.697245 -127.25988
4765187500 -16.716343 -129.81949
4776375000 -16.751301 -131.92593
4787562500 -16.787907 -133.49599
4798750000 -16.871365 -134.80626
4809937500 -16.754282 -135.79347
4821125000 -16.85446 -138.27051
4832312500 -16.987513 -138.99763
4843500000 -16.993345 -140.0047
4854687500 -17.044155 -141.96011
4865875000 -17.231848 -142.75868
4877062500 -17.293394 -144.22173
4888250000 -17.542284 -145.40219
4899437500 -17.768591 -145.05565
4910625000 -17.596285 -144.73302
4921812500 -17.642233 -147.53152
4933000000 -17.904072 -148.5184
4944187500 -18.111769 -148.76622
4955375000 -18.260691 -148.53465
4966562500 -17.994087 -147.97008
4977750000 -17.799135 -152.63519
4988937500 -18.277712 -157.30464
5000125000 -18.91774 -159.67722
5011312500 -19.754721 -160.9698
5022500000 -20.531797 -161.24509
5033687500 -21.418108 -162.03479
5044875000 -23.018513 -160.65771
5056062500 -24.526781 -152.26173
5067250000 -25.556698 -138.87578
5078437500 -25.331778 -123.39264
5089625000 -24.109241 -110.43698
5100812500 -22.291626 -104.80137
5112000000 -21.060154 -104.71002
5123187500 -20.015961 -103.86856
5134375000 -18.992332 -106.12841
5145562500 -18.491545 -109.66724
5156750000 -18.268232 -111.46813
5167937500 -18.092833 -112.09028
5179125000 -17.850945 -111.94232
5190312500 -17.48208 -112.23197
5201500000 -17.283686 -113.39964
5212687500 -17.200722 -112.89105
5223875000 -16.827696 -111.68652
5235062500 -16.396027 -111.99467
5246250000 -16.19149 -112.93607
5257437500 -16.040974 -111.4334
5268625000 -15.532079 -110.15983
5279812500 -14.883675 -110.58591
5291000000 -14.477815 -112.24952
5302187500 -14.169629 -112.56382
5313375000 -13.672194 -112.79791
5324562500 -13.065652 -114.28969
5335750000 -12.610465 -116.7683
5346937500 -12.201889 -119.08932
5358125000 -11.831784 -122.03491
5369312500 -11.539812 -124.74352
5380500000 -11.248637 -128.07587
5391687500 -11.097965 -131.77132
5402875000 -11.093735 -135.31772
5414062500 -11.186793 -137.98329
5425250000 -11.329822 -139.80392
5436437500 -11.365323 -140.7068
5447625000 -11.363894 -142.08623
5458812500 -11.413181 -143.10249
5470000000 -11.423837 -142.85394
5481187500 -11.167407 -142.79533
5492375000 -10.880896 -144.05927
5503562500 -10.687423 -145.65167
5514750000 -10.490823 -146.91682
5525937500 -10.211456 -148.64502
5537125000 -9.9538765 -151.32942
5548312500 -9.8594398 -154.44934
5559500000 -9.8231506 -157.01903
5570687500 -9.8268099 -159.66199
5581875000 -9.9382954 -161.96188
5593062500 -9.9708729 -163.45847
5604250000 -9.9724941 -165.50148
5615437500 -10.081067 -167.27432
5626625000 -10.119413 -168.33789
5637812500 -10.091055 -169.4175
5649000000 -10.003042 -171.19106
5660187500 -10.022562 -173.3625
5671375000 -10.083214 -174.95644
5682562500 -10.086587 -176.40173
5693750000 -10.112241 -178.59267
5704937500 -10.237546 179.77794
5716125000 -10.312035 178.25198
5727312500 -10.417493 176.79996
5738500000 -10.546933 175.65245
5749687500 -10.62429 174.84731
5760875000 -10.635731 173.91833
5772062500 -10.627978 172.62024
5783250000 -10.712675 171.07599
5794437500 -10.736362 170.51329
5805625000 -10.684892 169.03966
5816812500 -10.651843 167.27863
5828000000 -10.754736 165.07756
5839187500 -10.892943 163.73824
5850375000 -10.953979 162.32707
5861562500 -11.025527 160.61835
5872750000 -11.169845 158.52759
5883937500 -11.443032 156.93486
5895125000 -11.683239 156.44728
5906312500 -11.824585 156.11549
5917500000 -11.903369 155.44264
5928687500 -12.041043 154.53938
5939875000 -12.16978 153.89772
5951062500 -12.287057 153.52151
5962250000 -12.320247 153.22946
5973437500 -12.341536 152.06279
5984625000 -12.457993 150.91257
5995812500 -12.567251 150.0054
6007000000 -12.725628 149.35101
6018187500 -12.801912 148.5157
6029375000 -12.958338 147.42233
6040562500 -13.189816 146.60965
6051750000 -13.390959 146.84073
6062937500 -13.476974 147.17021
6074125000 -13.4394 147.07993
6085312500 -13.450252 146.06502
6096500000 -13.599566 145.50594
6107687500 -13.622328 145.55664
6118875000 -13.614838 144.64745
6130062500 -13.697742 143.50928
6141250000 -13.803911 142.80484
6152437500 -13.929637 141.92337
6163625000 -14.086058 141.03647
6174812500 -14.324303 140.19591
6186000000 -14.572987 140.49815
6197187500 -14.742172 140.75632
6208375000 -14.934505 141.22963
6219562500 -15.043489 142.44273
6230750000 -15.050805 143.1041
6241937500 -15.085472 144.11313
6253125000 -14.946213 145.04887
6264312500 -14.749857 145.05772
6275500000 -14.630159 144.17349
6286687500 -14.574289 143.1416
6297875000 -14.598759 142.24846
6309062500 -14.630733 141.8744
6320250000 -14.612928 141.05362
6331437500 -14.653001 140.20442
6342625000 -14.751742 139.55022
6353812500 -14.841043 139.22913
6365000000 -14.921895 138.8398
6376187500 -15.102828 139.00562
6387375000 -15.156907 139.65756
6398562500 -15.185356 140.52287
6409750000 -15.03759 140.83195
6420937500 -14.975177 140.45218
6432125000 -14.988299 140.77066
6443312500 -14.811602 140.51674
6454500000 -14.787266 140.05328
6465687500 -14.733248 139.93095
6476875000 -14.62719 139.47589
6488062500 -14.593184 138.97476
6499250000 -14.532016 138.60788
6510437500 -14.443697 138.35004
6521625000 -14.326025 137.62662
6532812500 -14.250434 136.61282
6544000000 -14.203035 135.78246
6555187500 -14.143747 134.88025
6566375000 -14.06399 133.88342
6577562500 -14.041621 132.45717
6588750000 -14.101644 131.34122
6599937500 -14.170276 130.63263
6611125000 -14.20658 129.95168
6622312500 -14.301632 129.61366
6633500000 -14.271567 129.49557
6644687500 -14.333238 128.94443
6655875000 -14.382236 129.43704
6667062500 -14.311812 129.89784
6678250000 -14.151814 130.33366
6689437500 -13.895666 130.14091
6700625000 -13.692341 129.00713
6711812500 -13.533031 127.90359
6723000000 -13.350283 126.75193
6734187500 -13.166565 124.8346
6745375000 -13.061134 122.44978
6756562500 -13.109239 120.4767
6767750000 -13.135758 119.00665
6778937500 -13.161508 117.10114
6790125000 -13.270259 115.80735
6801312500 -13.35168 114.67641
6812500000 -13.417171 113.92271
6823687500 -13.448895 113.23862
6834875000 -13.461808 112.40742
6846062500 -13.494747 111.51978
6857250000 -13.533005 111.04989
6868437500 -13.506456 110.82458
6879625000 -13.36172 110.17796
6890812500 -13.28702 108.87679
