!Keysight Technologies,N5222B,MY60213399,A.14.00.23
!Date: Monday, June 05, 2023 21:52:23
!Correction: S11(C  1-Port  ) 
!S1P File: Measurement: :
# Hz S  dB   R 50
100000000 -0.0093647605 -11.149032
111187500 -0.0098688398 -12.40775
122375000 -0.0073249135 -13.652848
133562500 -0.0082724867 -14.917859
144750000 -0.0066087954 -16.1919
155937500 -0.010577971 -17.474434
167125000 -0.010087042 -18.745134
178312500 -0.021429675 -20.026028
189500000 -0.028656395 -21.288685
200687500 -0.034472115 -22.583448
211875000 -0.066147238 -23.684399
223062500 -0.056248683 -24.741156
234250000 -0.041546788 -25.948095
245437500 -0.022240348 -27.235518
256625000 -0.017442517 -28.554338
267812500 -0.019628838 -29.856636
279000000 -0.021254605 -31.162916
290187500 -0.028682973 -32.468895
301375000 -0.033447854 -33.802521
312562500 -0.047346052 -35.147781
323750000 -0.063321389 -36.510857
334937500 -0.10143009 -37.833183
346125000 -0.15682547 -38.958981
357312500 -0.20016614 -39.733829
368500000 -0.1473524 -40.540714
379687500 -0.092353009 -41.759193
390875000 -0.06573382 -43.148636
402062500 -0.049859855 -44.534302
413250000 -0.045332234 -45.91275
424437500 -0.045505922 -47.271267
435625000 -0.048610494 -48.602196
446812500 -0.057203583 -49.978508
458000000 -0.076551296 -51.339973
469187500 -0.10414006 -52.643967
480375000 -0.13056906 -53.844364
491562500 -0.14866291 -55.076656
502750000 -0.16143543 -56.350674
513937500 -0.20237592 -57.6964
525125000 -0.26849043 -58.721458
536312500 -0.2999509 -59.371422
547500000 -0.23879544 -60.142719
558687500 -0.16540997 -61.39127
569875000 -0.13722716 -62.8577
581062500 -0.12236699 -64.278053
592250000 -0.11629844 -65.634735
603437500 -0.11350116 -67.067772
614625000 -0.12029387 -68.535271
625812500 -0.13718013 -69.988037
637000000 -0.17524999 -71.396637
648187500 -0.23276995 -72.742058
659375000 -0.29839125 -73.803688
670562500 -0.34275126 -74.665718
681750000 -0.32616308 -75.289192
692937500 -0.27155361 -76.370255
704125000 -0.23530546 -77.674599
715312500 -0.20830314 -79.028984
726500000 -0.19715695 -80.470818
737687500 -0.19672653 -81.939857
748875000 -0.20723841 -83.402031
760062500 -0.24250941 -84.908897
771250000 -0.29273501 -86.283394
782437500 -0.36991948 -87.521301
793625000 -0.41983664 -88.375618
804812500 -0.44675982 -89.251755
816000000 -0.43340108 -90.046715
827187500 -0.39940763 -90.990349
838375000 -0.3474699 -92.132744
849562500 -0.30006185 -93.426353
860750000 -0.2730248 -94.80352
871937500 -0.25689778 -96.298111
883125000 -0.25081259 -97.720497
894312500 -0.25021476 -99.227509
905500000 -0.26829576 -100.77787
916687500 -0.29384696 -102.32089
927875000 -0.34041238 -103.81535
939062500 -0.41334331 -105.34457
950250000 -0.5320769 -106.63062
961437500 -0.66500896 -107.33004
972625000 -0.71888596 -107.62669
983812500 -0.67048967 -107.83406
995000000 -0.55307323 -108.66135
1006187500 -0.46002969 -110.03034
1017375000 -0.39929241 -111.41217
1028562500 -0.35444957 -112.97065
1039750000 -0.32935211 -114.49867
1050937500 -0.32132179 -116.12812
1062125000 -0.33071539 -117.66791
1073312500 -0.34918642 -119.35854
1084500000 -0.38946548 -120.99929
1095687500 -0.46377712 -122.63017
1106875000 -0.58482724 -124.05454
1118062500 -0.72480613 -125.00939
1129250000 -0.83437729 -125.47805
1140437500 -0.8431192 -125.59486
1151625000 -0.75030708 -126.01237
1162812500 -0.63771957 -127.04273
1174000000 -0.55151612 -128.4205
1185187500 -0.48767924 -130.01653
1196375000 -0.46433997 -131.71701
1207562500 -0.46684748 -133.41176
1218750000 -0.49622977 -135.08513
1229937500 -0.55233091 -136.62122
1241125000 -0.62297094 -138.06647
1252312500 -0.72192574 -139.30386
1263500000 -0.81100941 -140.11858
1274687500 -0.83063185 -140.60248
1285875000 -0.78535342 -141.37508
1297062500 -0.71571767 -142.40762
1308250000 -0.65447122 -143.77354
1319437500 -0.63471204 -145.3233
1330625000 -0.64715683 -146.85068
1341812500 -0.65503949 -148.30101
1353000000 -0.68363887 -149.75374
1364187500 -0.72977757 -151.10283
1375375000 -0.77473289 -152.44893
1386562500 -0.84184861 -153.61009
1397750000 -0.89904064 -154.57695
1408937500 -0.93085003 -155.30957
1420125000 -0.90498149 -156.03438
1431312500 -0.84237057 -157.02155
1442500000 -0.77323031 -158.29955
1453687500 -0.73299724 -159.87799
1464875000 -0.73850894 -161.47583
1476062500 -0.75579089 -162.89751
1487250000 -0.76250511 -164.35089
1498437500 -0.77176291 -165.84682
1509625000 -0.79838085 -167.41161
1520812500 -0.87373286 -168.94553
1532000000 -0.96649897 -170.30269
1543187500 -1.0614132 -171.32727
1554375000 -1.1484059 -171.98529
1565562500 -1.1662774 -172.52802
1576750000 -1.1552337 -173.16074
1587937500 -1.1047485 -173.86217
1599125000 -1.0225626 -174.78102
1610312500 -0.92857146 -175.96147
1621500000 -0.84620821 -177.40921
1632687500 -0.78788358 -179.08426
1643875000 -0.7514804 179.13046
1655062500 -0.74788845 177.33073
1666250000 -0.76853448 175.41205
1677437500 -0.8295607 173.52844
1688625000 -0.93538439 171.78011
1699812500 -1.0553625 170.27684
1711000000 -1.2071829 169.08026
1722187500 -1.3418121 168.39778
1733375000 -1.4278675 168.12123
1744562500 -1.4239028 167.8717
1755750000 -1.3525693 167.43559
1766937500 -1.2497556 166.51303
1778125000 -1.154918 165.15215
1789312500 -1.1148657 163.68054
1800500000 -1.0822991 162.1956
1811687500 -1.0829109 160.75023
1822875000 -1.0711744 159.36934
1834062500 -1.0829663 157.91629
1845250000 -1.0874549 156.56938
1856437500 -1.0915132 155.18347
1867625000 -1.0988778 153.78612
1878812500 -1.0987232 152.422
1890000000 -1.0957727 150.90508
1901187500 -1.1120865 149.3069
1912375000 -1.1536797 147.67314
1923562500 -1.219811 146.07117
1934750000 -1.3149685 144.67603
1945937500 -1.422709 143.5235
1957125000 -1.5183564 142.64757
1968312500 -1.590001 141.90492
1979500000 -1.6399645 141.4657
1990687500 -1.6141278 141.05544
2001875000 -1.5497923 140.47769
2013062500 -1.4489369 139.65666
2024250000 -1.3307728 138.51248
2035437500 -1.229452 137.03432
2046625000 -1.1479499 135.36417
2057812500 -1.0874999 133.59578
2069000000 -1.0636313 131.65976
2080187500 -1.065075 129.74306
2091375000 -1.0857674 127.76942
2102562500 -1.1494756 125.84856
2113750000 -1.2515361 124.02591
2124937500 -1.3704507 122.37148
2136125000 -1.5245337 120.93036
2147312500 -1.6960233 119.91296
2158500000 -1.8444257 119.47234
2169687500 -1.9304883 119.3894
2180875000 -1.9331608 119.42669
2192062500 -1.8343161 119.29269
2203250000 -1.6936829 118.67236
2214437500 -1.540278 117.62144
2225625000 -1.3940912 116.21597
2236812500 -1.2828345 114.52306
2248000000 -1.1995358 112.61837
2259187500 -1.1531798 110.63595
2270375000 -1.1294934 108.61875
2281562500 -1.1495229 106.57045
2292750000 -1.2072564 104.64467
2303937500 -1.2859378 102.85128
2315125000 -1.3703113 101.23643
2326312500 -1.4724647 99.724754
2337500000 -1.5733072 98.479324
2348687500 -1.6725152 97.300484
2359875000 -1.7752345 96.411774
2371062500 -1.8474224 95.611725
2382250000 -1.8989807 95.168861
2393437500 -1.8894082 94.697556
2404625000 -1.8302662 94.111481
2415812500 -1.7381934 93.285194
2427000000 -1.6398376 92.251846
2438187500 -1.5267167 91.025528
2449375000 -1.4261605 89.58329
2460562500 -1.3429186 87.896454
2471750000 -1.2611839 86.130516
2482937500 -1.2152619 84.183701
2494125000 -1.2023515 82.215836
2505312500 -1.2062308 80.252457
2516500000 -1.239568 78.275558
2527687500 -1.2960141 76.350861
2538875000 -1.3782831 74.531532
2550062500 -1.4899054 72.817207
2561250000 -1.6233063 71.390312
2572437500 -1.7655278 70.324547
2583625000 -1.8750817 69.707458
2594812500 -1.9295363 69.272041
2606000000 -1.9104686 68.850067
2617187500 -1.8628633 68.281563
2628375000 -1.763854 67.610817
2639562500 -1.6297282 66.609024
2650750000 -1.4913594 65.242432
2661937500 -1.3719672 63.561665
2673125000 -1.2883825 61.593739
2684312500 -1.2332644 59.644798
2695500000 -1.1980311 57.637207
2706687500 -1.1931071 55.597206
2717875000 -1.2141621 53.565487
2729062500 -1.2541337 51.539829
2740250000 -1.3289592 49.598732
2751437500 -1.4305048 47.78159
2762625000 -1.5556982 46.291763
2773812500 -1.6786801 45.098106
2785000000 -1.7669709 44.218296
2796187500 -1.8281765 43.51432
2807375000 -1.8310831 42.871861
2818562500 -1.7824908 42.181358
2829750000 -1.7002704 41.191597
2840937500 -1.6121376 39.909229
2852125000 -1.5330592 38.454865
2863312500 -1.4634182 36.908047
2874500000 -1.4011567 35.207176
2885687500 -1.3580546 33.418034
2896875000 -1.3302139 31.592478
2908062500 -1.321129 29.756062
2919250000 -1.3188066 27.927704
2930437500 -1.3357042 26.12273
2941625000 -1.3550551 24.381481
2952812500 -1.3798798 22.574007
2964000000 -1.4206139 20.7684
2975187500 -1.4807912 19.064331
2986375000 -1.559875 17.492054
2997562500 -1.6382029 16.058517
3008750000 -1.7172052 14.814014
3019937500 -1.7726196 13.792705
3031125000 -1.7953533 12.887959
3042312500 -1.7864932 11.988647
3053500000 -1.7352719 11.007828
3064687500 -1.6540573 9.8046227
3075875000 -1.5692939 8.3474779
3087062500 -1.4936461 6.7069869
3098250000 -1.427019 4.9637733
3109437500 -1.3762523 2.9622416
3120625000 -1.3676873 0.94518584
3131812500 -1.3721046 -1.0441794
3143000000 -1.3896255 -3.0185461
3154187500 -1.4292157 -4.9633369
3165375000 -1.485773 -6.8820539
3176562500 -1.566978 -8.6900024
3187750000 -1.6616163 -10.254574
3198937500 -1.7519794 -11.619545
3210125000 -1.8347106 -12.780605
3221312500 -1.8841373 -13.796054
3232500000 -1.8914696 -14.636725
3243687500 -1.851589 -15.61165
3254875000 -1.7936746 -16.812233
3266062500 -1.7161621 -18.314156
3277250000 -1.6477762 -19.909435
3288437500 -1.5926765 -21.748285
3299625000 -1.5593127 -23.645121
3310812500 -1.5474284 -25.647112
3322000000 -1.5582705 -27.597195
3333187500 -1.5889879 -29.554573
3344375000 -1.6347791 -31.416677
3355562500 -1.6930383 -33.221058
3366750000 -1.7682099 -34.88863
3377937500 -1.839362 -36.372402
3389125000 -1.9024009 -37.744511
3400312500 -1.9516633 -38.959541
3411500000 -1.967535 -40.119793
3422687500 -1.943869 -41.355637
3433875000 -1.9147239 -42.836147
3445062500 -1.9003543 -44.400753
3456250000 -1.885451 -46.059574
3467437500 -1.8847505 -47.690586
3478625000 -1.8825901 -49.338295
3489812500 -1.8770422 -50.979137
3501000000 -1.8852143 -52.707657
3512187500 -1.8796037 -54.457401
3523375000 -1.9025817 -56.250809
3534562500 -1.9294052 -57.958965
3545750000 -1.9570497 -59.70071
3556937500 -1.9899371 -61.41069
3568125000 -2.0328166 -63.106987
3579312500 -2.0856647 -64.68428
3590500000 -2.1272864 -66.26503
3601687500 -2.1743183 -67.75412
3612875000 -2.2231662 -69.243927
3624062500 -2.2587883 -70.547691
3635250000 -2.2685046 -71.847435
3646437500 -2.2647634 -73.21862
3657625000 -2.2475417 -74.661644
3668812500 -2.2216842 -76.166664
3680000000 -2.1934841 -77.80584
3691187500 -2.1683085 -79.637917
3702375000 -2.1635528 -81.573112
3713562500 -2.1731031 -83.527237
3724750000 -2.1989014 -85.40094
3735937500 -2.2223456 -87.409912
3747125000 -2.2906852 -89.392929
3758312500 -2.3680072 -91.22673
3769500000 -2.4439228 -92.934624
3780687500 -2.5291214 -94.651115
3791875000 -2.6475897 -96.27359
3803062500 -2.7566853 -97.456413
3814250000 -2.8367212 -98.583344
3825437500 -2.8994844 -99.434288
3836625000 -2.8988125 -100.21212
3847812500 -2.8385029 -101.114
3859000000 -2.7445238 -102.4368
3870187500 -2.64973 -104.07882
3881375000 -2.5692437 -106.08813
3892562500 -2.5306695 -108.29824
3903750000 -2.5288224 -110.45704
3914937500 -2.5476317 -112.73363
3926125000 -2.601999 -115.04026
3937312500 -2.688051 -117.21651
3948500000 -2.7911401 -119.22215
3959687500 -2.9130845 -121.11962
3970875000 -3.043632 -122.75195
3982062500 -3.1571074 -124.23114
3993250000 -3.268116 -125.67995
4004437500 -3.3769915 -126.97382
4015625000 -3.4758093 -128.0869
4026812500 -3.5407794 -129.06326
4038000000 -3.5757527 -130.03661
4049187500 -3.5770135 -130.90758
4060375000 -3.5130305 -132.12743
4071562500 -3.4715772 -133.65984
4082750000 -3.4570389 -135.31563
4093937500 -3.4307992 -136.98633
4105125000 -3.4064186 -138.82095
4116312500 -3.3986239 -140.7532
4127500000 -3.3884134 -142.7206
4138687500 -3.4022927 -145.02811
4149875000 -3.4529879 -147.25758
4161062500 -3.5471082 -149.64336
4172250000 -3.6831911 -151.7567
4183437500 -3.8214445 -153.77295
4194625000 -4.0102687 -155.49263
4205812500 -4.1717095 -156.96623
4217000000 -4.3283415 -158.25871
4228187500 -4.4613557 -159.407
4239375000 -4.6084204 -160.51617
4250562500 -4.7340293 -161.23277
4261750000 -4.7959962 -161.76649
4272937500 -4.8139443 -162.33238
4284125000 -4.7571321 -163.03052
4295312500 -4.6671157 -164.04482
4306500000 -4.5374179 -165.46378
4317687500 -4.4110427 -167.56595
4328875000 -4.3533912 -170.16638
4340062500 -4.3812609 -172.85576
4351250000 -4.4597001 -175.4117
4362437500 -4.5914383 -177.96138
4373625000 -4.7476401 179.66096
4384812500 -4.9594626 177.33119
4396000000 -5.2175612 175.48494
4407187500 -5.4790311 173.91733
4418375000 -5.7508607 173.0468
4429562500 -5.9513216 172.36844
4440750000 -6.116188 171.84554
4451937500 -6.2581143 171.28432
4463125000 -6.3655152 171.12123
4474312500 -6.3807611 170.86122
4485500000 -6.3352661 170.24052
4496687500 -6.3084145 169.15677
4507875000 -6.2816586 167.98108
4519062500 -6.2448063 166.63388
4530250000 -6.2281747 164.78065
4541437500 -6.2776952 162.93044
4552625000 -6.338007 161.22627
4563812500 -6.4064622 159.33636
4575000000 -6.5132489 157.3465
4586187500 -6.6852536 155.33186
4597375000 -6.8917041 153.80193
4608562500 -7.1165948 152.23402
4619750000 -7.4197721 151.22482
4630937500 -7.6879873 150.83885
4642125000 -7.8815403 150.85316
4653312500 -8.0733662 151.02855
4664500000 -8.1871128 151.68016
4675687500 -8.2019434 151.98181
4686875000 -8.2202501 152.4464
4698062500 -8.1254377 152.81474
4709250000 -8.0298615 152.64607
4720437500 -7.8989215 152.59792
4731625000 -7.7131109 152.01503
4742812500 -7.5524116 150.94614
4754000000 -7.4375534 150.01671
4765187500 -7.2802439 148.88054
4776375000 -7.15487 147.26689
4787562500 -7.0914865 145.95786
4798750000 -6.9956198 144.60432
4809937500 -6.8961244 143.25548
4821125000 -6.8085604 141.76236
4832312500 -6.7015171 140.19035
4843500000 -6.6187749 138.53981
4854687500 -6.5285144 136.81799
4865875000 -6.4433937 134.91362
4877062500 -6.3923826 132.9053
4888250000 -6.3625555 130.97835
4899437500 -6.3469973 129.09651
4910625000 -6.3366561 127.34863
4921812500 -6.3208461 125.72317
4933000000 -6.2741709 124.19823
4944187500 -6.1863599 122.59277
4955375000 -6.0894117 120.55257
4966562500 -6.0174813 118.44261
4977750000 -5.941216 116.11327
4988937500 -5.8833966 113.65562
5000125000 -5.8503757 110.899
5011312500 -5.8804026 108.15362
5022500000 -5.9123173 105.56769
5033687500 -5.9577327 102.65411
5044875000 -6.0946617 99.708138
5056062500 -6.2796087 97.297081
5067250000 -6.4557424 95.026924
5078437500 -6.6668692 92.953926
5089625000 -6.8850336 91.316994
5100812500 -7.0529156 90.100937
5112000000 -7.1801248 88.916336
5123187500 -7.2700348 87.682198
5134375000 -7.3370843 86.36113
5145562500 -7.3799844 85.027847
5156750000 -7.4126987 83.236244
5167937500 -7.4977045 81.589012
5179125000 -7.5784469 80.160065
5190312500 -7.6154742 78.599915
5201500000 -7.6589713 77.205925
5212687500 -7.6516976 75.505005
5223875000 -7.6595168 73.665466
5235062500 -7.6688576 71.378937
5246250000 -7.74229 69.132645
5257437500 -7.826663 66.877335
5268625000 -7.9328809 64.601936
5279812500 -8.0629683 62.465816
5291000000 -8.1756802 60.294487
5302187500 -8.3414974 58.080055
5313375000 -8.5193472 55.813366
5324562500 -8.7764034 53.692089
5335750000 -9.079772 51.993275
5346937500 -9.3895149 51.024998
5358125000 -9.6181631 50.666126
5369312500 -9.7727766 50.255035
5380500000 -9.8871622 50.114582
5391687500 -9.9075413 49.983685
5402875000 -9.8377256 49.536606
5414062500 -9.72013 48.465214
5425250000 -9.6150408 46.821308
5436437500 -9.5005732 44.829044
5447625000 -9.432601 42.121136
5458812500 -9.4801559 39.131744
5470000000 -9.6202316 36.327267
5481187500 -9.7859583 33.795567
5492375000 -10.030787 31.342386
5503562500 -10.29345 29.580658
5514750000 -10.547523 27.95402
5525937500 -10.819595 26.824793
5537125000 -11.022203 26.226803
5548312500 -11.193482 25.701202
5559500000 -11.233035 25.417503
5570687500 -11.220417 24.48748
5581875000 -11.184715 23.098789
5593062500 -11.148356 21.337727
5604250000 -11.191689 18.964918
5615437500 -11.280647 16.590202
5626625000 -11.493784 13.973877
5637812500 -11.762014 12.193261
5649000000 -12.065846 10.904888
5660187500 -12.345758 10.555928
5671375000 -12.48623 10.464405
5682562500 -12.493331 10.435295
5693750000 -12.438108 9.3256235
5704937500 -12.40746 7.8901844
5716125000 -12.46726 6.0026131
5727312500 -12.525519 4.4629736
5738500000 -12.602584 3.0294678
5749687500 -12.63279 1.5288645
5760875000 -12.663717 -0.46079707
5772062500 -12.750895 -2.5603421
5783250000 -12.872695 -5.0078077
5794437500 -13.166054 -7.006669
5805625000 -13.40567 -8.2774906
5816812500 -13.649609 -9.3621664
5828000000 -13.908864 -9.9032784
5839187500 -14.040725 -9.8983507
5850375000 -14.082008 -10.007722
5861562500 -14.015746 -10.741977
5872750000 -13.95635 -12.144719
5883937500 -13.932755 -14.074274
5895125000 -14.06553 -16.08552
5906312500 -14.151474 -17.413078
5917500000 -14.218247 -19.605339
5928687500 -14.455029 -21.602591
5939875000 -14.713078 -22.514494
5951062500 -14.844209 -23.16256
5962250000 -14.958205 -24.219749
5973437500 -15.140356 -24.595789
5984625000 -15.193344 -24.513889
5995812500 -15.136098 -24.68754
6007000000 -14.965672 -25.220079
6018187500 -14.747063 -27.220573
6029375000 -14.638582 -29.728207
6040562500 -14.581627 -32.873215
6051750000 -14.689234 -36.435257
6062937500 -14.945839 -39.937721
6074125000 -15.305547 -42.780323
6085312500 -15.806593 -45.17091
6096500000 -16.358936 -46.245247
6107687500 -16.897934 -46.066292
6118875000 -17.334229 -44.606236
6130062500 -17.565405 -42.024662
6141250000 -17.483934 -39.783642
6152437500 -17.238184 -38.486912
6163625000 -16.882748 -38.18914
6174812500 -16.522072 -39.372074
6186000000 -16.239202 -41.389492
6197187500 -16.034369 -44.085487
6208375000 -15.913276 -46.858315
6219562500 -15.855498 -50.147182
6230750000 -15.926222 -53.869808
6241937500 -16.196405 -57.333477
6253125000 -16.569393 -59.799332
6264312500 -16.934183 -61.512554
6275500000 -17.337713 -62.797203
6286687500 -17.71917 -62.684227
6297875000 -17.937744 -62.574471
6309062500 -18.085873 -62.59169
6320250000 -18.214806 -62.979118
6331437500 -18.404219 -62.575092
6342625000 -18.40555 -62.084999
6353812500 -18.335329 -62.267078
6365000000 -18.223001 -62.491779
6376187500 -18.09812 -63.662064
6387375000 -18.039028 -65.212013
6398562500 -18.032265 -66.473061
6409750000 -17.997568 -67.931679
6420937500 -18.03548 -69.683731
6432125000 -18.074961 -71.046127
6443312500 -18.069042 -72.475655
6454500000 -18.125242 -74.478302
6465687500 -18.134037 -75.554253
6476875000 -18.113134 -77.795128
6488062500 -18.136089 -80.769745
6499250000 -18.404554 -84.265717
6510437500 -18.80908 -87.045677
6521625000 -19.433086 -88.764175
6532812500 -20.005329 -88.056938
6544000000 -20.310232 -87.6054
6555187500 -20.776115 -86.622116
6566375000 -21.142883 -84.302002
6577562500 -21.265425 -80.415489
6588750000 -20.924631 -76.949394
6599937500 -20.47607 -75.735878
6611125000 -19.894609 -75.126846
6622312500 -19.331182 -77.076462
6633500000 -18.915838 -79.888702
6644687500 -18.567331 -83.56337
6655875000 -18.360241 -87.861328
6667062500 -18.346233 -93.180771
6678250000 -18.586052 -98.102524
6689437500 -18.985611 -102.64588
6700625000 -19.702427 -106.76924
6711812500 -20.58004 -108.30013
6723000000 -21.489449 -107.98121
6734187500 -22.196396 -104.1367
6745375000 -22.50902 -100.66921
6756562500 -22.498613 -96.707603
6767750000 -22.324923 -95.329987
6778937500 -22.446089 -93.781036
6790125000 -22.160404 -90.431412
6801312500 -21.594961 -89.840027
6812500000 -21.177078 -90.821526
6823687500 -20.776772 -93.351082
6834875000 -20.707125 -96.684502
6846062500 -20.820034 -98.378731
6857250000 -20.765453 -99.504837
6868437500 -20.722273 -102.36768
6879625000 -20.837767 -103.76975
6890812500 -20.889929 -106.3443
6902000000 -21.160686 -108.405
6913187500 -21.463669 -109.44589
