!Keysight Technologies,N5222B,MY60213399,A.14.00.23
!Date: Monday, June 05, 2023 21:17:03
!Correction: S11(C  1-Port  ) 
!S1P File: Measurement: :
# Hz S  dB   R 50
100000000 -0.012546938 -14.314953
111187500 -0.013258616 -15.001786
122375000 -0.014147667 -15.763679
133562500 -0.015026116 -16.599422
144750000 -0.016127544 -17.51145
155937500 -0.017265592 -18.499842
167125000 -0.018518485 -19.564241
178312500 -0.019673005 -20.705257
189500000 -0.020914176 -21.923714
200687500 -0.022200981 -23.217251
211875000 -0.02341431 -24.513849
223062500 -0.024917217 -25.812103
234250000 -0.026552999 -27.112225
245437500 -0.028895166 -28.41555
256625000 -0.032214638 -29.719673
267812500 -0.036638942 -31.021288
279000000 -0.042497747 -32.315029
290187500 -0.047938962 -33.596184
301375000 -0.052250039 -34.870918
312562500 -0.055400029 -36.145355
323750000 -0.058140259 -37.425945
334937500 -0.06050406 -38.708965
346125000 -0.06293121 -39.995159
357312500 -0.065221339 -41.285877
368500000 -0.068288945 -42.577671
379687500 -0.072011381 -43.870182
390875000 -0.07632719 -45.164272
402062500 -0.081356905 -46.451965
413250000 -0.086217433 -47.735527
424437500 -0.090835445 -49.014668
435625000 -0.094681852 -50.285511
446812500 -0.097495817 -51.554169
458000000 -0.098989837 -52.823387
469187500 -0.09926448 -54.101719
480375000 -0.099865571 -55.39555
491562500 -0.10169998 -56.695599
502750000 -0.10509811 -57.998047
513937500 -0.10957829 -59.296951
525125000 -0.11478161 -60.596619
536312500 -0.12040502 -61.896854
547500000 -0.12733001 -63.193432
558687500 -0.135079 -64.487274
569875000 -0.14361535 -65.772835
581062500 -0.1523997 -67.044266
592250000 -0.16025957 -68.305763
603437500 -0.16703583 -69.562073
614625000 -0.17253688 -70.81662
625812500 -0.17664763 -72.075081
637000000 -0.17997096 -73.339844
648187500 -0.18294409 -74.608246
659375000 -0.18521363 -75.87989
670562500 -0.18758672 -77.154381
681750000 -0.18995795 -78.434616
692937500 -0.19251385 -79.720459
704125000 -0.1955691 -81.010132
715312500 -0.19979149 -82.30265
726500000 -0.20503768 -83.589417
737687500 -0.21040002 -84.873718
748875000 -0.21581623 -86.155548
760062500 -0.2210314 -87.437218
771250000 -0.22632502 -88.72213
782437500 -0.23227894 -90.01149
793625000 -0.23905559 -91.299995
804812500 -0.24643973 -92.585793
816000000 -0.25457019 -93.872566
827187500 -0.26295486 -95.154213
838375000 -0.27164587 -96.43145
849562500 -0.28076595 -97.704483
860750000 -0.28953362 -98.973396
871937500 -0.29848984 -100.23454
883125000 -0.30700701 -101.4874
894312500 -0.31453785 -102.73686
905500000 -0.32059282 -103.98182
916687500 -0.32526433 -105.22933
927875000 -0.32898247 -106.4792
939062500 -0.33147085 -107.73352
950250000 -0.33296892 -108.99338
961437500 -0.33388406 -110.2611
972625000 -0.33489972 -111.53973
983812500 -0.33627099 -112.82912
995000000 -0.3392584 -114.12923
1006187500 -0.34371862 -115.43051
1017375000 -0.34964952 -116.73297
1028562500 -0.35711658 -118.0344
1039750000 -0.36502865 -119.33472
1050937500 -0.37447226 -120.63189
1062125000 -0.38515216 -121.92268
1073312500 -0.39602038 -123.207
1084500000 -0.40711969 -124.48174
1095687500 -0.4180823 -125.74515
1106875000 -0.42807317 -127.00179
1118062500 -0.43750033 -128.25357
1129250000 -0.4461475 -129.50223
1140437500 -0.45481455 -130.74843
1151625000 -0.46275932 -131.99477
1162812500 -0.46994793 -133.23906
1174000000 -0.47640327 -134.48366
1185187500 -0.48210829 -135.72781
1196375000 -0.4868826 -136.97591
1207562500 -0.49057347 -138.22774
1218750000 -0.49238518 -139.48898
1229937500 -0.49394789 -140.76047
1241125000 -0.49516463 -142.04001
1252312500 -0.49648315 -143.33307
1263500000 -0.49885494 -144.6335
1274687500 -0.50279778 -145.93803
1285875000 -0.50833344 -147.24463
1297062500 -0.5156675 -148.55042
1308250000 -0.52454954 -149.85222
1319437500 -0.53450418 -151.14619
1330625000 -0.54446846 -152.4364
1341812500 -0.55441517 -153.71783
1353000000 -0.56396812 -154.99693
1364187500 -0.57359123 -156.27589
1375375000 -0.58397108 -157.55234
1386562500 -0.59501714 -158.81841
1397750000 -0.60523838 -160.07523
1408937500 -0.6157456 -161.32524
1420125000 -0.62591004 -162.57109
1431312500 -0.63523197 -163.81488
1442500000 -0.64363384 -165.05414
1453687500 -0.65101302 -166.29112
1464875000 -0.65652215 -167.53236
1476062500 -0.66073686 -168.78334
1487250000 -0.66421294 -170.04141
1498437500 -0.66679251 -171.30611
1509625000 -0.66925585 -172.58232
1520812500 -0.67141396 -173.86368
1532000000 -0.67390978 -175.15465
1543187500 -0.6774987 -176.45085
1554375000 -0.68244034 -177.74615
1565562500 -0.68735844 -179.041
1576750000 -0.69274354 179.65796
1587937500 -0.69984967 178.35298
1599125000 -0.70815539 177.04887
1610312500 -0.71753544 175.74811
1621500000 -0.72739255 174.45274
1632687500 -0.73765653 173.16032
1643875000 -0.74784154 171.87186
1655062500 -0.75844491 170.58458
1666250000 -0.76914066 169.30598
1677437500 -0.77940059 168.03508
1688625000 -0.78866947 166.76758
1699812500 -0.79713112 165.50673
1711000000 -0.80463088 164.24649
1722187500 -0.81154555 162.98447
1733375000 -0.8179732 161.71899
1744562500 -0.82365346 160.45139
1755750000 -0.8292492 159.18214
1766937500 -0.83440119 157.91093
1778125000 -0.83903253 156.63449
1789312500 -0.84328449 155.35388
1800500000 -0.8477962 154.06822
1811687500 -0.85245365 152.78134
1822875000 -0.85669047 151.49574
1834062500 -0.86071396 150.2057
1845250000 -0.86523169 148.91388
1856437500 -0.86957598 147.62163
1867625000 -0.87471282 146.32381
1878812500 -0.88000751 145.02353
1890000000 -0.8850705 143.72224
1901187500 -0.89073879 142.41533
1912375000 -0.89724845 141.1066
1923562500 -0.90430468 139.79688
1934750000 -0.91150576 138.48853
1945937500 -0.91845971 137.18271
1957125000 -0.92562306 135.87453
1968312500 -0.93326247 134.57097
1979500000 -0.9418661 133.2653
1990687500 -0.95071262 131.97105
2001875000 -0.95907027 130.68309
2013062500 -0.96814972 129.39845
2024250000 -0.97742689 128.12396
2035437500 -0.98466396 126.85884
2046625000 -0.9904952 125.59325
2057812500 -0.99390072 124.32748
2069000000 -0.99601257 123.05888
2080187500 -0.99714917 121.77924
2091375000 -0.99725145 120.49425
2102562500 -0.99625057 119.20003
2113750000 -0.99453849 117.89908
2124937500 -0.99278438 116.58829
2136125000 -0.9912526 115.26559
2147312500 -0.99021047 113.93494
2158500000 -0.99006361 112.59464
2169687500 -0.99090761 111.25279
2180875000 -0.99251378 109.90228
2192062500 -0.99576735 108.55143
2203250000 -0.99974614 107.20249
2214437500 -1.0045297 105.85086
2225625000 -1.011017 104.50046
2236812500 -1.0185246 103.15752
2248000000 -1.0271162 101.8256
2259187500 -1.0356857 100.50356
2270375000 -1.0439246 99.196175
2281562500 -1.050972 97.896324
2292750000 -1.057148 96.604645
2303937500 -1.0614879 95.321831
2315125000 -1.0638878 94.042831
2326312500 -1.064052 92.763023
2337500000 -1.0616485 91.482422
2348687500 -1.0569165 90.193535
2359875000 -1.0495242 88.896645
2371062500 -1.0397199 87.585579
2382250000 -1.0286108 86.248093
2393437500 -1.0166245 84.885643
2404625000 -1.005264 83.500542
2415812500 -0.9951669 82.090225
2427000000 -0.98774987 80.655876
2438187500 -0.98445123 79.207138
2449375000 -0.98556381 77.750755
2460562500 -0.99109763 76.30043
2471750000 -1.0010642 74.870956
2482937500 -1.0123024 73.466972
2494125000 -1.0241213 72.083618
2505312500 -1.0351405 70.720833
2516500000 -1.045328 69.377441
2527687500 -1.0536075 68.047142
2538875000 -1.0595547 66.729607
2550062500 -1.062534 65.415512
2561250000 -1.0632503 64.10231
2572437500 -1.061151 62.790375
2583625000 -1.0567014 61.473274
2594812500 -1.0495995 60.146217
2606000000 -1.0401918 58.812717
2617187500 -1.0281892 57.46909
2628375000 -1.0134107 56.105095
2639562500 -0.99683255 54.720558
2650750000 -0.97902709 53.302357
2661937500 -0.96107262 51.84449
2673125000 -0.94584388 50.345585
2684312500 -0.93525374 48.815762
2695500000 -0.93068486 47.267662
2706687500 -0.93242961 45.71011
2717875000 -0.94062978 44.1632
2729062500 -0.95392609 42.637543
2740250000 -0.97167939 41.141087
2751437500 -0.99166763 39.687954
2762625000 -1.0114744 38.278233
2773812500 -1.0287007 36.903694
2785000000 -1.0421928 35.557861
2796187500 -1.0512435 34.227928
2807375000 -1.0562646 32.902096
2818562500 -1.0573243 31.576057
2829750000 -1.0544207 30.241079
2840937500 -1.048678 28.896307
2852125000 -1.0393897 27.542341
2863312500 -1.0269673 26.172194
2874500000 -1.0119661 24.784351
2885687500 -0.99434179 23.367586
2896875000 -0.97430485 21.922955
2908062500 -0.95400476 20.439865
2919250000 -0.93493837 18.91338
2930437500 -0.91904318 17.346153
2941625000 -0.90761292 15.737538
2952812500 -0.90337569 14.098488
2964000000 -0.90860927 12.447039
2975187500 -0.92387021 10.811099
2986375000 -0.9468379 9.2128334
2997562500 -0.97446632 7.6668706
3008750000 -1.0029496 6.1814561
3019937500 -1.0297117 4.7492299
3031125000 -1.0518098 3.3542778
3042312500 -1.0694821 1.9813502
3053500000 -1.0828549 0.62009013
3064687500 -1.091844 -0.73492473
3075875000 -1.0967933 -2.0899093
3087062500 -1.0981841 -3.4458947
3098250000 -1.0954206 -4.8112326
3109437500 -1.0890008 -6.1848226
3120625000 -1.0783509 -7.5746117
3131812500 -1.0644051 -8.9878397
3143000000 -1.0470722 -10.426008
3154187500 -1.0270338 -11.898033
3165375000 -1.0051016 -13.419529
3176562500 -0.9843486 -14.998029
3187750000 -0.96798891 -16.628464
3198937500 -0.95957744 -18.307598
3210125000 -0.96134144 -20.010191
3221312500 -0.97412843 -21.713022
3232500000 -0.99754709 -23.390236
3243687500 -1.0282849 -25.014622
3254875000 -1.0624269 -26.579576
3266062500 -1.0968063 -28.085007
3277250000 -1.1293674 -29.544943
3288437500 -1.1580551 -30.965837
3299625000 -1.1826038 -32.359451
3310812500 -1.2022172 -33.731461
3322000000 -1.2172939 -35.088249
3333187500 -1.2274842 -36.447056
3344375000 -1.2328525 -37.80719
3355562500 -1.2339454 -39.175007
3366750000 -1.2307234 -40.553352
3377937500 -1.2228779 -41.949478
3389125000 -1.2103987 -43.370655
3400312500 -1.1938453 -44.827694
3411500000 -1.1747211 -46.330132
3422687500 -1.1547694 -47.88459
3433875000 -1.1370028 -49.495689
3445062500 -1.1244611 -51.162216
3456250000 -1.1200202 -52.873051
3467437500 -1.1262524 -54.607365
3478625000 -1.1441207 -56.339046
3489812500 -1.1716006 -58.045494
3501000000 -1.2076143 -59.710293
3512187500 -1.2490215 -61.317486
3523375000 -1.2929637 -62.859558
3534562500 -1.3356061 -64.336159
3545750000 -1.3738852 -65.76252
3556937500 -1.4069121 -67.147163
3568125000 -1.4332254 -68.503899
3579312500 -1.452924 -69.849052
3590500000 -1.4664574 -71.19883
3601687500 -1.4748487 -72.554024
3612875000 -1.4784824 -73.920815
3624062500 -1.4777422 -75.309189
3635250000 -1.4732094 -76.721664
3646437500 -1.4655435 -78.159416
3657625000 -1.4537836 -79.628754
3668812500 -1.4391187 -81.144516
3680000000 -1.4243801 -82.714386
3691187500 -1.4112579 -84.338547
3702375000 -1.4032712 -86.019836
3713562500 -1.4033775 -87.744148
3724750000 -1.4134314 -89.497902
3735937500 -1.4348571 -91.255127
3747125000 -1.4670923 -92.998032
3758312500 -1.509789 -94.702667
3769500000 -1.5594022 -96.346344
3780687500 -1.6120092 -97.917763
3791875000 -1.6638893 -99.428185
3803062500 -1.7129635 -100.88585
3814250000 -1.7577711 -102.29538
3825437500 -1.7971094 -103.66888
3836625000 -1.8300073 -105.01973
3847812500 -1.8565264 -106.36272
3859000000 -1.877165 -107.7037
3870187500 -1.8924135 -109.04514
3881375000 -1.9018725 -110.39582
3892562500 -1.9055074 -111.76617
3903750000 -1.9032274 -113.17035
3914937500 -1.8966759 -114.61556
3926125000 -1.8867838 -116.11169
3937312500 -1.8756895 -117.66721
3948500000 -1.8650494 -119.29212
3959687500 -1.8592069 -120.9841
3970875000 -1.8615544 -122.73272
3982062500 -1.8748438 -124.51128
3993250000 -1.8984913 -126.30886
4004437500 -1.9336641 -128.10811
4015625000 -1.9806329 -129.88899
4026812500 -2.037709 -131.62386
4038000000 -2.1036811 -133.29852
4049187500 -2.1757488 -134.89096
4060375000 -2.248363 -136.40567
4071562500 -2.3194077 -137.84358
4082750000 -2.3846033 -139.2155
4093937500 -2.4425046 -140.52914
4105125000 -2.4913981 -141.8112
4116312500 -2.5312765 -143.07672
4127500000 -2.5615001 -144.34264
4138687500 -2.5834002 -145.62146
4149875000 -2.5981243 -146.93097
4161062500 -2.6065891 -148.27876
4172250000 -2.6107268 -149.67874
4183437500 -2.6122077 -151.12753
4194625000 -2.6118255 -152.6339
4205812500 -2.612354 -154.20143
4217000000 -2.6163549 -155.83438
4228187500 -2.6256347 -157.5218
4239375000 -2.6417718 -159.26767
4250562500 -2.6678357 -161.05656
4261750000 -2.7069378 -162.88196
4272937500 -2.7620802 -164.70631
4284125000 -2.8321707 -166.49789
4295312500 -2.9156501 -168.22742
4306500000 -3.0082583 -169.86896
4317687500 -3.1059203 -171.4153
4328875000 -3.2043426 -172.86105
4340062500 -3.2976229 -174.21619
4351250000 -3.3843153 -175.50856
4362437500 -3.4626508 -176.75349
4373625000 -3.5336473 -177.9653
4384812500 -3.5965843 -179.14676
4396000000 -3.6495035 179.68272
4407187500 -3.6926103 178.50865
4418375000 -3.7266722 177.30936
4429562500 -3.7534194 176.07286
4440750000 -3.7760758 174.78897
4451937500 -3.794858 173.46617
4463125000 -3.8097696 172.08279
4474312500 -3.8253863 170.61906
4485500000 -3.845928 169.08406
4496687500 -3.8743517 167.48305
4507875000 -3.9145873 165.83632
4519062500 -3.9683661 164.16309
4530250000 -4.0388589 162.48735
4541437500 -4.1256495 160.84967
4552625000 -4.2252717 159.28636
4563812500 -4.3345165 157.81346
4575000000 -4.4496808 156.44218
4586187500 -4.5668049 155.18005
4597375000 -4.682651 154.01839
4608562500 -4.7950258 152.96111
4619750000 -4.8985105 152.01031
4630937500 -4.9896264 151.14586
4642125000 -5.0651579 150.3318
4653312500 -5.1263928 149.54536
4664500000 -5.1730781 148.76588
4675687500 -5.2059221 147.97356
4686875000 -5.2287612 147.15634
4698062500 -5.241962 146.31427
4709250000 -5.2466707 145.42657
4720437500 -5.2459841 144.5016
4731625000 -5.2407742 143.54672
4742812500 -5.2323399 142.55957
4754000000 -5.2196074 141.5428
4765187500 -5.2042317 140.48067
4776375000 -5.1885266 139.38428
4787562500 -5.1715331 138.26962
4798750000 -5.1526279 137.12395
4809937500 -5.1352959 135.94487
4821125000 -5.1196156 134.74808
4832312500 -5.1057796 133.55284
4843500000 -5.091764 132.36649
4854687500 -5.0754046 131.20183
4865875000 -5.0537467 130.05278
4877062500 -5.0242534 128.9017
4888250000 -4.9865909 127.72924
4899437500 -4.9418664 126.53576
4910625000 -4.8877349 125.31302
4921812500 -4.8231668 124.03374
4933000000 -4.750401 122.67245
4944187500 -4.6718869 121.21732
4955375000 -4.5907397 119.65443
4966562500 -4.5108304 117.99167
4977750000 -4.4355102 116.22548
4988937500 -4.367321 114.36971
5000125000 -4.3074617 112.43443
5011312500 -4.2572556 110.42529
5022500000 -4.2205534 108.34271
5033687500 -4.1981158 106.21725
5044875000 -4.1905026 104.05505
5056062500 -4.1990542 101.86935
5067250000 -4.224442 99.692596
5078437500 -4.2633314 97.554779
5089625000 -4.314023 95.446457
5100812500 -4.3765941 93.38253
5112000000 -4.4492474 91.379532
5123187500 -4.5296812 89.441475
5134375000 -4.616972 87.572937
5145562500 -4.7085347 85.796059
5156750000 -4.7997227 84.086235
5167937500 -4.8898721 82.440666
5179125000 -4.9771371 80.868774
5190312500 -5.0578547 79.345772
5201500000 -5.1319966 77.849876
5212687500 -5.1974368 76.386894
5223875000 -5.2537732 74.91964
5235062500 -5.3038244 73.444511
5246250000 -5.3468523 71.956879
5257437500 -5.3829894 70.442421
5268625000 -5.4162111 68.87281
5279812500 -5.4482751 67.265221
5291000000 -5.479866 65.592873
5302187500 -5.5171928 63.855465
5313375000 -5.5629888 62.074173
5324562500 -5.6164565 60.257877
5335750000 -5.6809673 58.412148
5346937500 -5.7581143 56.563328
5358125000 -5.8488545 54.747295
5369312500 -5.9488101 52.963421
5380500000 -6.0611529 51.244282
5391687500 -6.1790981 49.626736
5402875000 -6.2995925 48.094849
5414062500 -6.4220872 46.652485
5425250000 -6.5420561 45.307892
5436437500 -6.6558733 44.058182
5447625000 -6.7591801 42.875919
5458812500 -6.8506212 41.746689
5470000000 -6.9272461 40.642784
5481187500 -6.9918156 39.535275
5492375000 -7.0443764 38.415985
5503562500 -7.0847549 37.267746
5514750000 -7.1169205 36.075615
5525937500 -7.1416621 34.819691
5537125000 -7.1634264 33.509163
5548312500 -7.1829777 32.119896
5559500000 -7.2058897 30.673414
5570687500 -7.23101 29.175655
5581875000 -7.2623334 27.608379
5593062500 -7.3030419 25.992552
5604250000 -7.3541784 24.351004
5615437500 -7.4153013 22.697857
5626625000 -7.4890757 21.052792
5637812500 -7.5722303 19.441332
5649000000 -7.665431 17.864708
5660187500 -7.7687807 16.356829
5671375000 -7.8767276 14.939255
5682562500 -7.9862976 13.608164
5693750000 -8.0945253 12.353911
5704937500 -8.2015057 11.181871
5716125000 -8.3029633 10.104478
5727312500 -8.3939228 9.106555
5738500000 -8.4725533 8.1605892
5749687500 -8.5376205 7.2532706
5760875000 -8.5870104 6.3470531
5772062500 -8.6230965 5.4341002
5783250000 -8.6443462 4.4890127
5794437500 -8.6549006 3.4849923
5805625000 -8.6583557 2.4060383
5816812500 -8.6555996 1.2409337
5828000000 -8.6552095 -0.010813995
5839187500 -8.6551542 -1.3285387
5850375000 -8.6584597 -2.7303557
5861562500 -8.669795 -4.2052803
5872750000 -8.6920357 -5.7342901
5883937500 -8.7275076 -7.2676029
5895125000 -8.7736578 -8.7954369
5906312500 -8.831461 -10.284352
5917500000 -8.8971539 -11.726435
5928687500 -8.9686232 -13.103662
5939875000 -9.0458326 -14.426333
5951062500 -9.1265182 -15.673777
5962250000 -9.2087831 -16.841114
5973437500 -9.2890263 -17.93453
5984625000 -9.3629589 -18.938059
5995812500 -9.425869 -19.884869
6007000000 -9.4775248 -20.800484
6018187500 -9.5185213 -21.700439
6029375000 -9.5493031 -22.588251
6040562500 -9.5690069 -23.486387
6051750000 -9.5803881 -24.397938
6062937500 -9.5812407 -25.321411
6074125000 -9.5715046 -26.299906
6085312500 -9.5572996 -27.350815
6096500000 -9.5399008 -28.468939
6107687500 -9.5223541 -29.658331
6118875000 -9.5075941 -30.912125
6130062500 -9.4933605 -32.213795
6141250000 -9.4848003 -33.58839
6152437500 -9.4855108 -34.998096
6163625000 -9.4950752 -36.399044
6174812500 -9.5092211 -37.82016
6186000000 -9.5365467 -39.238476
6197187500 -9.5742378 -40.603493
6208375000 -9.6175137 -41.921093
6219562500 -9.6669769 -43.192348
6230750000 -9.7226696 -44.373207
6241937500 -9.7751951 -45.472
6253125000 -9.8233633 -46.508541
6264312500 -9.8656206 -47.500332
6275500000 -9.9012032 -48.427528
6286687500 -9.9234734 -49.320724
6297875000 -9.9366894 -50.206741
6309062500 -9.9363184 -51.064705
6320250000 -9.9226913 -51.953709
6331437500 -9.8988104 -52.876175
6342625000 -9.8643198 -53.870197
6353812500 -9.8266392 -54.954922
6365000000 -9.7889833 -56.112801
6376187500 -9.7497215 -57.332207
6387375000 -9.7138424 -58.643356
6398562500 -9.6864395 -60.016178
6409750000 -9.6679792 -61.421364
6420937500 -9.6590557 -62.860718
6432125000 -9.6617861 -64.293663
6443312500 -9.6757631 -65.712273
6454500000 -9.6996498 -67.086426
6465687500 -9.7299318 -68.418663
6476875000 -9.7678833 -69.702194
6488062500 -9.809433 -70.895256
6499250000 -9.8506098 -72.03347
6510437500 -9.8895817 -73.113632
6521625000 -9.9235287 -74.141914
6532812500 -9.950264 -75.112785
6544000000 -9.9685125 -76.060738
6555187500 -9.9796457 -76.96077
6566375000 -9.9790468 -77.8536
6577562500 -9.9668884 -78.74308
6588750000 -9.9435549 -79.667305
6599937500 -9.9147224 -80.635002
6611125000 -9.8801231 -81.642754
6622312500 -9.8416834 -82.715149
6633500000 -9.8011799 -83.84935
6644687500 -9.7599478 -85.04644
6655875000 -9.7193203 -86.317833
6667062500 -9.6873837 -87.659348
6678250000 -9.6642275 -89.03904
6689437500 -9.6493635 -90.461098
6700625000 -9.6484547 -91.885139
6711812500 -9.6611214 -93.268593
6723000000 -9.6809778 -94.60228
6734187500 -9.7055445 -95.888962
6745375000 -9.7375612 -97.151337
6756562500 -9.7762794 -98.336945
6767750000 -9.8168249 -99.444389
6778937500 -9.8566475 -100.46889
6790125000 -9.887886 -101.41643
6801312500 -9.9104214 -102.33228
6812500000 -9.9245777 -103.20255
6823687500 -9.9264612 -104.04727
6834875000 -9.9188814 -104.88838
6846062500 -9.9022131 -105.72491
6857250000 -9.8735313 -106.55696
6868437500 -9.8285599 -107.45036
6879625000 -9.7803297 -108.4162
