!Keysight Technologies,N5222B,MY60213399,A.14.00.23
!Date: Monday, June 05, 2023 21:16:40
!Correction: S11(C  1-Port  ) 
!S1P File: Measurement: :
# Hz S  dB   R 50
100000000 -0.011983601 -11.566741
111187500 -0.012371424 -12.852663
122375000 -0.011457215 -14.143982
133562500 -0.010630907 -15.449893
144750000 -0.0095352018 -16.756723
155937500 -0.011782176 -18.065905
167125000 -0.012379731 -19.373686
178312500 -0.019298609 -20.658405
189500000 -0.023905354 -21.951212
200687500 -0.025530379 -23.245331
211875000 -0.028581351 -24.505024
223062500 -0.025711872 -25.759697
234250000 -0.027822118 -27.056974
245437500 -0.028213182 -28.371592
256625000 -0.029926354 -29.694378
267812500 -0.030318128 -30.982323
279000000 -0.035143781 -32.290031
290187500 -0.035113249 -33.597477
301375000 -0.03826341 -34.897213
312562500 -0.040244427 -36.202545
323750000 -0.040597938 -37.558472
334937500 -0.051339291 -38.90559
346125000 -0.069502801 -40.205948
357312500 -0.087953649 -41.480839
368500000 -0.1165069 -42.670536
379687500 -0.11041626 -43.70895
390875000 -0.096260563 -44.9044
402062500 -0.081052519 -46.189644
413250000 -0.070985787 -47.55069
424437500 -0.069607489 -48.901016
435625000 -0.072421372 -50.243938
446812500 -0.073407739 -51.6078
458000000 -0.081621177 -52.888088
469187500 -0.093303449 -54.244221
480375000 -0.10744154 -55.54195
491562500 -0.11610727 -56.787582
502750000 -0.11452056 -58.05917
513937500 -0.1156391 -59.317085
525125000 -0.12108116 -60.556137
536312500 -0.11784856 -61.826286
547500000 -0.11896662 -63.078934
558687500 -0.1241004 -64.38723
569875000 -0.12634777 -65.706612
581062500 -0.13451624 -67.039787
592250000 -0.14427547 -68.298073
603437500 -0.14832942 -69.585815
614625000 -0.15823628 -70.923645
625812500 -0.1653301 -72.31266
637000000 -0.18453974 -73.648232
648187500 -0.21224932 -74.944283
659375000 -0.24318665 -76.108276
670562500 -0.25384244 -77.20948
681750000 -0.25135481 -78.258827
692937500 -0.2352396 -79.413086
704125000 -0.21255814 -80.602638
715312500 -0.18771641 -81.911179
726500000 -0.1727889 -83.302101
737687500 -0.16628857 -84.620575
748875000 -0.15932961 -86.001198
760062500 -0.16701725 -87.367447
771250000 -0.16440812 -88.793259
782437500 -0.18027538 -90.154037
793625000 -0.1958542 -91.559967
804812500 -0.22526367 -92.942474
816000000 -0.25295365 -94.239166
827187500 -0.27716133 -95.486275
838375000 -0.30464709 -96.755058
849562500 -0.32742849 -97.943352
860750000 -0.35027698 -99.065453
871937500 -0.36113501 -100.18751
883125000 -0.35705939 -101.29555
894312500 -0.34046781 -102.46299
905500000 -0.32507104 -103.74899
916687500 -0.3151162 -105.05853
927875000 -0.31626117 -106.32654
939062500 -0.30969197 -107.61369
950250000 -0.31505275 -108.94364
961437500 -0.32152331 -110.23911
972625000 -0.32407799 -111.49765
983812500 -0.32706648 -112.80511
995000000 -0.33118665 -114.12181
1006187500 -0.33584124 -115.43696
1017375000 -0.34423083 -116.76812
1028562500 -0.35046583 -118.04427
1039750000 -0.35798916 -119.27674
1050937500 -0.36225727 -120.59558
1062125000 -0.36958069 -121.91874
1073312500 -0.37260771 -123.20037
1084500000 -0.38705403 -124.59055
1095687500 -0.40039763 -125.91798
1106875000 -0.41629219 -127.228
1118062500 -0.43551818 -128.49258
1129250000 -0.45117381 -129.75262
1140437500 -0.47738263 -130.99077
1151625000 -0.49386707 -132.17116
1162812500 -0.50585485 -133.29486
1174000000 -0.5119676 -134.489
1185187500 -0.51712745 -135.63608
1196375000 -0.50835061 -136.83488
1207562500 -0.5120669 -138.03951
1218750000 -0.5037514 -139.28801
1229937500 -0.50864631 -140.48282
1241125000 -0.5036357 -141.77382
1252312500 -0.49340391 -143.02977
1263500000 -0.48461783 -144.37816
1274687500 -0.48502392 -145.75627
1285875000 -0.48806328 -147.13446
1297062500 -0.48390129 -148.47667
1308250000 -0.47705093 -149.87677
1319437500 -0.48002836 -151.3425
1330625000 -0.50566781 -152.71188
1341812500 -0.51646179 -154.08925
1353000000 -0.54459238 -155.40514
1364187500 -0.57568038 -156.63243
1375375000 -0.60384828 -157.82832
1386562500 -0.6226052 -159.04433
1397750000 -0.65045434 -160.20876
1408937500 -0.67266697 -161.35399
1420125000 -0.67913997 -162.43292
1431312500 -0.67461646 -163.5627
1442500000 -0.65782887 -164.75595
1453687500 -0.64786416 -166.09627
1464875000 -0.65929896 -167.41522
1476062500 -0.67101681 -168.6167
1487250000 -0.65255815 -169.87173
1498437500 -0.64513344 -171.20483
1509625000 -0.64678907 -172.56346
1520812500 -0.65926462 -173.90623
1532000000 -0.66700876 -175.2153
1543187500 -0.67719513 -176.47115
1554375000 -0.68076444 -177.71954
1565562500 -0.68727356 -179.06068
1576750000 -0.68839663 179.6402
1587937500 -0.70239377 178.35968
1599125000 -0.70561814 177.0639
1610312500 -0.71474528 175.78793
1621500000 -0.70999151 174.50514
1632687500 -0.7145164 173.1743
1643875000 -0.73153603 171.85544
1655062500 -0.74501425 170.55623
1666250000 -0.75990301 169.25352
1677437500 -0.77855331 167.94586
1688625000 -0.79042643 166.66722
1699812500 -0.81261247 165.35281
1711000000 -0.82545191 164.11452
1722187500 -0.84606194 162.88261
1733375000 -0.84503353 161.7197
1744562500 -0.84668446 160.42555
1755750000 -0.84843105 159.20966
1766937500 -0.85592473 157.98553
1778125000 -0.847606 156.74516
1789312500 -0.8461774 155.53113
1800500000 -0.83666533 154.28072
1811687500 -0.83083463 152.95563
1822875000 -0.82954663 151.59502
1834062500 -0.84038675 150.26648
1845250000 -0.84849524 148.91757
1856437500 -0.85828412 147.60384
1867625000 -0.86305338 146.27744
1878812500 -0.87457907 144.92982
1890000000 -0.88986522 143.54051
1901187500 -0.90484631 142.2883
1912375000 -0.9140442 141.00929
1923562500 -0.91446948 139.74582
1934750000 -0.92420048 138.41071
1945937500 -0.93688089 137.19788
1957125000 -0.94242257 135.93872
1968312500 -0.94366312 134.69914
1979500000 -0.93922132 133.466
1990687500 -0.9388932 132.15204
2001875000 -0.93473554 130.85365
2013062500 -0.94574362 129.37906
2024250000 -0.95318705 128.07335
2035437500 -0.95828348 126.77902
2046625000 -0.96904993 125.43099
2057812500 -0.98193258 124.13171
2069000000 -0.99852836 122.80463
2080187500 -1.0204761 121.52599
2091375000 -1.0357416 120.28683
2102562500 -1.0560198 119.07613
2113750000 -1.0609604 117.93803
2124937500 -1.057234 116.77345
2136125000 -1.0432814 115.59817
2147312500 -1.0169858 114.35494
2158500000 -1.0005832 113.06747
2169687500 -0.97067618 111.68636
2180875000 -0.94707853 110.28653
2192062500 -0.9352544 108.81812
2203250000 -0.93177062 107.37051
2214437500 -0.92989463 105.8439
2225625000 -0.93284065 104.35767
2236812500 -0.94653636 102.85955
2248000000 -0.9710151 101.37603
2259187500 -1.0097544 99.92598
2270375000 -1.0520321 98.515991
2281562500 -1.0986798 97.288887
2292750000 -1.1368017 96.138168
2303937500 -1.1507312 95.044304
2315125000 -1.1640117 93.950691
2326312500 -1.1661789 92.848763
2337500000 -1.1520571 91.78952
2348687500 -1.124948 90.633064
2359875000 -1.1017185 89.436043
2371062500 -1.0559082 88.159447
2382250000 -1.0226595 86.85218
2393437500 -0.98934668 85.447113
2404625000 -0.960765 84.002739
2415812500 -0.93384832 82.493317
2427000000 -0.91511625 80.959686
2438187500 -0.90423739 79.384209
2449375000 -0.90235764 77.832848
2460562500 -0.90227002 76.248558
2471750000 -0.91588968 74.60157
2482937500 -0.93816966 73.040085
2494125000 -0.96423459 71.549088
2505312500 -0.99387813 69.994911
2516500000 -1.0412853 68.519402
2527687500 -1.0924079 67.168785
2538875000 -1.1420604 65.910728
2550062500 -1.1858532 64.79068
2561250000 -1.2227703 63.815857
2572437500 -1.2202652 62.957527
2583625000 -1.1947554 61.933411
2594812500 -1.1604084 60.884251
2606000000 -1.1114271 59.752865
2617187500 -1.0543061 58.43457
2628375000 -1.0024811 57.033527
2639562500 -0.95085967 55.546997
2650750000 -0.90671182 53.952766
2661937500 -0.87589222 52.310215
2673125000 -0.85010844 50.662685
2684312500 -0.83647513 48.998913
2695500000 -0.82875955 47.29401
2706687500 -0.82919598 45.632721
2717875000 -0.84538543 43.950142
2729062500 -0.85696143 42.342705
2740250000 -0.89041328 40.670433
2751437500 -0.91782933 39.043488
2762625000 -0.96112806 37.435162
2773812500 -1.0163695 35.95594
2785000000 -1.0742377 34.491669
2796187500 -1.1395882 33.231819
2807375000 -1.1925379 32.076775
2818562500 -1.2313162 31.042025
2829750000 -1.2514096 30.105402
2840937500 -1.2484694 29.224133
2852125000 -1.2097712 28.342657
2863312500 -1.1464076 27.282158
2874500000 -1.0729958 26.090925
2885687500 -0.99133241 24.714622
2896875000 -0.92312586 23.091825
2908062500 -0.86530823 21.423952
2919250000 -0.82074374 19.670858
2930437500 -0.78825355 17.883736
2941625000 -0.76245546 16.093332
2952812500 -0.74974006 14.215446
2964000000 -0.75921208 12.352418
2975187500 -0.76950973 10.497466
2986375000 -0.79780912 8.6641054
2997562500 -0.844145 6.8474116
3008750000 -0.90241694 5.0901108
3019937500 -0.9804948 3.4141443
3031125000 -1.0597494 1.8745695
3042312500 -1.1478306 0.4583067
3053500000 -1.2388263 -0.73450708
3064687500 -1.3208721 -1.7188928
3075875000 -1.3771238 -2.5326781
3087062500 -1.3934735 -3.2170539
3098250000 -1.3585067 -3.8672979
3109437500 -1.2792917 -4.6631365
3120625000 -1.1731616 -5.8271995
3131812500 -1.0651563 -7.2273846
3143000000 -0.97641414 -8.8892288
3154187500 -0.90664291 -10.613281
3165375000 -0.84820729 -12.50941
3176562500 -0.81357986 -14.400851
3187750000 -0.79048979 -16.367922
3198937500 -0.78381807 -18.298782
3210125000 -0.79501355 -20.279053
3221312500 -0.81371379 -22.207087
3232500000 -0.84787095 -24.050152
3243687500 -0.90230286 -25.878216
3254875000 -0.96799421 -27.635914
3266062500 -1.0369809 -29.294405
3277250000 -1.1160476 -30.87484
3288437500 -1.2089661 -32.38113
3299625000 -1.3068684 -33.635155
3310812500 -1.397164 -34.781216
3322000000 -1.4680817 -35.680077
3333187500 -1.5024539 -36.465786
3344375000 -1.4844681 -37.1978
3355562500 -1.4362301 -38.13525
3366750000 -1.3669366 -39.186214
3377937500 -1.2834367 -40.46608
3389125000 -1.2032484 -41.923351
3400312500 -1.1242236 -43.485195
3411500000 -1.0586449 -45.222897
3422687500 -1.0114446 -47.101227
3433875000 -0.98513883 -48.993687
3445062500 -0.97402996 -50.916481
3456250000 -0.97141778 -52.793713
3467437500 -0.98261577 -54.667267
3478625000 -1.0008326 -56.582008
3489812500 -1.0239255 -58.439087
3501000000 -1.0658928 -60.34589
3512187500 -1.129442 -62.231171
3523375000 -1.2036432 -63.979797
3534562500 -1.2901604 -65.626167
3545750000 -1.381814 -67.187721
3556937500 -1.4795595 -68.637901
3568125000 -1.5888498 -69.917496
3579312500 -1.6759486 -70.962852
3590500000 -1.7448511 -71.813675
3601687500 -1.7772322 -72.537621
3612875000 -1.7689458 -73.28727
3624062500 -1.7125242 -74.041954
3635250000 -1.6291989 -75.080421
3646437500 -1.5348083 -76.255836
3657625000 -1.429157 -77.665619
3668812500 -1.3250192 -79.343864
3680000000 -1.2463753 -81.28788
3691187500 -1.1937804 -83.341751
3702375000 -1.1731572 -85.423576
3713562500 -1.1740472 -87.543236
3724750000 -1.1888471 -89.608871
3735937500 -1.2216511 -91.700676
3747125000 -1.2718946 -93.757622
3758312500 -1.3403126 -95.768356
3769500000 -1.4272412 -97.730347
3780687500 -1.5245882 -99.505608
3791875000 -1.643736 -101.17741
3803062500 -1.771168 -102.68215
3814250000 -1.8998582 -103.92455
3825437500 -2.0040684 -104.97389
3836625000 -2.0866163 -105.85938
3847812500 -2.1515028 -106.71366
3859000000 -2.184386 -107.39912
3870187500 -2.1681361 -108.06017
3881375000 -2.1075282 -108.88852
3892562500 -2.0206599 -109.99306
3903750000 -1.9289818 -111.33233
3914937500 -1.8448449 -112.92642
3926125000 -1.7724433 -114.61356
3937312500 -1.7126943 -116.54409
3948500000 -1.6768851 -118.56577
3959687500 -1.6740495 -120.5494
3970875000 -1.6822984 -122.53373
3982062500 -1.7100408 -124.51064
3993250000 -1.7317533 -126.54266
4004437500 -1.7824588 -128.54958
4015625000 -1.8417088 -130.45212
4026812500 -1.9107471 -132.32602
4038000000 -1.9882829 -134.24767
4049187500 -2.0927966 -136.04153
4060375000 -2.1933584 -137.65308
4071562500 -2.2980134 -139.19704
4082750000 -2.4136102 -140.68123
4093937500 -2.5251188 -141.9951
4105125000 -2.6435363 -143.24405
4116312500 -2.7491825 -144.24129
4127500000 -2.847332 -145.09335
4138687500 -2.9211535 -145.68556
4149875000 -2.9327972 -146.20612
4161062500 -2.8816202 -146.84572
4172250000 -2.8021185 -147.82883
4183437500 -2.723073 -148.9536
4194625000 -2.6240134 -150.24529
4205812500 -2.5184951 -151.89963
4217000000 -2.4196889 -153.80717
4228187500 -2.3493826 -155.92276
4239375000 -2.31336 -158.26601
4250562500 -2.3202913 -160.69255
4261750000 -2.3671496 -163.08812
4272937500 -2.4430149 -165.39255
4284125000 -2.5330813 -167.67651
4295312500 -2.6644812 -169.8707
4306500000 -2.8206882 -171.95685
4317687500 -3.0039129 -173.77003
4328875000 -3.1961355 -175.37793
4340062500 -3.3888037 -176.68211
4351250000 -3.5683711 -177.84763
4362437500 -3.7664292 -178.76129
4373625000 -3.922977 -179.20772
4384812500 -4.0434165 -179.50635
4396000000 -4.0879264 -179.64674
4407187500 -4.0618982 -179.88994
4418375000 -3.9916592 179.56552
4429562500 -3.8887033 178.64185
4440750000 -3.7856016 177.36952
4451937500 -3.6883528 175.82538
4463125000 -3.6177971 174.00269
4474312500 -3.5722616 172.07468
4485500000 -3.5623236 170.0527
4496687500 -3.553401 168.00473
4507875000 -3.5811408 165.79997
4519062500 -3.6403055 163.49515
4530250000 -3.7555056 161.30745
4541437500 -3.8930399 159.33047
4552625000 -4.0527711 157.52502
4563812500 -4.2304878 155.94373
4575000000 -4.3841243 154.46878
4586187500 -4.5675597 153.01228
4597375000 -4.7495394 151.84811
4608562500 -4.9467511 150.80101
4619750000 -5.1477103 149.99834
4630937500 -5.3274879 149.6152
4642125000 -5.4510207 149.49202
4653312500 -5.5207958 149.41751
4664500000 -5.5453806 149.29283
4675687500 -5.5433774 149.05405
4686875000 -5.502655 148.74762
4698062500 -5.4223633 148.29443
4709250000 -5.3168774 147.52498
4720437500 -5.2329226 146.51106
4731625000 -5.1274576 145.3727
4742812500 -5.039813 143.93896
4754000000 -4.9743271 142.29677
4765187500 -4.9513397 140.5372
4776375000 -4.9794426 138.94862
4787562500 -5.0041342 137.42874
4798750000 -5.0555816 135.90508
4809937500 -5.1129355 134.56052
4821125000 -5.1775193 133.4081
4832312500 -5.2440262 132.37332
4843500000 -5.2846723 131.54984
4854687500 -5.3132739 130.65825
4865875000 -5.3302279 129.95148
4877062500 -5.297739 129.43771
4888250000 -5.2164245 128.82932
4899437500 -5.0961065 127.83652
4910625000 -5.0070944 126.60619
4921812500 -4.9066086 125.45472
4933000000 -4.7912378 124.11964
4944187500 -4.687438 122.77362
4955375000 -4.5703702 121.19066
4966562500 -4.4710717 119.53265
4977750000 -4.3468924 117.76943
4988937500 -4.2398009 115.74374
5000125000 -4.1583858 113.66805
5011312500 -4.0784454 111.52682
5022500000 -4.0091777 109.22887
5033687500 -3.9631839 106.83921
5044875000 -3.9321556 104.40326
5056062500 -3.9256041 101.99818
5067250000 -3.9425595 99.529655
5078437500 -3.9754486 96.96701
5089625000 -4.0559702 94.459404
5100812500 -4.1666861 92.114197
5112000000 -4.2940078 90.068947
5123187500 -4.3916883 87.906654
5134375000 -4.5371542 85.70919
5145562500 -4.7170358 83.836601
5156750000 -4.8976436 82.188286
5167937500 -5.0487523 81.010796
5179125000 -5.170938 79.802818
5190312500 -5.2588863 78.572289
5201500000 -5.343709 77.363495
5212687500 -5.4493365 76.309746
5223875000 -5.4924502 75.513046
5235062500 -5.4891858 74.432915
5246250000 -5.4919033 73.256561
5257437500 -5.4544868 71.945
5268625000 -5.4126391 70.315559
5279812500 -5.4123478 68.413841
5291000000 -5.4147277 66.847893
5302187500 -5.383678 64.897263
5313375000 -5.386745 62.769398
5324562500 -5.4257698 60.69931
5335750000 -5.468514 58.64518
5346937500 -5.5364552 56.599655
5358125000 -5.6199684 54.604099
5369312500 -5.7055788 52.509026
5380500000 -5.8232327 50.474041
5391687500 -5.9569964 48.424938
5402875000 -6.1246696 46.44603
5414062500 -6.3051262 44.443474
5425250000 -6.5308204 42.839413
5436437500 -6.7435126 41.483772
5447625000 -6.9490852 40.394966
5458812500 -7.1539173 39.635109
5470000000 -7.2973156 39.13591
5481187500 -7.4160333 38.743164
5492375000 -7.4992542 38.25013
5503562500 -7.5873661 38.156536
5514750000 -7.5489082 38.152203
5525937500 -7.4656692 37.861042
5537125000 -7.2871141 37.219078
5548312500 -7.1041651 35.865711
5559500000 -6.936182 33.728554
5570687500 -6.8785548 31.355886
5581875000 -6.8487234 29.115744
5593062500 -6.838645 26.686386
5604250000 -6.8822546 24.082623
5615437500 -6.9837046 21.590418
5626625000 -7.1112099 19.231743
5637812500 -7.3065233 16.946749
5649000000 -7.5101695 15.014938
5660187500 -7.7575932 13.228342
5671375000 -8.041563 11.957929
5682562500 -8.2396593 11.228107
5693750000 -8.4721136 10.625876
5704937500 -8.5750093 10.445923
5716125000 -8.6473665 10.087523
5727312500 -8.6960239 9.5898581
5738500000 -8.7085133 9.1087856
5749687500 -8.6954298 8.4184332
5760875000 -8.6998997 7.5366459
5772062500 -8.6688185 6.7610354
5783250000 -8.6322165 5.6348028
5794437500 -8.6338634 4.3313308
5805625000 -8.6211271 3.1762815
5816812500 -8.6048107 1.8782705
5828000000 -8.5959721 0.53969163
5839187500 -8.5904369 -1.0410218
5850375000 -8.6376266 -2.4036374
5861562500 -8.6511354 -3.7343266
5872750000 -8.6375122 -4.8992429
5883937500 -8.6011524 -6.4047308
5895125000 -8.5806484 -8.2674999
5906312500 -8.6476879 -10.340119
5917500000 -8.7069893 -12.052604
5928687500 -8.7898893 -13.890776
5939875000 -8.8632231 -15.613069
5951062500 -8.9898348 -17.33777
5962250000 -9.1262455 -18.930891
5973437500 -9.2744799 -20.169378
5984625000 -9.4419699 -21.25441
5995812500 -9.5943928 -22.012346
6007000000 -9.761941 -22.526083
6018187500 -9.864419 -22.695034
6029375000 -9.9385509 -22.991358
6040562500 -10.021409 -23.223703
6051750000 -10.032846 -22.848215
6062937500 -9.92871 -22.901186
6074125000 -9.7892294 -23.488495
6085312500 -9.6554146 -24.31555
6096500000 -9.4887247 -25.336922
6107687500 -9.3225231 -26.922308
6118875000 -9.1900148 -28.828791
6130062500 -9.1070709 -30.872141
6141250000 -9.0347633 -33.113163
6152437500 -9.0570908 -35.350849
6163625000 -9.069212 -37.427078
6174812500 -9.1444836 -39.834557
6186000000 -9.3149376 -41.951035
6197187500 -9.4840631 -43.328388
6208375000 -9.6118784 -44.677982
6219562500 -9.806138 -46.04747
6230750000 -9.9786444 -46.81728
6241937500 -10.15391 -47.121094
6253125000 -10.248393 -47.222641
6264312500 -10.264266 -47.023689
6275500000 -10.191231 -47.330433
6286687500 -10.148393 -48.009796
6297875000 -10.116385 -48.672943
6309062500 -10.035275 -49.212769
6320250000 -9.9115543 -50.447926
6331437500 -9.8858843 -51.781513
6342625000 -9.8261395 -52.906727
6353812500 -9.7594881 -54.187
6365000000 -9.7189102 -55.752598
6376187500 -9.7281075 -56.807217
6387375000 -9.6514835 -57.909424
6398562500 -9.5596924 -59.293556
6409750000 -9.5224972 -60.914215
6420937500 -9.5276432 -62.605145
6432125000 -9.5270205 -63.986134
6443312500 -9.4989624 -65.501572
6454500000 -9.5124378 -67.284477
6465687500 -9.5179625 -68.844887
6476875000 -9.5707912 -70.629196
6488062500 -9.6252995 -72.206619
6499250000 -9.7078247 -73.817642
6510437500 -9.8130713 -75.295517
6521625000 -9.9496994 -76.513458
6532812500 -10.106757 -77.409401
6544000000 -10.26478 -77.980629
6555187500 -10.346548 -78.049019
6566375000 -10.375289 -78.395622
6577562500 -10.393966 -78.599487
6588750000 -10.383067 -78.777733
6599937500 -10.319156 -78.986893
6611125000 -10.189081 -78.950523
6622312500 -9.9758959 -79.521561
6633500000 -9.7564936 -80.57119
6644687500 -9.5407066 -82.104431
6655875000 -9.3785334 -83.98391
6667062500 -9.2694216 -86.144073
6678250000 -9.1840725 -88.199562
6689437500 -9.1549053 -90.640564
6700625000 -9.2135324 -93.021622
6711812500 -9.3200369 -95.29277
6723000000 -9.4800444 -96.994164
6734187500 -9.6117382 -98.524811
6745375000 -9.7724676 -99.726883
6756562500 -9.879777 -100.5737
6767750000 -10.001924 -101.72493
6778937500 -10.158155 -102.27251
6790125000 -10.183729 -102.2852
6801312500 -10.221497 -102.7859
6812500000 -10.256173 -103.02245
6823687500 -10.229724 -103.06641
6834875000 -10.143531 -103.57805
6846062500 -10.06741 -104.1141
6857250000 -9.9375563 -104.7236
6868437500 -9.8131657 -105.92681
6879625000 -9.7300901 -107.15408
