!Keysight Technologies,N5222B,MY60213399,A.14.00.23
!Date: Monday, June 05, 2023 21:31:10
!Correction: S11(C  1-Port  ) 
!S1P File: Measurement: :
# Hz S  dB   R 50
100000000 -0.0042066947 -11.207859
111187500 -0.0076008141 -12.457918
122375000 -0.0092389444 -13.71317
133562500 -0.0083451066 -14.960662
144750000 -0.0091310311 -16.217243
155937500 -0.01056292 -17.490023
167125000 -0.012234098 -18.754417
178312500 -0.013010602 -20.012833
189500000 -0.016652489 -21.275412
200687500 -0.024349689 -22.579433
211875000 -0.032850001 -23.807444
223062500 -0.032170344 -24.977028
234250000 -0.032910515 -26.21381
245437500 -0.029920099 -27.506495
256625000 -0.038194727 -28.776102
267812500 -0.035060797 -30.035963
279000000 -0.04428475 -31.299219
290187500 -0.044915825 -32.5877
301375000 -0.051044095 -33.853725
312562500 -0.057024706 -35.101921
323750000 -0.065936185 -36.423725
334937500 -0.0845033 -37.693962
346125000 -0.10367555 -38.873516
357312500 -0.10764585 -40.039642
368500000 -0.10149845 -41.21859
379687500 -0.099725306 -42.44215
390875000 -0.090343326 -43.699947
402062500 -0.089505047 -45.022701
413250000 -0.090869322 -46.35714
424437500 -0.098763131 -47.620037
435625000 -0.1061625 -48.927296
446812500 -0.11246181 -50.218422
458000000 -0.12764847 -51.501667
469187500 -0.14520308 -52.748043
480375000 -0.15607433 -54.019741
491562500 -0.17242393 -55.246574
502750000 -0.18525743 -56.47805
513937500 -0.19614397 -57.688679
525125000 -0.20549674 -58.867065
536312500 -0.20948032 -60.052071
547500000 -0.21432221 -61.254108
558687500 -0.2177981 -62.517303
569875000 -0.23359539 -63.768322
581062500 -0.24229535 -65.044487
592250000 -0.25634718 -66.265259
603437500 -0.27565038 -67.517494
614625000 -0.30133021 -68.741219
625812500 -0.31429964 -69.963158
637000000 -0.32441714 -71.117416
648187500 -0.33905923 -72.329987
659375000 -0.35122859 -73.494545
670562500 -0.35939547 -74.721626
681750000 -0.36867321 -75.881233
692937500 -0.37961355 -77.097237
704125000 -0.38997263 -78.280251
715312500 -0.39257893 -79.448959
726500000 -0.40297952 -80.636276
737687500 -0.41475996 -81.761505
748875000 -0.42176914 -82.936958
760062500 -0.43385273 -84.083496
771250000 -0.43224198 -85.287674
782437500 -0.43840224 -86.453979
793625000 -0.44308153 -87.587822
804812500 -0.44755521 -88.80294
816000000 -0.4457179 -89.986954
827187500 -0.44377044 -91.139099
838375000 -0.44081661 -92.423515
849562500 -0.45508924 -93.654999
860750000 -0.46441633 -94.789711
871937500 -0.46980667 -96.01696
883125000 -0.48057336 -97.230247
894312500 -0.49059904 -98.401283
905500000 -0.48855281 -99.592651
916687500 -0.49000031 -100.77806
927875000 -0.4943094 -101.96427
939062500 -0.4961372 -103.16393
950250000 -0.50130677 -104.36727
961437500 -0.49953574 -105.56786
972625000 -0.50019997 -106.79317
983812500 -0.50708205 -108.00563
995000000 -0.50909072 -109.23673
1006187500 -0.50489455 -110.43958
1017375000 -0.51438761 -111.70834
1028562500 -0.52420378 -112.88373
1039750000 -0.52626711 -114.04607
1050937500 -0.51975405 -115.20789
1062125000 -0.51701665 -116.4668
1073312500 -0.51645625 -117.69105
1084500000 -0.51909965 -118.97232
1095687500 -0.52264702 -120.23055
1106875000 -0.52935803 -121.45747
1118062500 -0.53726894 -122.68331
1129250000 -0.5358153 -123.94505
1140437500 -0.54527378 -125.20103
1151625000 -0.55778855 -126.39459
1162812500 -0.56326222 -127.6212
1174000000 -0.57607907 -128.80847
1185187500 -0.57959169 -130.02924
1196375000 -0.58153862 -131.24709
1207562500 -0.58903587 -132.44667
1218750000 -0.58095974 -133.66139
1229937500 -0.59115279 -134.87772
1241125000 -0.59485185 -136.15685
1252312500 -0.60636741 -137.37227
1263500000 -0.60844135 -138.57083
1274687500 -0.61905795 -139.82306
1285875000 -0.6225341 -141.04666
1297062500 -0.62161344 -142.25583
1308250000 -0.61298472 -143.49008
1319437500 -0.6102913 -144.75647
1330625000 -0.61346853 -146.00932
1341812500 -0.61649567 -147.30202
1353000000 -0.61674953 -148.51598
1364187500 -0.62383062 -149.79504
1375375000 -0.62497026 -151.04538
1386562500 -0.62987387 -152.33652
1397750000 -0.63773394 -153.58841
1408937500 -0.64449257 -154.82748
1420125000 -0.65100914 -156.1235
1431312500 -0.6601544 -157.36191
1442500000 -0.66546667 -158.59497
1453687500 -0.66671509 -159.82193
1464875000 -0.67557353 -161.11462
1476062500 -0.68883157 -162.42755
1487250000 -0.6994133 -163.6142
1498437500 -0.70280886 -164.85757
1509625000 -0.7026841 -166.11224
1520812500 -0.70153117 -167.37865
1532000000 -0.707829 -168.74974
1543187500 -0.72075361 -170.04271
1554375000 -0.73136353 -171.3364
1565562500 -0.73602146 -172.62874
1576750000 -0.7486493 -173.95055
1587937500 -0.7665903 -175.20422
1599125000 -0.77830374 -176.47496
1610312500 -0.7859273 -177.71716
1621500000 -0.79086149 -178.91556
1632687500 -0.79902023 179.85229
1643875000 -0.80750448 178.60278
1655062500 -0.80753469 177.35352
1666250000 -0.80641657 176.08333
1677437500 -0.81176263 174.75717
1688625000 -0.81742686 173.4789
1699812500 -0.82164156 172.12857
1711000000 -0.82735658 170.77193
1722187500 -0.84727752 169.4705
1733375000 -0.85709131 168.20851
1744562500 -0.86874002 166.88737
1755750000 -0.87339544 165.59729
1766937500 -0.882918 164.32935
1778125000 -0.88771093 163.00301
1789312500 -0.89410728 161.68991
1800500000 -0.89954531 160.34015
1811687500 -0.91223747 158.94168
1822875000 -0.92821503 157.55804
1834062500 -0.94844085 156.23978
1845250000 -0.96626133 154.92189
1856437500 -0.98293579 153.63898
1867625000 -1.0058968 152.30205
1878812500 -1.02222 151.05315
1890000000 -1.0360121 149.73021
1901187500 -1.050685 148.4086
1912375000 -1.0651749 147.13153
1923562500 -1.0728333 145.83017
1934750000 -1.0848093 144.45003
1945937500 -1.1033636 143.0766
1957125000 -1.1241096 141.67235
1968312500 -1.1510376 140.27786
1979500000 -1.1727809 138.95558
1990687500 -1.2044541 137.55446
2001875000 -1.2447904 136.2627
2013062500 -1.2736682 134.91336
2024250000 -1.3077276 133.63615
2035437500 -1.3411423 132.43533
2046625000 -1.3662103 131.1826
2057812500 -1.3906676 129.97174
2069000000 -1.4048518 128.73634
2080187500 -1.4343194 127.46452
2091375000 -1.442481 126.18362
2102562500 -1.4607975 124.87222
2113750000 -1.4883286 123.51084
2124937500 -1.5193156 122.16271
2136125000 -1.5625751 120.85255
2147312500 -1.5892454 119.59701
2158500000 -1.6315166 118.37886
2169687500 -1.6679929 117.1544
2180875000 -1.7060155 115.97667
2192062500 -1.7417345 114.8796
2203250000 -1.7707504 113.77148
2214437500 -1.7934994 112.6129
2225625000 -1.8155909 111.51084
2236812500 -1.8316087 110.37038
2248000000 -1.8438612 109.27504
2259187500 -1.8517091 108.08415
2270375000 -1.8655704 106.8718
2281562500 -1.8794477 105.75671
2292750000 -1.8921335 104.58336
2303937500 -1.8946475 103.3755
2315125000 -1.9027967 102.14361
2326312500 -1.9290217 100.94488
2337500000 -1.9445786 99.827293
2348687500 -1.957222 98.738167
2359875000 -1.9628619 97.568108
2371062500 -1.9734068 96.420547
2382250000 -1.9831657 95.371025
2393437500 -1.9711643 94.297775
2404625000 -1.9581122 93.096413
2415812500 -1.9486965 91.985886
2427000000 -1.9284942 90.818405
2438187500 -1.9082744 89.568787
2449375000 -1.8937242 88.402702
2460562500 -1.8775368 87.125854
2471750000 -1.8688428 85.833809
2482937500 -1.849987 84.548363
2494125000 -1.8452004 83.239532
2505312500 -1.8432186 81.951935
2516500000 -1.8327866 80.731133
2527687500 -1.8217833 79.393013
2538875000 -1.8164371 78.138153
2550062500 -1.7986264 76.939392
2561250000 -1.7766843 75.644188
2572437500 -1.7563672 74.358177
2583625000 -1.7379196 73.039047
2594812500 -1.7149063 71.715935
2606000000 -1.6880606 70.356468
2617187500 -1.6680617 68.931038
2628375000 -1.6466702 67.549385
2639562500 -1.6366295 66.1138
2650750000 -1.6263777 64.671387
2661937500 -1.6159303 63.234295
2673125000 -1.5987735 61.826527
2684312500 -1.5845309 60.372147
2695500000 -1.5696865 58.887356
2706687500 -1.5669476 57.487232
2717875000 -1.5558811 56.058743
2729062500 -1.5462422 54.644814
2740250000 -1.5364631 53.211128
2751437500 -1.5342672 51.76498
2762625000 -1.5260328 50.358818
2773812500 -1.5119623 48.970089
2785000000 -1.4986598 47.49786
2796187500 -1.4808164 46.01487
2807375000 -1.4733193 44.500465
2818562500 -1.459591 42.983253
2829750000 -1.453225 41.44257
2840937500 -1.4509026 39.948277
2852125000 -1.4439088 38.485607
2863312500 -1.4353929 36.995754
2874500000 -1.435106 35.504749
2885687500 -1.4322965 34.011127
2896875000 -1.4283179 32.533821
2908062500 -1.4238614 31.022652
2919250000 -1.4152741 29.542269
2930437500 -1.4127039 28.006798
2941625000 -1.3996165 26.526642
2952812500 -1.395094 24.961962
2964000000 -1.3972197 23.462862
2975187500 -1.3797461 21.932625
2986375000 -1.3651444 20.379044
2997562500 -1.3598005 18.804581
3008750000 -1.3529656 17.220266
3019937500 -1.3555509 15.608113
3031125000 -1.3612146 14.026917
3042312500 -1.3628519 12.525919
3053500000 -1.3627973 10.958065
3064687500 -1.3675972 9.3784456
3075875000 -1.364271 7.824657
3087062500 -1.3612444 6.243084
3098250000 -1.3554218 4.690649
3109437500 -1.3561583 3.0877717
3120625000 -1.352914 1.4803736
3131812500 -1.3480766 -0.10530769
3143000000 -1.3471618 -1.7082514
3154187500 -1.3471357 -3.2973859
3165375000 -1.3493075 -4.9802775
3176562500 -1.3558173 -6.5839419
3187750000 -1.3628515 -8.2103767
3198937500 -1.3692006 -9.8213253
3210125000 -1.3824798 -11.497481
3221312500 -1.390914 -13.105906
3232500000 -1.3924811 -14.695528
3243687500 -1.4089154 -16.327547
3254875000 -1.4261612 -17.91465
3266062500 -1.4259955 -19.494862
3277250000 -1.4272796 -21.109034
3288437500 -1.4374481 -22.754705
3299625000 -1.4468468 -24.336603
3310812500 -1.4563482 -26.04619
3322000000 -1.4729079 -27.688513
3333187500 -1.4839344 -29.299105
3344375000 -1.4873856 -30.928921
3355562500 -1.5006218 -32.60833
3366750000 -1.5157082 -34.298927
3377937500 -1.5262249 -35.949406
3389125000 -1.5481644 -37.595356
3400312500 -1.5585973 -39.211643
3411500000 -1.5733283 -40.840527
3422687500 -1.5840299 -42.531849
3433875000 -1.6071051 -44.141174
3445062500 -1.6162488 -45.785675
3456250000 -1.6298944 -47.49102
3467437500 -1.6537617 -49.185333
3478625000 -1.6747499 -50.826473
3489812500 -1.6946117 -52.445465
3501000000 -1.7102723 -54.153156
3512187500 -1.7420087 -55.826141
3523375000 -1.7623101 -57.463387
3534562500 -1.7855982 -59.109905
3545750000 -1.8024524 -60.713894
3556937500 -1.8269037 -62.419529
3568125000 -1.8507873 -64.108292
3579312500 -1.872506 -65.785942
3590500000 -1.8948245 -67.434479
3601687500 -1.9239283 -69.1119
3612875000 -1.9501551 -70.813904
3624062500 -1.9745724 -72.475365
3635250000 -2.0078838 -74.211128
3646437500 -2.0458472 -75.864662
3657625000 -2.0885692 -77.498436
3668812500 -2.1244006 -79.158363
3680000000 -2.1613905 -80.814285
3691187500 -2.2034056 -82.447372
3702375000 -2.2313492 -83.955055
3713562500 -2.2463899 -85.631866
3724750000 -2.2776828 -87.388397
3735937500 -2.3124785 -89.045403
3747125000 -2.3513412 -90.731979
3758312500 -2.3965654 -92.37001
3769500000 -2.432883 -93.983116
3780687500 -2.456753 -95.643387
3791875000 -2.4989717 -97.390717
3803062500 -2.5620379 -99.015373
3814250000 -2.5964305 -100.58787
3825437500 -2.6362793 -102.32001
3836625000 -2.6864727 -103.93863
3847812500 -2.7319725 -105.60089
3859000000 -2.7866378 -107.24677
3870187500 -2.8375888 -108.85825
3881375000 -2.8974383 -110.38352
3892562500 -2.9256482 -111.96606
3903750000 -2.9836335 -113.616
3914937500 -3.0387492 -115.10848
3926125000 -3.0726311 -116.73627
3937312500 -3.1275523 -118.41891
3948500000 -3.1780009 -119.99897
3959687500 -3.2265089 -121.59798
3970875000 -3.281507 -123.25097
3982062500 -3.3455265 -124.82619
3993250000 -3.398128 -126.40537
4004437500 -3.4534638 -127.99208
4015625000 -3.5057249 -129.52631
4026812500 -3.5664768 -131.08379
4038000000 -3.619936 -132.73293
4049187500 -3.6950691 -134.21324
4060375000 -3.7503631 -135.78358
4071562500 -3.8266511 -137.32208
4082750000 -3.8965638 -138.71933
4093937500 -3.9489465 -140.28732
4105125000 -4.0148745 -141.66336
4116312500 -4.0485315 -143.18692
4127500000 -4.1000118 -144.68257
4138687500 -4.1629777 -146.21703
4149875000 -4.23245 -147.71027
4161062500 -4.2774348 -149.0397
4172250000 -4.319972 -150.70883
4183437500 -4.3926177 -152.24974
4194625000 -4.4716229 -153.81955
4205812500 -4.5541253 -155.21301
4217000000 -4.6105618 -156.69202
4228187500 -4.6934986 -158.22447
4239375000 -4.7864938 -159.58063
4250562500 -4.8451972 -160.86316
4261750000 -4.9124436 -162.28656
4272937500 -4.9864631 -163.74042
4284125000 -5.0512347 -165.00531
4295312500 -5.1046944 -166.27263
4306500000 -5.1600242 -167.6935
4317687500 -5.2197924 -169.01933
4328875000 -5.2686214 -170.4417
4340062500 -5.3211269 -171.88724
4351250000 -5.3811302 -173.43022
4362437500 -5.4686284 -175.06694
4373625000 -5.5716934 -176.33884
4384812500 -5.6564083 -177.65627
4396000000 -5.7221055 -178.79253
4407187500 -5.7708759 179.85226
4418375000 -5.8390131 178.42891
4429562500 -5.9386659 177.15811
4440750000 -6.0034657 176.02721
4451937500 -6.0521455 174.75491
4463125000 -6.1326923 173.34573
4474312500 -6.215261 172.31337
4485500000 -6.2794266 171.10574
4496687500 -6.3317924 169.86049
4507875000 -6.4032674 168.64252
4519062500 -6.4566889 167.30136
4530250000 -6.5444126 166.04359
4541437500 -6.6226869 164.96519
4552625000 -6.6656981 163.76784
4563812500 -6.7374854 162.53691
4575000000 -6.8104782 161.30461
4586187500 -6.8897152 160.17491
4597375000 -6.9649024 159.05394
4608562500 -7.06075 158.14011
4619750000 -7.1249738 157.18274
4630937500 -7.1854191 156.27748
4642125000 -7.2349215 155.46951
4653312500 -7.2546635 154.58688
4664500000 -7.2751055 153.52516
4675687500 -7.3087516 152.44586
4686875000 -7.3481021 151.30359
4698062500 -7.3981452 150.23932
4709250000 -7.4469786 149.3649
4720437500 -7.4855738 148.4875
4731625000 -7.5081611 147.66347
4742812500 -7.544467 146.74277
4754000000 -7.5787497 146.02574
4765187500 -7.5762048 145.35477
4776375000 -7.5749311 144.63948
4787562500 -7.5620627 143.86578
4798750000 -7.5353866 143.17322
4809937500 -7.4871917 142.37115
4821125000 -7.4371133 141.67757
4832312500 -7.3571019 140.82532
4843500000 -7.2864447 139.97858
4854687500 -7.1468749 139.1033
4865875000 -7.0284634 137.66997
4877062500 -6.9335475 136.43689
4888250000 -6.8293304 135.153
4899437500 -6.6984468 133.91185
4910625000 -6.5561447 132.28386
4921812500 -6.4278564 130.37544
4933000000 -6.3388591 128.68639
4944187500 -6.2217021 126.77197
4955375000 -6.1403599 124.69297
4966562500 -6.0735226 122.67744
4977750000 -5.9769564 120.59523
4988937500 -5.9058557 118.31609
5000125000 -5.8596163 115.8325
5011312500 -5.8563604 113.54752
5022500000 -5.8362956 111.12421
5033687500 -5.8564687 108.81664
5044875000 -5.8744383 106.49057
5056062500 -5.8973374 104.39026
5067250000 -5.9108262 102.1253
5078437500 -5.9508009 99.74485
5089625000 -6.0058446 97.671432
5100812500 -6.0255294 95.464722
5112000000 -6.0925164 93.060722
5123187500 -6.1791348 90.883018
5134375000 -6.274735 88.715965
5145562500 -6.3727717 86.629387
5156750000 -6.47611 84.687347
5167937500 -6.5505519 82.852905
5179125000 -6.6352067 80.997017
5190312500 -6.698741 78.974907
5201500000 -6.7846632 77.03038
5212687500 -6.8608947 75.053513
5223875000 -6.9746113 73.042297
5235062500 -7.0576911 71.259682
5246250000 -7.1223879 69.441055
5257437500 -7.1905389 67.341164
5268625000 -7.2873998 65.341133
5279812500 -7.3984861 63.37027
5291000000 -7.4948153 61.37574
5302187500 -7.6116953 59.509617
5313375000 -7.706573 57.620152
5324562500 -7.8215537 55.696362
5335750000 -7.9339623 53.7547
5346937500 -8.0774679 51.969139
5358125000 -8.2238855 50.106304
5369312500 -8.3759432 48.790565
5380500000 -8.4440432 47.086475
5391687500 -8.5808048 45.27095
5402875000 -8.702364 43.721405
5414062500 -8.7765217 42.063362
5425250000 -8.8821926 40.21653
5436437500 -8.990983 38.373436
5447625000 -9.1363087 36.774315
5458812500 -9.1935997 35.297558
5470000000 -9.2886696 33.378838
5481187500 -9.4007282 31.55657
5492375000 -9.5149946 29.75132
5503562500 -9.6546288 27.800146
5514750000 -9.8078995 25.989805
5525937500 -9.9558668 24.15987
5537125000 -10.140388 22.683168
5548312500 -10.258604 21.218248
5559500000 -10.389803 19.609194
5570687500 -10.505516 18.006409
5581875000 -10.648838 16.37336
5593062500 -10.802603 14.693091
5604250000 -10.967895 13.573978
5615437500 -11.028743 12.289856
5626625000 -11.128561 10.388308
5637812500 -11.322832 8.7216291
5649000000 -11.447847 7.7880116
5660187500 -11.492139 6.1745028
5671375000 -11.569362 4.2178741
5682562500 -11.732291 2.0748665
5693750000 -11.911395 0.48217973
5704937500 -12.05456 -1.5072672
5716125000 -12.288977 -3.0036376
5727312500 -12.454812 -4.1248817
5738500000 -12.610888 -5.4745269
5749687500 -12.723919 -6.7502975
5760875000 -12.896605 -8.6707191
5772062500 -13.145085 -10.055124
5783250000 -13.343122 -10.781325
5794437500 -13.451592 -11.701131
5805625000 -13.562536 -12.900352
5816812500 -13.688605 -14.073207
5828000000 -13.765565 -15.929814
5839187500 -13.986903 -17.258377
5850375000 -14.052617 -18.333836
5861562500 -14.233085 -19.87731
5872750000 -14.292472 -20.924398
5883937500 -14.516823 -22.372089
5895125000 -14.620273 -23.408283
5906312500 -14.804679 -24.789669
5917500000 -14.931432 -25.783247
5928687500 -15.078634 -27.024675
5939875000 -15.204188 -28.319475
5951062500 -15.360132 -29.922731
5962250000 -15.582967 -30.485159
5973437500 -15.626034 -31.367729
5984625000 -15.760469 -33.002998
5995812500 -15.953764 -33.498661
6007000000 -16.037546 -34.462196
6018187500 -16.147385 -35.787514
6029375000 -16.400158 -37.126492
6040562500 -16.568783 -37.602894
6051750000 -16.736385 -37.930237
6062937500 -16.753544 -38.453045
6074125000 -16.788647 -39.529156
6085312500 -16.857643 -41.123318
6096500000 -16.981358 -42.181557
6107687500 -17.073826 -43.512226
6118875000 -17.231861 -44.631847
6130062500 -17.419971 -45.59655
6141250000 -17.533051 -45.991028
6152437500 -17.658466 -46.640808
6163625000 -17.697172 -47.18544
6174812500 -17.751213 -48.894627
6186000000 -18.035376 -50.012161
6197187500 -18.15926 -49.935474
6208375000 -18.208994 -50.688759
6219562500 -18.324848 -51.497238
6230750000 -18.299511 -52.324074
6241937500 -18.525591 -53.398994
6253125000 -18.627289 -52.754448
6264312500 -18.456656 -53.373817
6275500000 -18.570555 -54.950298
6286687500 -18.64703 -55.445816
6297875000 -18.723722 -56.394794
6309062500 -18.820515 -57.479797
6320250000 -18.986137 -57.826874
6331437500 -18.988037 -57.916229
6342625000 -18.96537 -59.022896
6353812500 -18.965759 -59.686626
6365000000 -18.904743 -61.277225
6376187500 -19.008932 -62.662643
6387375000 -19.093605 -63.64455
6398562500 -19.208097 -64.078873
6409750000 -19.168375 -64.616951
6420937500 -19.27878 -65.687225
6432125000 -19.343115 -66.480911
6443312500 -19.449453 -67.59388
6454500000 -19.555645 -67.877777
6465687500 -19.5326 -68.279312
6476875000 -19.538258 -69.854881
6488062500 -19.66148 -70.164833
6499250000 -19.537622 -71.356873
6510437500 -19.664303 -71.923462
6521625000 -19.508001 -73.133423
6532812500 -19.682318 -74.897331
6544000000 -19.86669 -75.786217
6555187500 -19.921574 -75.72242
6566375000 -19.945154 -76.492088
6577562500 -19.988129 -77.420158
6588750000 -20.175934 -77.878639
6599937500 -20.110119 -77.35154
6611125000 -19.948744 -78.742332
6622312500 -19.889765 -79.665115
6633500000 -19.912573 -81.523605
6644687500 -20.022816 -82.985168
6655875000 -20.185137 -83.266983
6667062500 -20.155487 -83.730843
6678250000 -20.289465 -83.968231
6689437500 -20.16864 -84.593895
6700625000 -20.156231 -84.990311
6711812500 -20.01166 -86.703766
6723000000 -20.052975 -89.294952
6734187500 -20.391167 -90.621666
6745375000 -20.430994 -90.263206
6756562500 -20.409529 -91.164063
6767750000 -20.414095 -91.340088
6778937500 -20.25602 -91.847366
6790125000 -20.208605 -94.508545
6801312500 -20.456682 -95.736588
6812500000 -20.568817 -95.885048
6823687500 -20.588867 -96.709229
6834875000 -20.763893 -97.598839
6846062500 -20.803547 -97.765198
6857250000 -20.887405 -98.838402
6868437500 -20.886417 -99.33963
6879625000 -21.020281 -99.987564
6890812500 -20.877777 -100.20493
6902000000 -20.910158 -101.64537
