!Keysight Technologies,N5222B,MY60213399,A.14.00.23
!Date: Monday, June 05, 2023 20:30:26
!Correction: S11(C  1-Port  ) 
!S1P File: Measurement: :
# Hz S  dB   R 50
100000000 -0.0060286238 -11.169002
111187500 -0.010015691 -12.451023
122375000 -0.01027775 -13.671645
133562500 -0.012470591 -14.906495
144750000 -0.012120918 -16.131855
155937500 -0.013512767 -17.372873
167125000 -0.014240153 -18.615543
178312500 -0.013824897 -19.866899
189500000 -0.011450986 -21.107021
200687500 -0.013516922 -22.367125
211875000 -0.012084837 -23.650785
223062500 -0.012978925 -24.914164
234250000 -0.014806098 -26.178442
245437500 -0.017478123 -27.456337
256625000 -0.02386553 -28.715057
267812500 -0.024144566 -30.013706
279000000 -0.034154847 -31.303211
290187500 -0.042930063 -32.593262
301375000 -0.057710886 -33.891048
312562500 -0.094227649 -35.194092
323750000 -0.11817546 -36.172981
334937500 -0.10821773 -37.216743
346125000 -0.095227182 -38.469212
357312500 -0.084927477 -39.708916
368500000 -0.075683534 -40.959915
379687500 -0.072492704 -42.325718
390875000 -0.081316791 -43.659176
402062500 -0.091359951 -44.934353
413250000 -0.096415922 -46.212475
424437500 -0.11334439 -47.483761
435625000 -0.12335704 -48.726665
446812500 -0.12708762 -49.946945
458000000 -0.13830505 -51.216457
469187500 -0.15670738 -52.435081
480375000 -0.17107768 -53.57946
491562500 -0.17898336 -54.743347
502750000 -0.18779318 -55.893749
513937500 -0.17470992 -57.013123
525125000 -0.17581791 -58.259766
536312500 -0.18119156 -59.469875
547500000 -0.17841639 -60.672146
558687500 -0.16769494 -61.849262
569875000 -0.15871821 -63.102009
581062500 -0.16112486 -64.38781
592250000 -0.15971363 -65.676811
603437500 -0.16492461 -66.958313
614625000 -0.16617857 -68.286888
625812500 -0.18001123 -69.499283
637000000 -0.19081265 -70.741638
648187500 -0.1922811 -72.012276
659375000 -0.2021378 -73.287224
670562500 -0.21243091 -74.468956
681750000 -0.20854594 -75.662056
692937500 -0.20723405 -76.882713
704125000 -0.20692319 -78.1045
715312500 -0.20350727 -79.348343
726500000 -0.19662605 -80.591606
737687500 -0.19913022 -81.882271
748875000 -0.19191015 -83.234337
760062500 -0.20013334 -84.539719
771250000 -0.20107783 -85.815063
782437500 -0.20896067 -87.167892
793625000 -0.21409948 -88.467926
804812500 -0.2170739 -89.776718
816000000 -0.22705065 -91.108025
827187500 -0.24017625 -92.416473
838375000 -0.25250724 -93.735092
849562500 -0.26452118 -95.096466
860750000 -0.28583935 -96.416
871937500 -0.29731002 -97.679878
883125000 -0.31710652 -98.944305
894312500 -0.33500707 -100.24992
905500000 -0.36223224 -101.53223
916687500 -0.36967117 -102.80642
927875000 -0.379098 -103.99253
939062500 -0.39441884 -105.22801
950250000 -0.40615416 -106.51085
961437500 -0.4135637 -107.80885
972625000 -0.41949794 -109.05795
983812500 -0.43364736 -110.28475
995000000 -0.44369301 -111.67117
1006187500 -0.45235869 -113.0039
1017375000 -0.47228935 -114.30822
1028562500 -0.49125579 -115.69016
1039750000 -0.51974618 -117.01297
1050937500 -0.53199553 -118.38195
1062125000 -0.55868667 -119.76971
1073312500 -0.59481269 -121.11913
1084500000 -0.62637126 -122.46559
1095687500 -0.66133499 -123.8184
1106875000 -0.70724159 -125.17669
1118062500 -0.76539987 -126.43413
1129250000 -0.82302022 -127.58411
1140437500 -0.87725717 -128.67058
1151625000 -0.91449183 -129.71059
1162812500 -0.94402599 -130.83597
1174000000 -0.96492118 -131.86423
1185187500 -0.99710721 -133.01871
1196375000 -1.0257134 -134.0648
1207562500 -1.038799 -135.18962
1218750000 -1.0543582 -136.31743
1229937500 -1.0735201 -137.44504
1241125000 -1.0982164 -138.70695
1252312500 -1.1336831 -139.89708
1263500000 -1.1611382 -141.11714
1274687500 -1.2293599 -142.35472
1285875000 -1.2795416 -143.42416
1297062500 -1.3282056 -144.41861
1308250000 -1.3727129 -145.26154
1319437500 -1.4143082 -146.09026
1330625000 -1.4428798 -146.78886
1341812500 -1.4402539 -147.5757
1353000000 -1.4350967 -148.37929
1364187500 -1.4090328 -149.12296
1375375000 -1.372668 -150.02548
1386562500 -1.3340094 -151.06332
1397750000 -1.2964534 -151.97586
1408937500 -1.2496591 -153.10887
1420125000 -1.2065728 -154.33215
1431312500 -1.1617956 -155.57201
1442500000 -1.1326313 -156.92221
1453687500 -1.1304637 -158.31158
1464875000 -1.1291538 -159.58913
1476062500 -1.1216959 -160.86444
1487250000 -1.126008 -162.1922
1498437500 -1.1469655 -163.40668
1509625000 -1.1298492 -164.55898
1520812500 -1.1090374 -165.81088
1532000000 -1.1174583 -167.17175
1543187500 -1.1218115 -168.3679
1554375000 -1.1175437 -169.64626
1565562500 -1.1146431 -170.82513
1576750000 -1.1069347 -172.03203
1587937500 -1.0948813 -173.30621
1599125000 -1.0926449 -174.55554
1610312500 -1.0789081 -175.80588
1621500000 -1.0763429 -177.08296
1632687500 -1.0855724 -178.38898
1643875000 -1.0892725 -179.69218
1655062500 -1.0993836 179.07726
1666250000 -1.1016428 177.71616
1677437500 -1.1123804 176.50508
1688625000 -1.1136658 175.30008
1699812500 -1.1081276 174.00435
1711000000 -1.1176291 172.70198
1722187500 -1.1169645 171.36595
1733375000 -1.1212257 170.09296
1744562500 -1.1272293 168.72375
1755750000 -1.1372294 167.38316
1766937500 -1.1463605 166.11479
1778125000 -1.1519579 164.86128
1789312500 -1.1514591 163.57367
1800500000 -1.155304 162.1983
1811687500 -1.1659642 160.8896
1822875000 -1.1818945 159.56491
1834062500 -1.2055087 158.26486
1845250000 -1.2260867 157.00098
1856437500 -1.2527812 155.70163
1867625000 -1.2719009 154.50798
1878812500 -1.2958372 153.31993
1890000000 -1.3110521 152.1394
1901187500 -1.3288301 150.9294
1912375000 -1.3364867 149.71443
1923562500 -1.3481832 148.46323
1934750000 -1.3678813 147.17606
1945937500 -1.3887687 145.9678
1957125000 -1.4019513 144.79932
1968312500 -1.4074765 143.62402
1979500000 -1.4117435 142.41661
1990687500 -1.4124945 141.16795
2001875000 -1.4221623 139.85689
2013062500 -1.4398088 138.63977
2024250000 -1.4616064 137.45032
2035437500 -1.4639084 136.34277
2046625000 -1.4535531 135.16187
2057812500 -1.456134 133.97925
2069000000 -1.4527898 132.73494
2080187500 -1.4586827 131.51927
2091375000 -1.4600569 130.2735
2102562500 -1.4687841 129.08318
2113750000 -1.456784 127.77899
2124937500 -1.4809881 126.44273
2136125000 -1.5024818 125.21645
2147312500 -1.5206546 123.99075
2158500000 -1.5333338 122.81918
2169687500 -1.5464256 121.61053
2180875000 -1.5557289 120.38114
2192062500 -1.5671448 119.22526
2203250000 -1.5778221 118.15602
2214437500 -1.5600359 117.04497
2225625000 -1.5554142 115.76224
2236812500 -1.5607303 114.5647
2248000000 -1.5550672 113.44267
2259187500 -1.5448751 112.26152
2270375000 -1.5494173 111.06564
2281562500 -1.5416676 109.93172
2292750000 -1.5419239 108.77704
2303937500 -1.531044 107.66418
2315125000 -1.5202211 106.5073
2326312500 -1.5165604 105.3644
2337500000 -1.5064979 104.24429
2348687500 -1.4846623 103.19797
2359875000 -1.4542419 102.10298
2371062500 -1.4155445 100.94596
2382250000 -1.3651131 99.675171
2393437500 -1.3198129 98.413124
2404625000 -1.2703863 97.098793
2415812500 -1.2275559 95.733116
2427000000 -1.1694981 94.229424
2438187500 -1.1331948 92.74128
2449375000 -1.1066492 91.173126
2460562500 -1.0768169 89.691978
2471750000 -1.053246 88.12854
2482937500 -1.033811 86.585121
2494125000 -1.0147116 84.999268
2505312500 -1.0074883 83.478241
2516500000 -1.0072045 81.998627
2527687500 -1.0033557 80.500877
2538875000 -0.99827135 79.038239
2550062500 -0.99931192 77.542625
2561250000 -1.00121 76.071922
2572437500 -1.0025806 74.672707
2583625000 -1.0042429 73.253876
2594812500 -0.9939279 71.85199
2606000000 -0.98190922 70.369667
2617187500 -0.973396 68.914619
2628375000 -0.95717168 67.422699
2639562500 -0.94537705 65.913162
2650750000 -0.93039525 64.373833
2661937500 -0.92313641 62.892403
2673125000 -0.9112792 61.337299
2684312500 -0.90274644 59.800587
2695500000 -0.89181554 58.258339
2706687500 -0.88426352 56.673504
2717875000 -0.88236636 55.147297
2729062500 -0.87531018 53.570084
2740250000 -0.87333751 52.005817
2751437500 -0.8748219 50.434837
2762625000 -0.87446702 48.770248
2773812500 -0.88295066 47.162392
2785000000 -0.89393842 45.51823
2796187500 -0.90285158 43.928886
2807375000 -0.92122447 42.270336
2818562500 -0.94153088 40.652451
2829750000 -0.96792012 39.046249
2840937500 -0.99021506 37.416393
2852125000 -1.0193833 35.848854
2863312500 -1.0391992 34.342503
2874500000 -1.0564185 32.783535
2885687500 -1.0728966 31.162697
2896875000 -1.0998031 29.59824
2908062500 -1.1220927 28.097019
2919250000 -1.1437562 26.575901
2930437500 -1.1709378 25.062588
2941625000 -1.1939563 23.545483
2952812500 -1.2154441 22.114876
2964000000 -1.2321842 20.628866
2975187500 -1.2478217 19.111244
2986375000 -1.2641346 17.586411
2997562500 -1.285256 16.064945
3008750000 -1.3020146 14.527988
3019937500 -1.3142425 12.942946
3031125000 -1.338048 11.340921
3042312500 -1.3558406 9.7302961
3053500000 -1.3811561 8.0299225
3064687500 -1.4181527 6.404254
3075875000 -1.4601486 4.7776747
3087062500 -1.5158595 3.2145002
3098250000 -1.5661852 1.6737353
3109437500 -1.6237607 0.24859084
3120625000 -1.6730436 -1.1085603
3131812500 -1.7114763 -2.4249349
3143000000 -1.7461952 -3.7839735
3154187500 -1.7801361 -5.08394
3165375000 -1.8104554 -6.3409204
3176562500 -1.8334885 -7.6419182
3187750000 -1.8531743 -8.9157925
3198937500 -1.8710283 -10.158581
3210125000 -1.8725296 -11.465744
3221312500 -1.8680682 -12.808947
3232500000 -1.864969 -14.226933
3243687500 -1.8726726 -15.646704
3254875000 -1.8767523 -17.148996
3266062500 -1.8949426 -18.576534
3277250000 -1.9064776 -19.926563
3288437500 -1.9038223 -21.304489
3299625000 -1.9090172 -22.670805
3310812500 -1.8999184 -24.040394
3322000000 -1.8880118 -25.4249
3333187500 -1.8838309 -26.850714
3344375000 -1.8701131 -28.228199
3355562500 -1.8466527 -29.689928
3366750000 -1.8326365 -31.150858
3377937500 -1.8019252 -32.659431
3389125000 -1.7831101 -34.236462
3400312500 -1.7635657 -35.774662
3411500000 -1.7384588 -37.373798
3422687500 -1.7188388 -38.994473
3433875000 -1.7008249 -40.659935
3445062500 -1.6933621 -42.379116
3456250000 -1.6831237 -43.969082
3467437500 -1.6679311 -45.68486
3478625000 -1.6551815 -47.455498
3489812500 -1.6633294 -49.209518
3501000000 -1.6595185 -50.87273
3512187500 -1.6457543 -52.626698
3523375000 -1.6510643 -54.374413
3534562500 -1.6445544 -56.118263
3545750000 -1.6481969 -57.878574
3556937500 -1.6484566 -59.710991
3568125000 -1.6611742 -61.505314
3579312500 -1.66916 -63.336388
3590500000 -1.6970575 -65.183548
3601687500 -1.7229978 -66.870667
3612875000 -1.7378758 -68.57682
3624062500 -1.7463923 -70.305847
3635250000 -1.7644477 -72.048637
3646437500 -1.7754437 -73.848564
3657625000 -1.8051817 -75.649818
3668812500 -1.8242757 -77.320366
3680000000 -1.8425527 -79.115334
3691187500 -1.8632846 -80.833725
3702375000 -1.8810637 -82.653671
3713562500 -1.9028397 -84.465897
3724750000 -1.9261301 -86.235214
3735937500 -1.9377801 -87.994652
3747125000 -1.9505732 -89.876572
3758312500 -1.9827493 -91.834282
3769500000 -2.0432529 -93.707535
3780687500 -2.084976 -95.442528
3791875000 -2.1156604 -97.265343
3803062500 -2.1598401 -99.126648
3814250000 -2.2181888 -100.89337
3825437500 -2.2570908 -102.65333
3836625000 -2.2947719 -104.37923
3847812500 -2.3385177 -106.24331
3859000000 -2.3907347 -108.08965
3870187500 -2.4561615 -109.911
3881375000 -2.5219359 -111.53127
3892562500 -2.5599499 -113.24757
3903750000 -2.609611 -115.06388
3914937500 -2.6792796 -116.78165
3926125000 -2.7392251 -118.48576
3937312500 -2.8062348 -120.07406
3948500000 -2.8411088 -121.71508
3959687500 -2.8965249 -123.43921
3970875000 -2.9617622 -125.16774
3982062500 -3.019717 -126.73557
3993250000 -3.0677943 -128.48868
4004437500 -3.1442914 -130.26421
4015625000 -3.2140033 -131.7782
4026812500 -3.2685099 -133.47664
4038000000 -3.3476579 -135.10049
4049187500 -3.4285426 -136.75612
4060375000 -3.5090537 -138.10815
4071562500 -3.5431523 -139.59579
4082750000 -3.6010761 -141.15082
4093937500 -3.6415486 -142.65707
4105125000 -3.7058675 -144.2437
4116312500 -3.7561824 -145.64545
4127500000 -3.7796404 -147.10858
4138687500 -3.8039739 -148.87837
4149875000 -3.8871503 -150.55864
4161062500 -3.9225781 -151.88893
4172250000 -3.9567285 -153.62344
4183437500 -4.024713 -155.3866
4194625000 -4.1002579 -156.88089
4205812500 -4.1519585 -158.44748
4217000000 -4.2205906 -160.10423
4228187500 -4.2990766 -161.61122
4239375000 -4.3718162 -163.1044
4250562500 -4.4475465 -164.43364
4261750000 -4.5000467 -165.71596
4272937500 -4.5552897 -166.92142
4284125000 -4.5289521 -168.10101
4295312500 -4.5411873 -169.73494
4306500000 -4.5592155 -171.26372
4317687500 -4.5743618 -172.75693
4328875000 -4.5913138 -174.34459
4340062500 -4.5885754 -175.88742
4351250000 -4.5876966 -177.6053
4362437500 -4.6043663 -179.4274
4373625000 -4.6325054 178.84061
4384812500 -4.6457558 176.99928
4396000000 -4.6991091 175.04675
4407187500 -4.7431574 173.34314
4418375000 -4.7751012 171.43837
4429562500 -4.8348961 169.50566
4440750000 -4.9041982 167.66069
4451937500 -4.969965 165.83185
4463125000 -5.0564308 163.90338
4474312500 -5.1386213 162.30406
4485500000 -5.2146897 160.62776
4496687500 -5.2782211 158.77126
4507875000 -5.3635645 157.06712
4519062500 -5.4654298 155.36586
4530250000 -5.5510316 153.9762
4541437500 -5.5939994 152.43092
4552625000 -5.6565099 150.93376
4563812500 -5.7034416 149.18202
4575000000 -5.7492576 147.54358
4586187500 -5.799191 145.79797
4597375000 -5.8349519 143.90453
4608562500 -5.8964367 142.11728
4619750000 -5.9065728 140.00078
4630937500 -6.0146289 137.62555
4642125000 -6.1554408 135.52586
4653312500 -6.2627668 133.70407
4664500000 -6.3839116 131.46129
4675687500 -6.5349779 129.47209
4686875000 -6.6977181 127.45379
4698062500 -6.8756633 125.65392
4709250000 -7.0286942 123.68142
4720437500 -7.271884 121.75001
4731625000 -7.5390615 120.41902
4742812500 -7.7015328 119.52393
4754000000 -7.8505425 118.27631
4765187500 -7.9992542 117.16829
4776375000 -8.097024 116.02494
4787562500 -8.2246141 114.47417
4798750000 -8.3525524 113.54745
4809937500 -8.4173727 112.37273
4821125000 -8.4581318 110.84435
4832312500 -8.5256109 109.24857
4843500000 -8.6189728 106.94209
4854687500 -8.8127804 104.94561
4865875000 -9.0381069 103.38203
4877062500 -9.2030058 101.88157
4888250000 -9.3661928 100.42034
4899437500 -9.5570927 98.521141
4910625000 -9.8102207 97.105759
4921812500 -10.016087 95.801086
4933000000 -10.27382 94.192848
4944187500 -10.541035 93.227745
4955375000 -10.763514 92.068024
4966562500 -11.055243 91.385818
4977750000 -11.271848 90.864708
4988937500 -11.472703 90.452194
5000125000 -11.589018 89.961075
5011312500 -11.724504 88.797585
5022500000 -12.014318 88.262794
5033687500 -12.139864 88.098114
5044875000 -12.281635 87.917778
5056062500 -12.364709 87.338135
5067250000 -12.47187 86.641579
5078437500 -12.616466 86.251915
5089625000 -12.614965 85.747025
5100812500 -12.716907 84.531723
5112000000 -12.815814 83.425125
5123187500 -12.987439 82.154465
5134375000 -13.195113 81.24469
5145562500 -13.337299 80.98082
5156750000 -13.425886 80.344398
5167937500 -13.542652 79.211945
5179125000 -13.697252 78.370575
5190312500 -13.839714 77.300377
5201500000 -13.999535 76.189537
5212687500 -14.283278 74.758347
5223875000 -14.605148 74.796204
5235062500 -14.887568 74.638016
5246250000 -15.124315 75.499786
5257437500 -15.29224 76.664413
5268625000 -15.284756 78.057587
5279812500 -15.146846 78.155602
5291000000 -15.044916 77.913063
5302187500 -15.022151 76.977188
5313375000 -15.049702 76.182022
5324562500 -15.059823 75.656174
5335750000 -15.052479 74.942978
5346937500 -14.974369 74.114838
5358125000 -14.994678 72.260216
5369312500 -15.115133 70.815552
5380500000 -15.19071 69.194252
5391687500 -15.381088 67.481026
5402875000 -15.738019 66.53167
5414062500 -15.92411 66.333748
5425250000 -16.121946 65.293243
5436437500 -16.540239 64.903496
5447625000 -16.793324 65.886475
5458812500 -17.082045 66.873039
5470000000 -17.227259 68.972054
5481187500 -17.100046 70.720276
5492375000 -16.870565 70.986061
5503562500 -16.747543 70.297363
5514750000 -16.69355 69.384415
5525937500 -16.681028 68.155472
5537125000 -16.890602 67.94455
5548312500 -16.832388 67.723351
5559500000 -16.894201 66.914261
5570687500 -16.979126 66.60405
5581875000 -17.012026 66.893265
5593062500 -17.071018 66.15625
5604250000 -17.12686 66.140656
5615437500 -17.189659 66.276436
5626625000 -17.219131 66.185539
5637812500 -17.362701 66.130066
5649000000 -17.508734 66.995522
5660187500 -17.557087 68.793343
5671375000 -17.340487 69.912964
5682562500 -17.339001 70.028595
5693750000 -17.183147 71.923347
5704937500 -16.858889 71.672943
5716125000 -16.703024 71.103897
5727312500 -16.587275 70.879257
5738500000 -16.420851 70.396423
5749687500 -16.280584 70.105751
5760875000 -16.097204 69.538467
5772062500 -15.939808 68.456718
5783250000 -15.932631 67.606049
5794437500 -15.86932 67.634178
5805625000 -15.676712 67.827431
5816812500 -15.531038 67.21302
5828000000 -15.297065 67.206512
5839187500 -15.078338 66.178314
5850375000 -14.941156 65.49588
5861562500 -14.772673 64.984169
5872750000 -14.550685 64.165947
5883937500 -14.38517 62.977493
5895125000 -14.272529 62.070793
5906312500 -14.114327 61.518257
5917500000 -13.926475 60.898365
5928687500 -13.685273 60.070522
5939875000 -13.447339 58.615891
5951062500 -13.25408 56.986
5962250000 -13.036566 55.420414
5973437500 -12.918655 53.163425
5984625000 -12.866195 51.845547
5995812500 -12.721302 51.008438
6007000000 -12.455541 49.576077
6018187500 -12.257472 47.742081
6029375000 -12.040135 46.168148
6040562500 -11.793601 43.795742
6051750000 -11.659029 41.320473
6062937500 -11.549081 39.320919
6074125000 -11.397504 37.246624
6085312500 -11.294003 34.893669
6096500000 -11.224333 33.114056
6107687500 -11.088715 31.356415
6118875000 -10.936155 29.402933
6130062500 -10.78986 27.137733
6141250000 -10.664117 24.666061
6152437500 -10.583087 21.965591
6163625000 -10.587256 19.384506
6174812500 -10.606837 17.521624
6186000000 -10.556907 15.627987
6197187500 -10.497267 13.773019
6208375000 -10.418777 11.903025
6219562500 -10.296951 9.8174047
6230750000 -10.185031 7.3960805
6241937500 -10.10051 4.7716331
6253125000 -10.076252 2.0925195
6264312500 -10.121743 -0.59689879
6275500000 -10.158663 -2.5608196
6286687500 -10.129659 -4.5176344
6297875000 -10.12913 -6.634912
6309062500 -10.124205 -8.3867855
6320250000 -10.029552 -10.284807
6331437500 -9.9779797 -12.826459
6342625000 -9.9761753 -15.220166
6353812500 -9.9964819 -17.421692
6365000000 -10.014832 -19.473919
6376187500 -10.006935 -21.637094
6387375000 -10.011104 -23.647625
6398562500 -10.006111 -25.788811
6409750000 -10.016541 -27.916454
6420937500 -9.9892483 -30.108738
6432125000 -9.9869709 -32.460266
6443312500 -10.034184 -34.773411
6454500000 -10.04038 -36.775444
6465687500 -10.013902 -39.039307
6476875000 -10.012818 -41.535736
6488062500 -10.046178 -43.93145
6499250000 -10.046697 -46.34584
6510437500 -10.097464 -48.765808
6521625000 -10.141551 -51.245705
6532812500 -10.196438 -53.595905
6544000000 -10.25559 -55.829395
6555187500 -10.315831 -57.860123
6566375000 -10.353725 -60.020733
6577562500 -10.350797 -62.004978
6588750000 -10.367937 -64.477295
6599937500 -10.412683 -66.705383
6611125000 -10.427736 -68.967453
6622312500 -10.461274 -71.165695
6633500000 -10.483237 -73.344406
6644687500 -10.496268 -75.518127
6655875000 -10.48305 -78.097763
6667062500 -10.484254 -80.413513
6678250000 -10.486609 -83.217438
6689437500 -10.541138 -85.983749
6700625000 -10.627964 -88.696869
6711812500 -10.7314 -91.039787
6723000000 -10.765265 -93.871071
6734187500 -10.893288 -96.226456
6745375000 -10.928589 -98.757797
6756562500 -11.018953 -101.77747
6767750000 -11.16099 -104.40748
6778937500 -11.298776 -106.9138
6790125000 -11.451145 -109.63026
6801312500 -11.605558 -111.80132
6812500000 -11.767101 -114.09413
6823687500 -11.846252 -116.09126
6834875000 -11.998968 -118.88766
6846062500 -12.103705 -120.72845
6857250000 -12.150954 -123.77852
6868437500 -12.353743 -126.46249
6879625000 -12.501041 -129.11086
6890812500 -12.71664 -131.87633
6902000000 -12.998837 -134.15968
6913187500 -13.188397 -135.87288
6924375000 -13.323888 -137.58151
