!Keysight Technologies,N5222B,MY60213399,A.14.00.23
!Date: Monday, June 05, 2023 21:53:53
!Correction: S11(C  1-Port  ) 
!S1P File: Measurement: :
# Hz S  dB   R 50
100000000 -0.0095774895 -11.556746
111187500 -0.0066715353 -12.860363
122375000 -0.0062640011 -14.144173
133562500 -0.0061382749 -15.452997
144750000 -0.0046930723 -16.778545
155937500 -0.0085793128 -18.099739
167125000 -0.0088783782 -19.407688
178312500 -0.015326136 -20.721642
189500000 -0.025513453 -22.026516
200687500 -0.029205458 -23.363651
211875000 -0.053033311 -24.559799
223062500 -0.04606026 -25.677299
234250000 -0.032074116 -26.938065
245437500 -0.019612456 -28.27696
256625000 -0.017897109 -29.605076
267812500 -0.020019684 -30.950422
279000000 -0.020126309 -32.264557
290187500 -0.023473037 -33.620964
301375000 -0.027409991 -34.994362
312562500 -0.035611715 -36.353512
323750000 -0.048572276 -37.748085
334937500 -0.079659164 -39.147881
346125000 -0.13290811 -40.294189
357312500 -0.15607353 -41.141453
368500000 -0.10936119 -42.172314
379687500 -0.072552189 -43.44099
390875000 -0.051139437 -44.87986
402062500 -0.044145364 -46.254856
413250000 -0.040349979 -47.630463
424437500 -0.039087158 -49.000549
435625000 -0.043193072 -50.343021
446812500 -0.042522248 -51.719448
458000000 -0.053880569 -53.084843
469187500 -0.078956328 -54.452946
480375000 -0.091374755 -55.756268
491562500 -0.12100902 -57.102211
502750000 -0.14295344 -58.343975
513937500 -0.18003955 -59.628262
525125000 -0.22294575 -60.672211
536312500 -0.22400399 -61.535625
547500000 -0.17549177 -62.544426
558687500 -0.12629153 -63.846485
569875000 -0.10026329 -65.311218
581062500 -0.094749607 -66.790436
592250000 -0.093035802 -68.185127
603437500 -0.10189276 -69.602112
614625000 -0.10827187 -71.037186
625812500 -0.12174106 -72.418892
637000000 -0.14969166 -73.776649
648187500 -0.18571076 -75.11068
659375000 -0.22622783 -76.258995
670562500 -0.25914872 -77.282913
681750000 -0.23952381 -78.139427
692937500 -0.20004632 -79.358681
704125000 -0.18063104 -80.698029
715312500 -0.15721677 -82.07692
726500000 -0.14820406 -83.537453
737687500 -0.14978759 -85.013145
748875000 -0.16633861 -86.473206
760062500 -0.19464742 -87.945511
771250000 -0.23579492 -89.355469
782437500 -0.2977888 -90.635353
793625000 -0.34911796 -91.596283
804812500 -0.36935237 -92.486008
816000000 -0.34432974 -93.376434
827187500 -0.30695543 -94.446175
838375000 -0.26749703 -95.742256
849562500 -0.24074861 -97.059174
860750000 -0.21638222 -98.444839
871937500 -0.19989643 -99.957657
883125000 -0.20113097 -101.3662
894312500 -0.19989616 -102.83343
905500000 -0.21321061 -104.31918
916687500 -0.22981043 -105.81683
927875000 -0.26065695 -107.3072
939062500 -0.30798429 -108.82181
950250000 -0.38992673 -110.23896
961437500 -0.49313334 -111.21815
972625000 -0.56406808 -111.78606
983812500 -0.52822477 -112.18373
995000000 -0.43558487 -113.14116
1006187500 -0.36417586 -114.51028
1017375000 -0.32135329 -115.87872
1028562500 -0.28383017 -117.34205
1039750000 -0.26064128 -118.8362
1050937500 -0.25608248 -120.42661
1062125000 -0.26146734 -121.97137
1073312500 -0.2756035 -123.61601
1084500000 -0.30934837 -125.22092
1095687500 -0.37320653 -126.79107
1106875000 -0.46229371 -128.1799
1118062500 -0.56865788 -129.27399
1129250000 -0.64995253 -129.75528
1140437500 -0.62489253 -130.23563
1151625000 -0.55525917 -131.0121
1162812500 -0.47173181 -132.16882
1174000000 -0.40895307 -133.59891
1185187500 -0.36846861 -135.18208
1196375000 -0.35355595 -136.80408
1207562500 -0.36182201 -138.4655
1218750000 -0.38558245 -140.03763
1229937500 -0.43989012 -141.57889
1241125000 -0.50296164 -142.9948
1252312500 -0.57143039 -144.15817
1263500000 -0.63258666 -145.04532
1274687500 -0.6373871 -145.82251
1285875000 -0.6012224 -146.6983
1297062500 -0.54246897 -147.81262
1308250000 -0.48497614 -149.20837
1319437500 -0.46857551 -150.77222
1330625000 -0.47169718 -152.30632
1341812500 -0.4768461 -153.81015
1353000000 -0.50983268 -155.33304
1364187500 -0.55334753 -156.68019
1375375000 -0.59388781 -158.02864
1386562500 -0.65110689 -159.27721
1397750000 -0.70450675 -160.36012
1408937500 -0.7480256 -161.12981
1420125000 -0.72595942 -161.88344
1431312500 -0.65941525 -162.88763
1442500000 -0.59398812 -164.17334
1453687500 -0.54714608 -165.73279
1464875000 -0.54493779 -167.32758
1476062500 -0.54649109 -168.79614
1487250000 -0.54861176 -170.28725
1498437500 -0.55464059 -171.82765
1509625000 -0.57391512 -173.3875
1520812500 -0.62693942 -174.98189
1532000000 -0.69887084 -176.36783
1543187500 -0.7794385 -177.63574
1554375000 -0.86685216 -178.55263
1565562500 -0.91764802 -179.21275
1576750000 -0.92831564 -179.78493
1587937500 -0.86743373 179.56642
1599125000 -0.7809962 178.55928
1610312500 -0.69067758 177.31148
1621500000 -0.61765724 175.7943
1632687500 -0.57561803 174.12761
1643875000 -0.54072827 172.45111
1655062500 -0.53349298 170.71098
1666250000 -0.54409707 168.87218
1677437500 -0.58587348 167.02463
1688625000 -0.66701114 165.28384
1699812500 -0.77759343 163.73465
1711000000 -0.9028452 162.49597
1722187500 -1.0207033 161.76703
1733375000 -1.0776479 161.32263
1744562500 -1.0511276 160.87747
1755750000 -0.98592484 160.05997
1766937500 -0.90565079 158.97964
1778125000 -0.84043288 157.61053
1789312500 -0.80324048 156.14923
1800500000 -0.78169996 154.6178
1811687500 -0.78811264 153.0985
1822875000 -0.79415381 151.68892
1834062500 -0.81376719 150.35118
1845250000 -0.81978816 149.07141
1856437500 -0.81238371 147.80247
1867625000 -0.80384785 146.48561
1878812500 -0.78905904 145.08247
1890000000 -0.78211647 143.59425
1901187500 -0.78226215 142.03345
1912375000 -0.79726756 140.46194
1923562500 -0.83111519 138.88408
1934750000 -0.87994891 137.35924
1945937500 -0.94159645 135.90927
1957125000 -1.0251166 134.63747
1968312500 -1.1153555 133.56709
1979500000 -1.1867676 132.71867
1990687500 -1.2281401 132.20947
2001875000 -1.204394 131.72411
2013062500 -1.1237767 130.98308
2024250000 -1.0265095 129.99675
2035437500 -0.9203912 128.68422
2046625000 -0.83321488 127.15132
2057812500 -0.77070498 125.42754
2069000000 -0.7347042 123.65909
2080187500 -0.71786952 121.83417
2091375000 -0.71902615 119.96423
2102562500 -0.74379534 118.12094
2113750000 -0.79218692 116.28287
2124937500 -0.86836505 114.49277
2136125000 -0.97639275 112.83015
2147312500 -1.1154234 111.36891
2158500000 -1.2770219 110.43069
2169687500 -1.3933141 110.05353
2180875000 -1.4316205 109.92315
2192062500 -1.3784577 109.72703
2203250000 -1.2486157 109.13472
2214437500 -1.1249399 108.0835
2225625000 -1.0044807 106.74258
2236812500 -0.90490305 105.10425
2248000000 -0.83270842 103.29934
2259187500 -0.79641795 101.47958
2270375000 -0.78223705 99.641724
2281562500 -0.79130471 97.796921
2292750000 -0.82286096 96.081451
2303937500 -0.86836183 94.421577
2315125000 -0.90776742 92.879929
2326312500 -0.96157831 91.373611
2337500000 -1.0181389 89.980713
2348687500 -1.0684336 88.66478
2359875000 -1.1161826 87.385246
2371062500 -1.1663215 86.122269
2382250000 -1.2258464 84.963135
2393437500 -1.2874622 84.019577
2404625000 -1.3163018 83.225372
2415812500 -1.3163012 82.595436
2427000000 -1.2481071 81.928474
2438187500 -1.1426544 80.960503
2449375000 -1.03758 79.668213
2460562500 -0.95564598 78.119179
2471750000 -0.88038641 76.462326
2482937500 -0.82664412 74.749207
2494125000 -0.79744983 72.96048
2505312500 -0.77873075 71.168556
2516500000 -0.77257216 69.281952
2527687500 -0.78927076 67.403709
2538875000 -0.82317102 65.544136
2550062500 -0.88647133 63.717525
2561250000 -0.97005862 61.977478
2572437500 -1.0867049 60.453377
2583625000 -1.2137113 59.289608
2594812500 -1.3314297 58.452263
2606000000 -1.3994385 58.020035
2617187500 -1.3834907 57.680374
2628375000 -1.3004665 57.126862
2639562500 -1.190477 56.20385
2650750000 -1.0710161 54.979965
2661937500 -0.95809889 53.482903
2673125000 -0.86778367 51.719299
2684312500 -0.80728436 49.867043
2695500000 -0.76882929 47.991001
2706687500 -0.75351119 46.112373
2717875000 -0.75837475 44.191784
2729062500 -0.77871841 42.294312
2740250000 -0.81754059 40.444485
2751437500 -0.87614405 38.682007
2762625000 -0.9543404 37.0695
2773812500 -1.0470742 35.577
2785000000 -1.1401891 34.414139
2796187500 -1.1965827 33.443802
2807375000 -1.219548 32.580769
2818562500 -1.2105263 31.654863
2829750000 -1.1726232 30.592766
2840937500 -1.1287447 29.420046
2852125000 -1.0838813 28.087236
2863312500 -1.0475625 26.752747
2874500000 -1.0086489 25.365524
2885687500 -0.96785063 23.881014
2896875000 -0.91918957 22.380301
2908062500 -0.87204444 20.74275
2919250000 -0.84057581 18.972534
2930437500 -0.83233154 17.235126
2941625000 -0.82889271 15.441488
2952812500 -0.83889771 13.674375
2964000000 -0.86195844 11.929609
2975187500 -0.88529938 10.246679
2986375000 -0.93442065 8.5391674
2997562500 -0.99419838 6.8805027
3008750000 -1.0640857 5.3648639
3019937500 -1.14047 4.0285583
3031125000 -1.2140727 2.9123695
3042312500 -1.2615761 1.987546
3053500000 -1.2677295 1.2215831
3064687500 -1.2193903 0.36191228
3075875000 -1.1394513 -0.73647118
3087062500 -1.0491697 -2.0678813
3098250000 -0.97015864 -3.6668482
3109437500 -0.9099645 -5.4502978
3120625000 -0.88144284 -7.2772226
3131812500 -0.86139369 -9.1264353
3143000000 -0.84990227 -10.965647
3154187500 -0.86611837 -12.805547
3165375000 -0.8872422 -14.617385
3176562500 -0.91916269 -16.409323
3187750000 -0.97589946 -18.163671
3198937500 -1.0485504 -19.819273
3210125000 -1.125422 -21.291151
3221312500 -1.1966836 -22.604265
3232500000 -1.2536658 -23.683064
3243687500 -1.2911811 -24.618828
3254875000 -1.2837431 -25.547871
3266062500 -1.2350754 -26.606489
3277250000 -1.1656595 -27.907043
3288437500 -1.1055471 -29.444187
3299625000 -1.0546167 -31.102594
3310812500 -1.028409 -32.856407
3322000000 -1.019729 -34.621403
3333187500 -1.0203271 -36.364017
3344375000 -1.0337203 -38.089714
3355562500 -1.0543879 -39.762833
3366750000 -1.0829886 -41.374325
3377937500 -1.1162096 -42.927944
3389125000 -1.1384846 -44.496323
3400312500 -1.1755815 -46.04435
3411500000 -1.1999228 -47.512173
3422687500 -1.2255907 -48.932537
3433875000 -1.2433225 -50.33456
3445062500 -1.2577819 -51.83567
3456250000 -1.2756585 -53.291695
3467437500 -1.2998649 -54.69173
3478625000 -1.3124113 -56.021046
3489812500 -1.3124789 -57.36771
3501000000 -1.3145732 -58.731964
3512187500 -1.289378 -60.154625
3523375000 -1.2691554 -61.66127
3534562500 -1.2510426 -63.207001
3545750000 -1.2353667 -64.866562
3556937500 -1.2328254 -66.574081
3568125000 -1.2415565 -68.320335
3579312500 -1.2677912 -69.983147
3590500000 -1.2915553 -71.6493
3601687500 -1.3280119 -73.280098
3612875000 -1.3720002 -74.862259
3624062500 -1.4157199 -76.332611
3635250000 -1.4524018 -77.766106
3646437500 -1.4861703 -79.147392
3657625000 -1.5096296 -80.470383
3668812500 -1.5216293 -81.809364
3680000000 -1.5401406 -83.094185
3691187500 -1.5161754 -84.364494
3702375000 -1.4808029 -85.849464
3713562500 -1.4484664 -87.476944
3724750000 -1.429474 -89.213058
3735937500 -1.4333503 -91.022186
3747125000 -1.4558965 -92.81662
3758312500 -1.4761316 -94.620186
3769500000 -1.5253226 -96.382057
3780687500 -1.5791398 -98.031113
3791875000 -1.6400759 -99.654388
3803062500 -1.7127388 -101.1449
3814250000 -1.7894443 -102.4836
3825437500 -1.8450836 -103.63862
3836625000 -1.8752077 -104.73341
3847812500 -1.8766402 -105.75897
3859000000 -1.8440084 -106.91722
3870187500 -1.7920419 -108.29195
3881375000 -1.7408246 -109.88397
3892562500 -1.7073584 -111.62544
3903750000 -1.6878105 -113.45063
3914937500 -1.6947083 -115.38622
3926125000 -1.7262176 -117.32008
3937312500 -1.7654268 -119.18298
3948500000 -1.8226846 -120.93256
3959687500 -1.8917837 -122.62207
3970875000 -1.9574772 -124.13568
3982062500 -2.0032241 -125.64372
3993250000 -2.0619514 -127.18391
4004437500 -2.108613 -128.67123
4015625000 -2.1697767 -130.20499
4026812500 -2.2385573 -131.63785
4038000000 -2.303628 -132.89984
4049187500 -2.3560424 -134.10002
4060375000 -2.393033 -135.18172
4071562500 -2.3874998 -136.21564
4082750000 -2.3580067 -137.53157
4093937500 -2.3311443 -139.01669
4105125000 -2.3092153 -140.58488
4116312500 -2.2895017 -142.23865
4127500000 -2.2855186 -143.94
4138687500 -2.2808976 -145.77892
4149875000 -2.3005404 -147.64011
4161062500 -2.3237009 -149.52321
4172250000 -2.3593524 -151.55986
4183437500 -2.4407706 -153.5804
4194625000 -2.5400271 -155.46005
4205812500 -2.6560521 -157.26804
4217000000 -2.793278 -158.83325
4228187500 -2.9327199 -160.14114
4239375000 -3.0493245 -161.28542
4250562500 -3.1709723 -162.25508
4261750000 -3.2357929 -162.95207
4272937500 -3.2595582 -163.6879
4284125000 -3.2496388 -164.54987
4295312500 -3.2036767 -165.47478
4306500000 -3.1265464 -166.77753
4317687500 -3.0540278 -168.41142
4328875000 -2.9969912 -170.23466
4340062500 -2.9628482 -172.36459
4351250000 -2.9817753 -174.66714
4362437500 -3.0531111 -176.90977
4373625000 -3.1540763 -179.09073
4384812500 -3.2850273 178.87526
4396000000 -3.444551 177.02718
4407187500 -3.6268685 175.40506
4418375000 -3.8129675 174.18134
4429562500 -3.9545217 173.18689
4440750000 -4.0698605 172.17818
4451937500 -4.19561 171.29095
4463125000 -4.2876492 170.4362
4474312500 -4.3863554 169.7648
4485500000 -4.4214883 169.15909
4496687500 -4.4396749 168.3867
4507875000 -4.4378304 167.66904
4519062500 -4.3891816 166.77237
4530250000 -4.343503 165.4854
4541437500 -4.295845 164.07233
4552625000 -4.2580552 162.291
4563812500 -4.2759142 160.32547
4575000000 -4.3441343 158.35072
4586187500 -4.4309883 156.55096
4597375000 -4.5447249 154.74475
4608562500 -4.7101231 153.04741
4619750000 -4.9117365 151.64839
4630937500 -5.1118155 150.72081
4642125000 -5.2832398 150.2267
4653312500 -5.4164629 149.83653
4664500000 -5.5384064 149.57062
4675687500 -5.6225929 149.60774
4686875000 -5.6504784 149.71358
4698062500 -5.6241984 149.90076
4709250000 -5.4997792 150.05766
4720437500 -5.3308225 149.36975
4731625000 -5.2134023 148.50333
4742812500 -5.0658226 147.50186
4754000000 -4.9443374 146.17558
4765187500 -4.8422565 144.83688
4776375000 -4.7365475 143.38808
4787562500 -4.6600256 141.83733
4798750000 -4.5890417 140.30032
4809937500 -4.516315 138.71332
4821125000 -4.4547424 137.11423
4832312500 -4.3930621 135.45232
4843500000 -4.3332372 133.75629
4854687500 -4.2800379 131.94308
4865875000 -4.2456017 129.98923
4877062500 -4.2439065 128.13861
4888250000 -4.2418394 126.41161
4899437500 -4.2372308 124.67707
4910625000 -4.2236776 122.9308
4921812500 -4.2310982 121.11098
4933000000 -4.2601695 119.43477
4944187500 -4.2834539 117.99592
4955375000 -4.2808332 116.61221
4966562500 -4.2336903 115.22511
4977750000 -4.1630812 113.54199
4988937500 -4.0924826 111.66673
5000125000 -4.0449457 109.53661
5011312500 -4.019783 107.37598
5022500000 -3.9996932 105.08864
5033687500 -4.0179372 102.70479
5044875000 -4.0582738 100.36036
5056062500 -4.1289611 97.987625
5067250000 -4.2347436 95.822403
5078437500 -4.3392129 93.720551
5089625000 -4.4589968 91.742249
5100812500 -4.5825315 89.933632
5112000000 -4.7078466 88.13269
5123187500 -4.8396587 86.379692
5134375000 -5.003161 84.787773
5145562500 -5.1566758 83.637024
5156750000 -5.2735863 82.533806
5167937500 -5.3810759 81.616707
5179125000 -5.4427528 80.902672
5190312500 -5.4265494 80.135689
5201500000 -5.3870726 78.975899
5212687500 -5.3475518 77.763771
5223875000 -5.2657356 76.312355
5235062500 -5.1884847 74.369171
5246250000 -5.1558127 72.190742
5257437500 -5.1618075 69.943092
5268625000 -5.1700301 67.585335
5279812500 -5.237668 65.031059
5291000000 -5.3473816 62.51218
5302187500 -5.5220704 60.133968
5313375000 -5.7248702 58.08865
5324562500 -5.9493599 56.280796
5335750000 -6.2035189 54.805695
5346937500 -6.444746 53.97715
5358125000 -6.6166511 53.469334
5369312500 -6.7350969 53.024082
5380500000 -6.8162942 52.579304
5391687500 -6.8461843 52.183388
5402875000 -6.8306184 51.74192
5414062500 -6.739634 51.058052
5425250000 -6.6186714 49.872898
5436437500 -6.4930496 48.200996
5447625000 -6.4191642 46.00425
5458812500 -6.4016004 43.64941
5470000000 -6.447289 41.181873
5481187500 -6.5538092 38.956181
5492375000 -6.684413 36.877052
5503562500 -6.851048 35.000977
5514750000 -7.017848 33.548122
5525937500 -7.155705 32.436745
5537125000 -7.2387161 31.252644
5548312500 -7.2990365 29.876902
5559500000 -7.3921943 28.219307
5570687500 -7.5291419 26.769829
5581875000 -7.6638365 25.415384
5593062500 -7.8231349 24.298149
5604250000 -7.96631 23.605925
5615437500 -8.0596857 23.010199
5626625000 -8.1448307 22.353863
5637812500 -8.1683769 22.135929
5649000000 -8.1281271 21.629036
5660187500 -8.0226812 20.783161
5671375000 -7.9431548 19.314997
5682562500 -7.8829374 17.803946
5693750000 -7.8329153 16.025518
5704937500 -7.8149223 14.155867
5716125000 -7.8085251 12.112867
5727312500 -7.8441696 9.9428616
5738500000 -7.9240828 7.6880279
5749687500 -8.0625677 5.5796885
5760875000 -8.2158861 3.7574878
5772062500 -8.435009 1.8696026
5783250000 -8.7221346 0.89836735
5794437500 -8.9190769 0.61767519
5805625000 -9.0474787 0.44449255
5816812500 -9.0879555 0.50239652
5828000000 -9.0522261 0.14665763
5839187500 -8.9906759 -0.47341612
5850375000 -8.9278927 -1.4922726
5861562500 -8.8840399 -2.531023
5872750000 -8.8108788 -3.814115
5883937500 -8.763092 -5.3379569
5895125000 -8.7435169 -7.0288348
5906312500 -8.7473927 -8.6962948
5917500000 -8.7494802 -10.617726
5928687500 -8.8441296 -12.675323
5939875000 -8.9981451 -14.185466
5951062500 -9.1129313 -15.288228
5962250000 -9.2359953 -16.243748
5973437500 -9.3144188 -16.623789
5984625000 -9.2749939 -16.933996
5995812500 -9.1688662 -18.003305
6007000000 -9.1031322 -19.541599
6018187500 -9.0523729 -21.396564
6029375000 -9.0803442 -23.454639
6040562500 -9.1873274 -25.293383
6051750000 -9.3057842 -26.876654
6062937500 -9.4810886 -28.294678
6074125000 -9.6590824 -29.033741
6085312500 -9.7829256 -29.447344
6096500000 -9.8614368 -29.639383
6107687500 -9.8638878 -29.665417
6118875000 -9.7809067 -29.918697
6130062500 -9.6585531 -30.669493
6141250000 -9.5217886 -31.675642
6152437500 -9.401722 -33.280262
6163625000 -9.3260889 -34.940792
6174812500 -9.3056679 -36.705841
6186000000 -9.2704191 -38.413082
6197187500 -9.2592316 -40.319828
6208375000 -9.2806625 -42.244827
6219562500 -9.3525705 -44.127979
6230750000 -9.4656973 -45.947975
6241937500 -9.6310205 -47.159912
6253125000 -9.7436848 -47.973415
6264312500 -9.8023806 -48.640308
6275500000 -9.8432093 -49.619591
6286687500 -9.9005394 -50.186344
6297875000 -9.9009895 -50.944595
6309062500 -9.8902864 -51.77866
6320250000 -9.8418427 -52.893074
6331437500 -9.8517866 -53.973579
6342625000 -9.8351212 -55.129662
6353812500 -9.8389034 -56.264256
6365000000 -9.8426571 -57.33345
6376187500 -9.828105 -58.423923
6387375000 -9.8121052 -59.54063
6398562500 -9.8005133 -60.535381
6409750000 -9.7592573 -61.524303
6420937500 -9.7201109 -62.739044
6432125000 -9.6593552 -64.052101
6443312500 -9.6265278 -65.474365
6454500000 -9.5672436 -66.962036
6465687500 -9.5291042 -68.777298
6476875000 -9.5694809 -70.817337
6488062500 -9.6587353 -72.737701
6499250000 -9.8048792 -74.395248
6510437500 -9.9741507 -75.399246
6521625000 -10.098926 -76.089928
6532812500 -10.210258 -76.674492
6544000000 -10.293724 -76.945801
6555187500 -10.336028 -76.929146
6566375000 -10.297001 -76.775574
6577562500 -10.166767 -76.84668
6588750000 -9.985918 -77.325439
6599937500 -9.7733593 -78.393028
6611125000 -9.5924129 -80.033913
6622312500 -9.4410191 -81.822105
6633500000 -9.3184948 -84.069588
6644687500 -9.270175 -86.646614
6655875000 -9.308197 -89.224037
6667062500 -9.4274435 -91.759613
6678250000 -9.6559792 -93.607857
6689437500 -9.8612652 -94.681068
6700625000 -10.054917 -95.361801
6711812500 -10.190831 -95.63163
6723000000 -10.261458 -95.784119
6734187500 -10.283094 -95.80899
6745375000 -10.232276 -96.023224
6756562500 -10.198995 -96.465485
6767750000 -10.102302 -96.959076
6778937500 -10.00638 -97.846725
6790125000 -9.9408073 -98.828087
6801312500 -9.868433 -99.697777
6812500000 -9.7692308 -100.84158
6823687500 -9.6867456 -102.15266
6834875000 -9.6174908 -103.55344
6846062500 -9.5292339 -105.10741
6857250000 -9.5070381 -106.88103
6868437500 -9.5205708 -108.40002
6879625000 -9.531374 -109.96175
