!Keysight Technologies,N5222B,MY60213399,A.14.00.23
!Date: Monday, June 05, 2023 20:26:57
!Correction: S11(C  1-Port  ) 
!S1P File: Measurement: :
# Hz S  dB   R 50
100000000 -0.0038721957 -11.547767
111187500 -0.0065670554 -12.853251
122375000 -0.006782758 -14.115638
133562500 -0.0063091079 -15.41945
144750000 -0.0059505994 -16.701899
155937500 -0.0087276753 -17.993206
167125000 -0.010313039 -19.284475
178312500 -0.0099368161 -20.595034
189500000 -0.010667237 -21.880159
200687500 -0.011472269 -23.182514
211875000 -0.011127608 -24.507586
223062500 -0.012916614 -25.797213
234250000 -0.015167676 -27.119593
245437500 -0.017679034 -28.399582
256625000 -0.019137405 -29.70812
267812500 -0.017401192 -31.050488
279000000 -0.027664505 -32.333008
290187500 -0.032262664 -33.672031
301375000 -0.043032546 -34.986729
312562500 -0.06072497 -36.314739
323750000 -0.080151163 -37.469513
334937500 -0.08082334 -38.636009
346125000 -0.074110731 -39.924015
357312500 -0.069841869 -41.198208
368500000 -0.059946973 -42.457047
379687500 -0.054052506 -43.832531
390875000 -0.057492901 -45.204613
402062500 -0.064371109 -46.544674
413250000 -0.069463082 -47.875931
424437500 -0.080450192 -49.182781
435625000 -0.084007896 -50.494774
446812500 -0.08806961 -51.789009
458000000 -0.099064231 -53.101101
469187500 -0.11138341 -54.428242
480375000 -0.13806455 -55.703354
491562500 -0.15986268 -56.856003
502750000 -0.17147675 -58.039219
513937500 -0.16883695 -59.18372
525125000 -0.16746518 -60.370014
536312500 -0.17153007 -61.60112
547500000 -0.16550757 -62.843983
558687500 -0.15240967 -64.058006
569875000 -0.14357333 -65.341888
581062500 -0.14369749 -66.675575
592250000 -0.14611429 -68.025711
603437500 -0.15026857 -69.339798
614625000 -0.15724738 -70.68573
625812500 -0.16984573 -71.929527
637000000 -0.17511955 -73.186989
648187500 -0.17427741 -74.540108
659375000 -0.17889488 -75.869949
670562500 -0.19195993 -77.127037
681750000 -0.18998775 -78.379318
692937500 -0.1944062 -79.597824
704125000 -0.19574019 -80.814209
715312500 -0.19194317 -82.063103
726500000 -0.18494436 -83.319244
737687500 -0.17702001 -84.597359
748875000 -0.16672216 -85.950775
760062500 -0.16280366 -87.265244
771250000 -0.16039152 -88.625107
782437500 -0.16381831 -90.009331
793625000 -0.16508675 -91.353264
804812500 -0.16703528 -92.686272
816000000 -0.17500286 -94.052887
827187500 -0.18063967 -95.431633
838375000 -0.19065955 -96.808159
849562500 -0.20358269 -98.201805
860750000 -0.22892159 -99.542641
871937500 -0.23851594 -100.82146
883125000 -0.259803 -102.07339
894312500 -0.27039227 -103.33044
905500000 -0.28007546 -104.61031
916687500 -0.27984297 -105.93845
927875000 -0.28312692 -107.1769
939062500 -0.29434112 -108.42963
950250000 -0.29638982 -109.6681
961437500 -0.29713845 -111.02303
972625000 -0.28197989 -112.29825
983812500 -0.28156418 -113.6562
995000000 -0.28885254 -115.11296
1006187500 -0.29611796 -116.49251
1017375000 -0.31223717 -117.8614
1028562500 -0.3245014 -119.31356
1039750000 -0.34680843 -120.74018
1050937500 -0.36941749 -122.20423
1062125000 -0.39232534 -123.5499
1073312500 -0.42370021 -124.9944
1084500000 -0.45344299 -126.3829
1095687500 -0.49813038 -127.77383
1106875000 -0.55007088 -129.05548
1118062500 -0.59813964 -130.29352
1129250000 -0.64865571 -131.37556
1140437500 -0.69521457 -132.37285
1151625000 -0.7077778 -133.35876
1162812500 -0.70558769 -134.39333
1174000000 -0.68675476 -135.46733
1185187500 -0.67146665 -136.67293
1196375000 -0.67279267 -138.02745
1207562500 -0.67357188 -139.32875
1218750000 -0.6767087 -140.62967
1229937500 -0.67984712 -141.95921
1241125000 -0.69445395 -143.34966
1252312500 -0.71159285 -144.76471
1263500000 -0.74460399 -146.18849
1274687500 -0.79630226 -147.52713
1285875000 -0.84556156 -148.74397
1297062500 -0.88048339 -149.86584
1308250000 -0.90537971 -150.95189
1319437500 -0.92918766 -152.06346
1330625000 -0.95121288 -153.14735
1341812500 -0.97097754 -154.26474
1353000000 -0.98474389 -155.24721
1364187500 -0.97685301 -156.34506
1375375000 -0.98349285 -157.47842
1386562500 -0.98232883 -158.50755
1397750000 -0.96707433 -159.70154
1408937500 -0.9823392 -160.92181
1420125000 -0.97730976 -162.02533
1431312500 -0.97132486 -163.1904
1442500000 -0.96934146 -164.27513
1453687500 -0.95589924 -165.48697
1464875000 -0.94210196 -166.71989
1476062500 -0.93325943 -168.04146
1487250000 -0.9310075 -169.38605
1498437500 -0.93144375 -170.71529
1509625000 -0.94393009 -172.04938
1520812500 -0.94484806 -173.29359
1532000000 -0.96215361 -174.57874
1543187500 -0.96785158 -175.77773
1554375000 -0.96965343 -177.06026
1565562500 -0.9798969 -178.22655
1576750000 -0.97900528 -179.45282
1587937500 -0.9876458 179.29594
1599125000 -0.9940874 178.13312
1610312500 -1.0006768 176.90891
1621500000 -1.0206221 175.7894
1632687500 -1.0313008 174.70096
1643875000 -1.0216688 173.5618
1655062500 -1.0275981 172.42
1666250000 -1.012943 171.24988
1677437500 -0.9947142 170.1395
1688625000 -0.97640443 168.89954
1699812500 -0.96416318 167.59908
1711000000 -0.95718622 166.34433
1722187500 -0.9386127 165.03531
1733375000 -0.92120653 163.73462
1744562500 -0.90977746 162.37285
1755750000 -0.90487725 161.05167
1766937500 -0.90038735 159.76552
1778125000 -0.88953161 158.47107
1789312500 -0.88688344 157.13477
1800500000 -0.8766166 155.8685
1811687500 -0.87011278 154.60883
1822875000 -0.85542256 153.32317
1834062500 -0.85116863 152.02997
1845250000 -0.83998215 150.71693
1856437500 -0.83495855 149.3544
1867625000 -0.82990009 148.04123
1878812500 -0.83104402 146.73613
1890000000 -0.82442051 145.3474
1901187500 -0.82195091 144.01976
1912375000 -0.81440568 142.66972
1923562500 -0.811948 141.24574
1934750000 -0.817904 139.82889
1945937500 -0.81943679 138.43462
1957125000 -0.81814182 137.07063
1968312500 -0.82027251 135.64493
1979500000 -0.82401931 134.2363
1990687500 -0.83777523 132.85133
2001875000 -0.84566975 131.50105
2013062500 -0.84780359 130.1667
2024250000 -0.86347526 128.79039
2035437500 -0.86487734 127.45192
2046625000 -0.87261337 126.10434
2057812500 -0.89183748 124.78751
2069000000 -0.89727581 123.4577
2080187500 -0.91589957 122.1096
2091375000 -0.92859262 120.7576
2102562500 -0.95608342 119.50374
2113750000 -0.96548337 118.25224
2124937500 -0.97807622 116.9129
2136125000 -1.0013648 115.60411
2147312500 -1.0210193 114.35466
2158500000 -1.0382944 113.09398
2169687500 -1.0442815 111.84331
2180875000 -1.0581996 110.56752
2192062500 -1.0587745 109.33503
2203250000 -1.0662981 108.08665
2214437500 -1.0653688 106.82572
2225625000 -1.0658442 105.593
2236812500 -1.0697325 104.31764
2248000000 -1.0771848 103.07403
2259187500 -1.074788 101.87843
2270375000 -1.0757576 100.62923
2281562500 -1.0795556 99.375397
2292750000 -1.089035 98.172272
2303937500 -1.094867 96.975349
2315125000 -1.0906299 95.82225
2326312500 -1.0944207 94.647339
2337500000 -1.0844228 93.48732
2348687500 -1.0709336 92.378288
2359875000 -1.0493661 91.153992
2371062500 -1.0255286 89.94165
2382250000 -0.98809785 88.637527
2393437500 -0.95541823 87.332092
2404625000 -0.92498928 85.942543
2415812500 -0.89878428 84.545517
2427000000 -0.87456834 83.105179
2438187500 -0.84611261 81.657677
2449375000 -0.82570922 80.198563
2460562500 -0.80541372 78.743668
2471750000 -0.79110467 77.246338
2482937500 -0.78275156 75.767464
2494125000 -0.77735251 74.308655
2505312500 -0.77198124 72.855637
2516500000 -0.76390398 71.4617
2527687500 -0.76039737 70.007385
2538875000 -0.75963229 68.567406
2550062500 -0.75931042 67.13269
2561250000 -0.76248908 65.675125
2572437500 -0.76471728 64.209305
2583625000 -0.77495259 62.776447
2594812500 -0.77604067 61.361935
2606000000 -0.77676278 59.920204
2617187500 -0.77893549 58.477581
2628375000 -0.78190261 57.032955
2639562500 -0.78632408 55.596409
2650750000 -0.78576875 54.202095
2661937500 -0.78926581 52.811543
2673125000 -0.7883687 51.409153
2684312500 -0.78680468 49.999847
2695500000 -0.78379416 48.639019
2706687500 -0.78509724 47.214413
2717875000 -0.7828055 45.8536
2729062500 -0.78115451 44.439278
2740250000 -0.7797851 43.069382
2751437500 -0.77625203 41.700321
2762625000 -0.77523971 40.27169
2773812500 -0.76309973 38.855343
2785000000 -0.76336724 37.42979
2796187500 -0.75217628 35.983257
2807375000 -0.75390315 34.467136
2818562500 -0.7501151 33.028561
2829750000 -0.75202793 31.57766
2840937500 -0.74329245 30.116135
2852125000 -0.7402764 28.592428
2863312500 -0.73772901 27.098736
2874500000 -0.74005997 25.613792
2885687500 -0.7325964 24.132271
2896875000 -0.73034966 22.628269
2908062500 -0.7265169 21.159838
2919250000 -0.72370785 19.690683
2930437500 -0.72166348 18.203985
2941625000 -0.7233085 16.695938
2952812500 -0.72437757 15.21389
2964000000 -0.72061211 13.738224
2975187500 -0.71807963 12.237827
2986375000 -0.71986717 10.720024
2997562500 -0.72172487 9.2088003
3008750000 -0.71856707 7.6634912
3019937500 -0.72406507 6.1242723
3031125000 -0.72345865 4.5890436
3042312500 -0.73052305 3.0081484
3053500000 -0.73021311 1.4558783
3064687500 -0.73406506 -0.095455922
3075875000 -0.73624134 -1.7306575
3087062500 -0.75030673 -3.3317816
3098250000 -0.76130658 -4.8811388
3109437500 -0.77283198 -6.4652185
3120625000 -0.7814182 -8.000145
3131812500 -0.79731578 -9.5322065
3143000000 -0.80347067 -11.100597
3154187500 -0.81673449 -12.647783
3165375000 -0.8328687 -14.172425
3176562500 -0.8514294 -15.76691
3187750000 -0.86763948 -17.338375
3198937500 -0.8971892 -18.901747
3210125000 -0.92561072 -20.458759
3221312500 -0.95166659 -21.97637
3232500000 -0.98171514 -23.426262
3243687500 -1.0087309 -24.938038
3254875000 -1.0282853 -26.397749
3266062500 -1.0493383 -27.871294
3277250000 -1.0597106 -29.375055
3288437500 -1.0737716 -30.849619
3299625000 -1.0895712 -32.351254
3310812500 -1.1009197 -33.869251
3322000000 -1.1198299 -35.390717
3333187500 -1.1396176 -36.880203
3344375000 -1.1607982 -38.396099
3355562500 -1.1795225 -39.941277
3366750000 -1.207963 -41.467567
3377937500 -1.2436169 -42.931213
3389125000 -1.2764162 -44.339935
3400312500 -1.298504 -45.769001
3411500000 -1.3233191 -47.185463
3422687500 -1.342261 -48.593559
3433875000 -1.3615192 -50.045193
3445062500 -1.3899916 -51.520485
3456250000 -1.41495 -52.883503
3467437500 -1.4401839 -54.289597
3478625000 -1.467489 -55.627438
3489812500 -1.4762465 -56.887341
3501000000 -1.4696678 -58.298222
3512187500 -1.4805998 -59.747074
3523375000 -1.4914469 -61.127693
3534562500 -1.4965798 -62.459888
3545750000 -1.4992452 -63.794857
3556937500 -1.4858226 -65.158707
3568125000 -1.4666464 -66.594292
3579312500 -1.4535831 -68.106689
3590500000 -1.4476247 -69.666306
3601687500 -1.4412674 -71.164551
3612875000 -1.4398254 -72.774422
3624062500 -1.4428903 -74.315239
3635250000 -1.44938 -75.815964
3646437500 -1.4470993 -77.370705
3657625000 -1.4565883 -78.971031
3668812500 -1.4680324 -80.526321
3680000000 -1.4780375 -82.096672
3691187500 -1.4966872 -83.580048
3702375000 -1.5112705 -85.037895
3713562500 -1.5170916 -86.527748
3724750000 -1.5244408 -87.995148
3735937500 -1.5205889 -89.372101
3747125000 -1.5056806 -90.876846
3758312500 -1.5003241 -92.432587
3769500000 -1.4948932 -94.001007
3780687500 -1.479965 -95.547432
3791875000 -1.4706516 -97.236458
3803062500 -1.4698153 -98.827705
3814250000 -1.4562501 -100.50563
3825437500 -1.462819 -102.21866
3836625000 -1.4646519 -103.88258
3847812500 -1.4699434 -105.6243
3859000000 -1.4806008 -107.33905
3870187500 -1.5002513 -109.00543
3881375000 -1.5119154 -110.66732
3892562500 -1.5244143 -112.35889
3903750000 -1.5526086 -114.08672
3914937500 -1.579784 -115.71081
3926125000 -1.6096281 -117.28564
3937312500 -1.6196663 -118.88884
3948500000 -1.6369823 -120.55716
3959687500 -1.6573489 -122.1612
3970875000 -1.6773033 -123.80611
3982062500 -1.6950694 -125.43681
3993250000 -1.7158585 -127.11327
4004437500 -1.7423474 -128.76794
4015625000 -1.7560984 -130.29729
4026812500 -1.7640964 -131.98616
4038000000 -1.7841421 -133.68091
4049187500 -1.7994556 -135.39424
4060375000 -1.8220596 -137.09718
4071562500 -1.8360201 -138.81288
4082750000 -1.855835 -140.52789
4093937500 -1.8895071 -142.25336
4105125000 -1.9167881 -144.01512
4116312500 -1.9472797 -145.79848
4127500000 -1.9896833 -147.58406
4138687500 -2.0425594 -149.26233
4149875000 -2.0749667 -150.95805
4161062500 -2.1254237 -152.66327
4172250000 -2.1817966 -154.39792
4183437500 -2.2329886 -156.07091
4194625000 -2.2834198 -157.64722
4205812500 -2.3241386 -159.36719
4217000000 -2.3800342 -161.00998
4228187500 -2.4403634 -162.55569
4239375000 -2.4645181 -164.1881
4250562500 -2.5076163 -165.86053
4261750000 -2.5589507 -167.50946
4272937500 -2.5995901 -169.17206
4284125000 -2.6572366 -170.81706
4295312500 -2.6908982 -172.47624
4306500000 -2.7439151 -174.21918
4317687500 -2.8114471 -175.81444
4328875000 -2.856385 -177.39282
4340062500 -2.9106357 -179.01967
4351250000 -2.9508491 179.31223
4362437500 -3.0054154 177.56129
4373625000 -3.0643475 175.83563
4384812500 -3.1403809 174.04227
4396000000 -3.2239516 172.42209
4407187500 -3.289855 170.82614
4418375000 -3.3483469 169.09947
4429562500 -3.4468594 167.36525
4440750000 -3.5335228 165.8633
4451937500 -3.5984156 164.31619
4463125000 -3.6763184 162.52457
4474312500 -3.783597 160.9874
4485500000 -3.8616209 159.56569
4496687500 -3.9373069 157.89937
4507875000 -4.05371 156.41139
4519062500 -4.1288915 155.03789
4530250000 -4.2244711 153.43633
4541437500 -4.3195691 152.06516
4552625000 -4.4179745 150.72937
4563812500 -4.4816771 149.38963
4575000000 -4.5598049 147.86948
4586187500 -4.6494551 146.36041
4597375000 -4.7461405 144.8533
4608562500 -4.8393126 143.34372
4619750000 -4.9564943 141.8334
4630937500 -5.0710335 140.5974
4642125000 -5.1681027 139.29822
4653312500 -5.2514014 137.90776
4664500000 -5.3673558 136.43478
4675687500 -5.4814582 135.15186
4686875000 -5.5994515 133.9243
4698062500 -5.717433 132.6982
4709250000 -5.8392949 131.54167
4720437500 -5.9573255 130.53671
4731625000 -6.0482607 129.6342
4742812500 -6.107841 128.55937
4754000000 -6.2099757 127.25991
4765187500 -6.3262024 126.369
4776375000 -6.3830619 125.53721
4787562500 -6.4757862 124.41762
4798750000 -6.5370364 123.568
4809937500 -6.5999408 122.51527
4821125000 -6.6622672 121.5602
4832312500 -6.7363329 120.72107
4843500000 -6.7665515 119.93263
4854687500 -6.7666211 119.04491
4865875000 -6.7688856 117.65006
4877062500 -6.8255944 116.47205
4888250000 -6.8664465 115.32855
4899437500 -6.9129229 114.12111
4910625000 -6.9558392 112.91843
4921812500 -7.0239258 111.58172
4933000000 -7.1174941 110.53498
4944187500 -7.1906142 109.6715
4955375000 -7.2318592 108.84405
4966562500 -7.2591696 107.90721
4977750000 -7.2954226 106.91105
4988937500 -7.2908411 105.92487
5000125000 -7.3201885 104.78524
5011312500 -7.3335776 103.8289
5022500000 -7.3193235 102.69559
5033687500 -7.3311605 101.34603
5044875000 -7.3209581 100.1796
5056062500 -7.3142953 98.657806
5067250000 -7.3605986 97.153831
5078437500 -7.3837929 95.913651
5089625000 -7.3905711 94.496536
5100812500 -7.3906956 92.812241
5112000000 -7.4805942 91.028374
5123187500 -7.5586934 89.702087
5134375000 -7.6138549 88.313805
5145562500 -7.6700201 86.935623
5156750000 -7.7556696 85.516235
5167937500 -7.8289466 84.251045
5179125000 -7.852828 82.933243
5190312500 -7.9181762 81.22094
5201500000 -8.0138216 79.973717
5212687500 -8.0656595 78.708504
5223875000 -8.1037836 76.960373
5235062500 -8.2357883 75.364868
5246250000 -8.2897243 73.919701
5257437500 -8.4040871 72.162804
5268625000 -8.5492964 70.527489
5279812500 -8.7132435 69.290581
5291000000 -8.8384895 68.015907
5302187500 -8.9778233 66.555138
5313375000 -9.1269464 65.484406
5324562500 -9.276783 64.204781
5335750000 -9.3881626 63.238552
5346937500 -9.5760965 61.850445
5358125000 -9.7532873 61.007797
5369312500 -9.9133978 60.423077
5380500000 -10.032306 59.391712
5391687500 -10.211714 58.805332
5402875000 -10.313989 57.846306
5414062500 -10.521923 57.078606
5425250000 -10.695217 56.827126
5436437500 -10.844399 56.641773
5447625000 -10.902954 55.940678
5458812500 -11.079981 55.57008
5470000000 -11.173862 54.810612
5481187500 -11.396875 54.465683
5492375000 -11.587074 54.455475
5503562500 -11.698064 55.089012
5514750000 -11.799238 55.129417
5525937500 -11.803549 55.77586
5537125000 -11.827197 55.632126
5548312500 -11.819811 55.866909
5559500000 -11.82804 55.77309
5570687500 -11.761889 55.967037
5581875000 -11.765757 55.366879
5593062500 -11.806287 55.382462
5604250000 -11.781778 55.843269
5615437500 -11.750874 55.85231
5626625000 -11.657561 56.291866
5637812500 -11.559051 56.168434
5649000000 -11.512509 55.912476
5660187500 -11.437002 55.955235
5671375000 -11.336884 56.227184
5682562500 -11.19676 55.993736
5693750000 -11.004744 55.888336
5704937500 -10.880067 54.973934
5716125000 -10.71585 54.919613
5727312500 -10.565516 53.874249
5738500000 -10.385239 53.046223
5749687500 -10.267251 52.066292
5760875000 -10.123901 50.909904
5772062500 -10.008167 50.325272
5783250000 -9.8357601 49.026752
5794437500 -9.7219915 48.35112
5805625000 -9.5425997 47.365829
5816812500 -9.3823633 46.116863
5828000000 -9.2555265 45.138523
5839187500 -9.0792255 44.194057
5850375000 -8.8884001 42.928482
5861562500 -8.7348289 41.835468
5872750000 -8.5408659 40.045605
5883937500 -8.4383879 38.507484
5895125000 -8.3519049 36.915665
5906312500 -8.2447433 35.860771
5917500000 -8.0576525 34.446461
5928687500 -7.9101887 32.412994
5939875000 -7.8650589 30.720238
5951062500 -7.7519813 29.024755
5962250000 -7.6758261 27.431362
5973437500 -7.5664802 26.009325
5984625000 -7.4399571 24.302485
5995812500 -7.3305659 22.634624
6007000000 -7.2125688 20.984957
6018187500 -7.0466423 19.154495
6029375000 -6.9404111 17.02899
6040562500 -6.8300185 14.963971
6051750000 -6.7640281 12.939887
6062937500 -6.7050099 10.864718
6074125000 -6.6694736 9.0272913
6085312500 -6.6145473 7.3428869
6096500000 -6.5469189 5.5907207
6107687500 -6.4848237 3.6557415
6118875000 -6.4522076 1.87718
6130062500 -6.3966846 0.046951562
6141250000 -6.3449216 -1.7858602
6152437500 -6.282691 -3.6173742
6163625000 -6.2326598 -5.5970702
6174812500 -6.2001376 -7.5521026
6186000000 -6.140245 -9.5430231
6197187500 -6.1187377 -11.615305
6208375000 -6.1087394 -13.626274
6219562500 -6.0988431 -15.376793
6230750000 -6.0501633 -17.21088
6241937500 -6.0154748 -19.15542
6253125000 -6.0012317 -21.153421
6264312500 -5.9961481 -22.935024
6275500000 -5.9652858 -24.689791
6286687500 -5.9283953 -26.554193
6297875000 -5.9080091 -28.437817
6309062500 -5.8993678 -30.244024
6320250000 -5.8835106 -32.119312
6331437500 -5.8623624 -33.86655
6342625000 -5.8250175 -35.753307
6353812500 -5.798583 -37.716618
6365000000 -5.7907119 -39.666534
6376187500 -5.7850385 -41.708382
6387375000 -5.7898469 -43.719177
6398562500 -5.7913613 -45.621101
6409750000 -5.8033466 -47.657261
6420937500 -5.8116922 -49.557903
6432125000 -5.8239827 -51.505417
6443312500 -5.8457222 -53.487946
6454500000 -5.8780899 -55.373848
6465687500 -5.8960414 -57.3596
6476875000 -5.941011 -59.27747
6488062500 -5.9809194 -61.058353
6499250000 -6.0314169 -62.811604
6510437500 -6.0748172 -64.528152
6521625000 -6.1190238 -66.261276
6532812500 -6.1674185 -67.922066
6544000000 -6.1924357 -69.359695
6555187500 -6.1971359 -70.921036
6566375000 -6.2062254 -72.626129
6577562500 -6.2265606 -74.394691
6588750000 -6.2705302 -76.055962
6599937500 -6.2792358 -77.594795
6611125000 -6.3014016 -79.25769
6622312500 -6.3098702 -80.816063
6633500000 -6.3335557 -82.383202
6644687500 -6.3251185 -84.06739
6655875000 -6.3412075 -85.845909
6667062500 -6.3696709 -87.429253
6678250000 -6.3792453 -88.926559
6689437500 -6.3902187 -90.533279
6700625000 -6.3902664 -92.17881
6711812500 -6.3923554 -94.011169
6723000000 -6.4410591 -95.805664
6734187500 -6.4850512 -97.364273
6745375000 -6.4948506 -98.82132
6756562500 -6.5070205 -100.48386
6767750000 -6.5186019 -102.18799
6778937500 -6.5611238 -103.8878
6790125000 -6.5828443 -105.57915
6801312500 -6.6080794 -107.1497
6812500000 -6.6286998 -108.79755
6823687500 -6.6567788 -110.26083
6834875000 -6.6607518 -111.87961
6846062500 -6.6619778 -113.45138
6857250000 -6.6455574 -115.25896
6868437500 -6.6665158 -117.11776
6879625000 -6.6791058 -118.75562
