"# Channel 1"
"# Trace 1"
Frequency; Formatted Data; Formatted Data
+3,00000000000E+005; +1,38442432204E-001; +0,00000000000E+000
+9,02985000000E+007; +7,19082922971E-002; +0,00000000000E+000
+1,80297000000E+008; +6,95421184553E-002; +0,00000000000E+000
+2,70295500000E+008; -3,69424335665E-002; +0,00000000000E+000
+3,60294000000E+008; -7,76333128309E-002; +0,00000000000E+000
+4,50292500000E+008; -1,14727519531E-001; +0,00000000000E+000
+5,40291000000E+008; -1,55823358523E-001; +0,00000000000E+000
+6,30289500000E+008; -2,59822520794E-001; +0,00000000000E+000
+7,20288000000E+008; -3,74877981582E-001; +0,00000000000E+000
+8,10286500000E+008; -3,61795908176E-001; +0,00000000000E+000
+9,00285000000E+008; -4,27136560070E-001; +0,00000000000E+000
+9,90283500000E+008; -4,30934950793E-001; +0,00000000000E+000
+1,08028200000E+009; -4,91127640381E-001; +0,00000000000E+000
+1,17028050000E+009; -5,69144241597E-001; +0,00000000000E+000
+1,26027900000E+009; -6,49177856253E-001; +0,00000000000E+000
+1,35027750000E+009; -6,65026166071E-001; +0,00000000000E+000
+1,44027600000E+009; -6,86762637532E-001; +0,00000000000E+000
+1,53027450000E+009; -7,31935206297E-001; +0,00000000000E+000
+1,62027300000E+009; -8,02450009638E-001; +0,00000000000E+000
+1,71027150000E+009; -9,23209054768E-001; +0,00000000000E+000
+1,80027000000E+009; -1,07287822785E+000; +0,00000000000E+000
+1,89026850000E+009; -1,26235999492E+000; +0,00000000000E+000
+1,98026700000E+009; -1,45710164714E+000; +0,00000000000E+000
+2,07026550000E+009; -1,45888695879E+000; +0,00000000000E+000
+2,16026400000E+009; -1,47111444743E+000; +0,00000000000E+000
+2,25026250000E+009; -1,54862939971E+000; +0,00000000000E+000
+2,34026100000E+009; -1,63382897742E+000; +0,00000000000E+000
+2,43025950000E+009; -1,73638885141E+000; +0,00000000000E+000
+2,52025800000E+009; -1,69715771753E+000; +0,00000000000E+000
+2,61025650000E+009; -1,56273256478E+000; +0,00000000000E+000
+2,70025500000E+009; -1,35565579453E+000; +0,00000000000E+000
+2,79025350000E+009; -1,18824124506E+000; +0,00000000000E+000
+2,88025200000E+009; -1,01045911531E+000; +0,00000000000E+000
+2,97025050000E+009; -9,05716130850E-001; +0,00000000000E+000
+3,06024900000E+009; -9,57604070975E-001; +0,00000000000E+000
+3,15024750000E+009; -1,10239754895E+000; +0,00000000000E+000
+3,24024600000E+009; -1,27896753440E+000; +0,00000000000E+000
+3,33024450000E+009; -1,53219550133E+000; +0,00000000000E+000
+3,42024300000E+009; -1,89834281136E+000; +0,00000000000E+000
+3,51024150000E+009; -2,25138399592E+000; +0,00000000000E+000
+3,60024000000E+009; -2,64950332870E+000; +0,00000000000E+000
+3,69023850000E+009; -3,17631667718E+000; +0,00000000000E+000
+3,78023700000E+009; -3,95530469443E+000; +0,00000000000E+000
+3,87023550000E+009; -4,32449084158E+000; +0,00000000000E+000
+3,96023400000E+009; -4,99999046045E+000; +0,00000000000E+000
+4,05023250000E+009; -5,16174861336E+000; +0,00000000000E+000
+4,14023100000E+009; -5,46995593626E+000; +0,00000000000E+000
+4,23022950000E+009; -5,56437358302E+000; +0,00000000000E+000
+4,32022800000E+009; -5,25282038806E+000; +0,00000000000E+000
+4,41022650000E+009; -5,22659518625E+000; +0,00000000000E+000
+4,50022500000E+009; -5,02913778090E+000; +0,00000000000E+000
+4,59022350000E+009; -5,39343702451E+000; +0,00000000000E+000
+4,68022200000E+009; -5,60626670882E+000; +0,00000000000E+000
+4,77022050000E+009; -6,03278347267E+000; +0,00000000000E+000
+4,86021900000E+009; -6,78540294557E+000; +0,00000000000E+000
+4,95021750000E+009; -7,60428063599E+000; +0,00000000000E+000
+5,04021600000E+009; -8,19491062048E+000; +0,00000000000E+000
+5,13021450000E+009; -8,73938595629E+000; +0,00000000000E+000
+5,22021300000E+009; -9,15681605681E+000; +0,00000000000E+000
+5,31021150000E+009; -9,86370851569E+000; +0,00000000000E+000
+5,40021000000E+009; -9,59762427059E+000; +0,00000000000E+000
+5,49020850000E+009; -9,61261132433E+000; +0,00000000000E+000
+5,58020700000E+009; -9,75231913887E+000; +0,00000000000E+000
+5,67020550000E+009; -9,92726520978E+000; +0,00000000000E+000
+5,76020400000E+009; -9,62153968846E+000; +0,00000000000E+000
+5,85020250000E+009; -9,72029480134E+000; +0,00000000000E+000
+5,94020100000E+009; -1,00931096509E+001; +0,00000000000E+000
+6,03019950000E+009; -1,02823368794E+001; +0,00000000000E+000
+6,12019800000E+009; -1,14459610336E+001; +0,00000000000E+000
+6,21019650000E+009; -1,13443832361E+001; +0,00000000000E+000
+6,30019500000E+009; -1,23829541110E+001; +0,00000000000E+000
+6,39019350000E+009; -1,48091622034E+001; +0,00000000000E+000
+6,48019200000E+009; -1,58244956481E+001; +0,00000000000E+000
+6,57019050000E+009; -1,66837547011E+001; +0,00000000000E+000
+6,66018900000E+009; -1,80597074884E+001; +0,00000000000E+000
+6,75018750000E+009; -1,89504870992E+001; +0,00000000000E+000
+6,84018600000E+009; -1,72436434817E+001; +0,00000000000E+000
+6,93018450000E+009; -1,78636968899E+001; +0,00000000000E+000
+7,02018300000E+009; -2,12408600210E+001; +0,00000000000E+000
+7,11018150000E+009; -1,86429983178E+001; +0,00000000000E+000
+7,20018000000E+009; -1,78044863057E+001; +0,00000000000E+000
+7,29017850000E+009; -1,86260799650E+001; +0,00000000000E+000
+7,38017700000E+009; -1,88981990370E+001; +0,00000000000E+000
+7,47017550000E+009; -2,02271958329E+001; +0,00000000000E+000
+7,56017400000E+009; -1,69119080839E+001; +0,00000000000E+000
+7,65017250000E+009; -2,12890460282E+001; +0,00000000000E+000
+7,74017100000E+009; -1,59451033560E+001; +0,00000000000E+000
+7,83016950000E+009; -2,29014018076E+001; +0,00000000000E+000
+7,92016800000E+009; -1,61582164672E+001; +0,00000000000E+000
+8,01016650000E+009; -1,64106376266E+001; +0,00000000000E+000
+8,10016500000E+009; -1,60172871709E+001; +0,00000000000E+000
+8,19016350000E+009; -1,79079311125E+001; +0,00000000000E+000
+8,28016200000E+009; -1,65300482219E+001; +0,00000000000E+000
+8,37016050000E+009; -1,60805995533E+001; +0,00000000000E+000
+8,46015900000E+009; -1,43474488709E+001; +0,00000000000E+000
+8,55015750000E+009; -1,25061571758E+001; +0,00000000000E+000
+8,64015600000E+009; -1,16696446991E+001; +0,00000000000E+000
+8,73015450000E+009; -1,10432525570E+001; +0,00000000000E+000
+8,82015300000E+009; -9,93829575779E+000; +0,00000000000E+000
+8,91015150000E+009; -9,80503194310E+000; +0,00000000000E+000
+9,00015000000E+009; -9,76371897123E+000; +0,00000000000E+000
+9,09014850000E+009; -8,72895297407E+000; +0,00000000000E+000
+9,18014700000E+009; -8,22177502053E+000; +0,00000000000E+000
+9,27014550000E+009; -7,19553587555E+000; +0,00000000000E+000
+9,36014400000E+009; -7,12181954424E+000; +0,00000000000E+000
+9,45014250000E+009; -6,78824519796E+000; +0,00000000000E+000
+9,54014100000E+009; -6,81640361994E+000; +0,00000000000E+000
+9,63013950000E+009; -5,60786812227E+000; +0,00000000000E+000
+9,72013800000E+009; -5,80568444071E+000; +0,00000000000E+000
+9,81013650000E+009; -4,59237370000E+000; +0,00000000000E+000
+9,90013500000E+009; -4,31078052903E+000; +0,00000000000E+000
+9,99013350000E+009; -4,17594883467E+000; +0,00000000000E+000
+1,00801320000E+010; -3,70528364256E+000; +0,00000000000E+000
+1,01701305000E+010; -3,54950186201E+000; +0,00000000000E+000
+1,02601290000E+010; -3,75299178044E+000; +0,00000000000E+000
+1,03501275000E+010; -3,47073187677E+000; +0,00000000000E+000
+1,04401260000E+010; -3,98219722411E+000; +0,00000000000E+000
+1,05301245000E+010; -3,17833871153E+000; +0,00000000000E+000
+1,06201230000E+010; -2,71185064336E+000; +0,00000000000E+000
+1,07101215000E+010; -2,51370639417E+000; +0,00000000000E+000
+1,08001200000E+010; -2,23229347708E+000; +0,00000000000E+000
+1,08901185000E+010; -2,44106618079E+000; +0,00000000000E+000
+1,09801170000E+010; -2,40038734780E+000; +0,00000000000E+000
+1,10701155000E+010; -2,56485166398E+000; +0,00000000000E+000
+1,11601140000E+010; -3,07422602074E+000; +0,00000000000E+000
+1,12501125000E+010; -3,11964446942E+000; +0,00000000000E+000
+1,13401110000E+010; -2,64879285338E+000; +0,00000000000E+000
+1,14301095000E+010; -2,81414772146E+000; +0,00000000000E+000
+1,15201080000E+010; -2,53330789739E+000; +0,00000000000E+000
+1,16101065000E+010; -2,63076032135E+000; +0,00000000000E+000
+1,17001050000E+010; -2,83377422049E+000; +0,00000000000E+000
+1,17901035000E+010; -2,93189232138E+000; +0,00000000000E+000
+1,18801020000E+010; -2,91169810734E+000; +0,00000000000E+000
+1,19701005000E+010; -3,03552472726E+000; +0,00000000000E+000
+1,20600990000E+010; -3,03976906145E+000; +0,00000000000E+000
+1,21500975000E+010; -2,84990535845E+000; +0,00000000000E+000
+1,22400960000E+010; -2,69598626803E+000; +0,00000000000E+000
+1,23300945000E+010; -2,94930696935E+000; +0,00000000000E+000
+1,24200930000E+010; -2,79003995762E+000; +0,00000000000E+000
+1,25100915000E+010; -2,94933564753E+000; +0,00000000000E+000
+1,26000900000E+010; -2,77902900709E+000; +0,00000000000E+000
+1,26900885000E+010; -3,00499269639E+000; +0,00000000000E+000
+1,27800870000E+010; -3,18031263802E+000; +0,00000000000E+000
+1,28700855000E+010; -3,39773701068E+000; +0,00000000000E+000
+1,29600840000E+010; -3,58528411250E+000; +0,00000000000E+000
+1,30500825000E+010; -3,60870634179E+000; +0,00000000000E+000
+1,31400810000E+010; -3,50502873354E+000; +0,00000000000E+000
+1,32300795000E+010; -3,26451878189E+000; +0,00000000000E+000
+1,33200780000E+010; -3,29990315507E+000; +0,00000000000E+000
+1,34100765000E+010; -3,51452369238E+000; +0,00000000000E+000
+1,35000750000E+010; -3,78080292420E+000; +0,00000000000E+000
+1,35900735000E+010; -4,56716219205E+000; +0,00000000000E+000
+1,36800720000E+010; -4,66238509055E+000; +0,00000000000E+000
+1,37700705000E+010; -4,28804598780E+000; +0,00000000000E+000
+1,38600690000E+010; -4,15318477711E+000; +0,00000000000E+000
+1,39500675000E+010; -4,41712380054E+000; +0,00000000000E+000
+1,40400660000E+010; -4,60247710803E+000; +0,00000000000E+000
+1,41300645000E+010; -5,02098207274E+000; +0,00000000000E+000
+1,42200630000E+010; -5,22100877439E+000; +0,00000000000E+000
+1,43100615000E+010; -7,18781600335E+000; +0,00000000000E+000
+1,44000600000E+010; -7,32902214951E+000; +0,00000000000E+000
+1,44900585000E+010; -7,45644585397E+000; +0,00000000000E+000
+1,45800570000E+010; -7,51357947248E+000; +0,00000000000E+000
+1,46700555000E+010; -6,67243501398E+000; +0,00000000000E+000
+1,47600540000E+010; -7,30378428335E+000; +0,00000000000E+000
+1,48500525000E+010; -6,34857757290E+000; +0,00000000000E+000
+1,49400510000E+010; -8,35053321535E+000; +0,00000000000E+000
+1,50300495000E+010; -9,37205511186E+000; +0,00000000000E+000
+1,51200480000E+010; -9,75752589043E+000; +0,00000000000E+000
+1,52100465000E+010; -1,00163031327E+001; +0,00000000000E+000
+1,53000450000E+010; -9,41488424364E+000; +0,00000000000E+000
+1,53900435000E+010; -9,59526349458E+000; +0,00000000000E+000
+1,54800420000E+010; -6,28977333542E+000; +0,00000000000E+000
+1,55700405000E+010; -6,94602673891E+000; +0,00000000000E+000
+1,56600390000E+010; -8,34712635512E+000; +0,00000000000E+000
+1,57500375000E+010; -8,64206255651E+000; +0,00000000000E+000
+1,58400360000E+010; -9,35869834652E+000; +0,00000000000E+000
+1,59300345000E+010; -8,95786759948E+000; +0,00000000000E+000
+1,60200330000E+010; -8,74025791129E+000; +0,00000000000E+000
+1,61100315000E+010; -8,04543994332E+000; +0,00000000000E+000
+1,62000300000E+010; -8,69787682765E+000; +0,00000000000E+000
+1,62900285000E+010; -8,46762376701E+000; +0,00000000000E+000
+1,63800270000E+010; -1,01180815575E+001; +0,00000000000E+000
+1,64700255000E+010; -8,61350371780E+000; +0,00000000000E+000
+1,65600240000E+010; -8,52133823511E+000; +0,00000000000E+000
+1,66500225000E+010; -6,63163923298E+000; +0,00000000000E+000
+1,67400210000E+010; -6,20434923906E+000; +0,00000000000E+000
+1,68300195000E+010; -6,09154126201E+000; +0,00000000000E+000
+1,69200180000E+010; -5,55309501824E+000; +0,00000000000E+000
+1,70100165000E+010; -6,24029234400E+000; +0,00000000000E+000
+1,71000150000E+010; -6,27169934825E+000; +0,00000000000E+000
+1,71900135000E+010; -5,73395477610E+000; +0,00000000000E+000
+1,72800120000E+010; -4,97466587125E+000; +0,00000000000E+000
+1,73700105000E+010; -4,75452033899E+000; +0,00000000000E+000
+1,74600090000E+010; -5,45886570218E+000; +0,00000000000E+000
+1,75500075000E+010; -5,82673368543E+000; +0,00000000000E+000
+1,76400060000E+010; -6,16184277676E+000; +0,00000000000E+000
+1,77300045000E+010; -6,81334360896E+000; +0,00000000000E+000
+1,78200030000E+010; -5,40508134871E+000; +0,00000000000E+000
+1,79100015000E+010; -4,74074740017E+000; +0,00000000000E+000
+1,80000000000E+010; -4,00122364922E+000; +0,00000000000E+000
