"# Channel 1"
"# Trace 1"
Frequency; Formatted Data; Formatted Data
+3,00000000000E+005; +1,07120708359E-001; +0,00000000000E+000
+9,02985000000E+007; +7,03616924162E-002; +0,00000000000E+000
+1,80297000000E+008; +8,50508181078E-003; +0,00000000000E+000
+2,70295500000E+008; -1,27933529867E-001; +0,00000000000E+000
+3,60294000000E+008; -3,22536802131E-001; +0,00000000000E+000
+4,50292500000E+008; -5,99531488750E-001; +0,00000000000E+000
+5,40291000000E+008; -5,86907423237E-001; +0,00000000000E+000
+6,30289500000E+008; -5,73214741603E-001; +0,00000000000E+000
+7,20288000000E+008; -7,02679301497E-001; +0,00000000000E+000
+8,10286500000E+008; -5,82068299382E-001; +0,00000000000E+000
+9,00285000000E+008; -6,72847596811E-001; +0,00000000000E+000
+9,90283500000E+008; -7,99306568037E-001; +0,00000000000E+000
+1,08028200000E+009; -1,05025631413E+000; +0,00000000000E+000
+1,17028050000E+009; -1,53487422883E+000; +0,00000000000E+000
+1,26027900000E+009; -2,14106665210E+000; +0,00000000000E+000
+1,35027750000E+009; -2,42003419656E+000; +0,00000000000E+000
+1,44027600000E+009; -2,47545204042E+000; +0,00000000000E+000
+1,53027450000E+009; -2,46084782900E+000; +0,00000000000E+000
+1,62027300000E+009; -2,56004987755E+000; +0,00000000000E+000
+1,71027150000E+009; -2,44343357442E+000; +0,00000000000E+000
+1,80027000000E+009; -2,30528232518E+000; +0,00000000000E+000
+1,89026850000E+009; -2,16453474886E+000; +0,00000000000E+000
+1,98026700000E+009; -2,04303796705E+000; +0,00000000000E+000
+2,07026550000E+009; -2,30145645390E+000; +0,00000000000E+000
+2,16026400000E+009; -2,93214201511E+000; +0,00000000000E+000
+2,25026250000E+009; -3,84872040004E+000; +0,00000000000E+000
+2,34026100000E+009; -5,15063931729E+000; +0,00000000000E+000
+2,43025950000E+009; -6,69567010761E+000; +0,00000000000E+000
+2,52025800000E+009; -8,12638439382E+000; +0,00000000000E+000
+2,61025650000E+009; -8,38777228288E+000; +0,00000000000E+000
+2,70025500000E+009; -8,24650101821E+000; +0,00000000000E+000
+2,79025350000E+009; -7,69186328529E+000; +0,00000000000E+000
+2,88025200000E+009; -8,25767105295E+000; +0,00000000000E+000
+2,97025050000E+009; -9,73291424353E+000; +0,00000000000E+000
+3,06024900000E+009; -1,12643138642E+001; +0,00000000000E+000
+3,15024750000E+009; -1,21248211571E+001; +0,00000000000E+000
+3,24024600000E+009; -1,35651242073E+001; +0,00000000000E+000
+3,33024450000E+009; -1,32522304055E+001; +0,00000000000E+000
+3,42024300000E+009; -1,31395908084E+001; +0,00000000000E+000
+3,51024150000E+009; -1,36223437484E+001; +0,00000000000E+000
+3,60024000000E+009; -1,31114054184E+001; +0,00000000000E+000
+3,69023850000E+009; -1,25008951390E+001; +0,00000000000E+000
+3,78023700000E+009; -1,16532869830E+001; +0,00000000000E+000
+3,87023550000E+009; -1,21371547607E+001; +0,00000000000E+000
+3,96023400000E+009; -1,22868302762E+001; +0,00000000000E+000
+4,05023250000E+009; -1,18982208348E+001; +0,00000000000E+000
+4,14023100000E+009; -1,11491242462E+001; +0,00000000000E+000
+4,23022950000E+009; -1,08640870301E+001; +0,00000000000E+000
+4,32022800000E+009; -1,06747810594E+001; +0,00000000000E+000
+4,41022650000E+009; -9,83081818323E+000; +0,00000000000E+000
+4,50022500000E+009; -9,57799077057E+000; +0,00000000000E+000
+4,59022350000E+009; -1,05421138052E+001; +0,00000000000E+000
+4,68022200000E+009; -1,04502637049E+001; +0,00000000000E+000
+4,77022050000E+009; -1,06737760091E+001; +0,00000000000E+000
+4,86021900000E+009; -1,13776320128E+001; +0,00000000000E+000
+4,95021750000E+009; -1,13128224829E+001; +0,00000000000E+000
+5,04021600000E+009; -1,16092455243E+001; +0,00000000000E+000
+5,13021450000E+009; -1,20722302526E+001; +0,00000000000E+000
+5,22021300000E+009; -1,14677616578E+001; +0,00000000000E+000
+5,31021150000E+009; -1,22119342979E+001; +0,00000000000E+000
+5,40021000000E+009; -1,25548492598E+001; +0,00000000000E+000
+5,49020850000E+009; -1,25129153586E+001; +0,00000000000E+000
+5,58020700000E+009; -1,23573749019E+001; +0,00000000000E+000
+5,67020550000E+009; -1,28716936480E+001; +0,00000000000E+000
+5,76020400000E+009; -1,34976353337E+001; +0,00000000000E+000
+5,85020250000E+009; -1,41024427555E+001; +0,00000000000E+000
+5,94020100000E+009; -1,35002472555E+001; +0,00000000000E+000
+6,03019950000E+009; -1,40465948747E+001; +0,00000000000E+000
+6,12019800000E+009; -1,39291987257E+001; +0,00000000000E+000
+6,21019650000E+009; -1,40896891586E+001; +0,00000000000E+000
+6,30019500000E+009; -1,50725314769E+001; +0,00000000000E+000
+6,39019350000E+009; -1,52430123822E+001; +0,00000000000E+000
+6,48019200000E+009; -1,46856830536E+001; +0,00000000000E+000
+6,57019050000E+009; -1,46533934826E+001; +0,00000000000E+000
+6,66018900000E+009; -1,39566210472E+001; +0,00000000000E+000
+6,75018750000E+009; -1,39946117367E+001; +0,00000000000E+000
+6,84018600000E+009; -1,26876888978E+001; +0,00000000000E+000
+6,93018450000E+009; -1,18574622807E+001; +0,00000000000E+000
+7,02018300000E+009; -1,26863183936E+001; +0,00000000000E+000
+7,11018150000E+009; -1,23762022654E+001; +0,00000000000E+000
+7,20018000000E+009; -1,22439828052E+001; +0,00000000000E+000
+7,29017850000E+009; -1,44579808573E+001; +0,00000000000E+000
+7,38017700000E+009; -1,38299060699E+001; +0,00000000000E+000
+7,47017550000E+009; -1,44041645214E+001; +0,00000000000E+000
+7,56017400000E+009; -1,69771965951E+001; +0,00000000000E+000
+7,65017250000E+009; -1,26403631747E+001; +0,00000000000E+000
+7,74017100000E+009; -1,11036256700E+001; +0,00000000000E+000
+7,83016950000E+009; -1,20712431302E+001; +0,00000000000E+000
+7,92016800000E+009; -1,41908818165E+001; +0,00000000000E+000
+8,01016650000E+009; -1,57540537546E+001; +0,00000000000E+000
+8,10016500000E+009; -1,78166362702E+001; +0,00000000000E+000
+8,19016350000E+009; -1,62357242320E+001; +0,00000000000E+000
+8,28016200000E+009; -1,71009422148E+001; +0,00000000000E+000
+8,37016050000E+009; -1,58872331827E+001; +0,00000000000E+000
+8,46015900000E+009; -1,60019408301E+001; +0,00000000000E+000
+8,55015750000E+009; -1,57197264886E+001; +0,00000000000E+000
+8,64015600000E+009; -1,33273352295E+001; +0,00000000000E+000
+8,73015450000E+009; -1,46308607842E+001; +0,00000000000E+000
+8,82015300000E+009; -1,32941276772E+001; +0,00000000000E+000
+8,91015150000E+009; -1,37394550330E+001; +0,00000000000E+000
+9,00015000000E+009; -1,36090673189E+001; +0,00000000000E+000
+9,09014850000E+009; -1,30318728774E+001; +0,00000000000E+000
+9,18014700000E+009; -1,14269986967E+001; +0,00000000000E+000
+9,27014550000E+009; -1,13371896933E+001; +0,00000000000E+000
+9,36014400000E+009; -1,09294377609E+001; +0,00000000000E+000
+9,45014250000E+009; -1,11844439069E+001; +0,00000000000E+000
+9,54014100000E+009; -1,09351852262E+001; +0,00000000000E+000
+9,63013950000E+009; -1,01276984534E+001; +0,00000000000E+000
+9,72013800000E+009; -1,10568878762E+001; +0,00000000000E+000
+9,81013650000E+009; -1,00880408880E+001; +0,00000000000E+000
+9,90013500000E+009; -1,00946879272E+001; +0,00000000000E+000
+9,99013350000E+009; -1,01762974116E+001; +0,00000000000E+000
+1,00801320000E+010; -9,47221836545E+000; +0,00000000000E+000
+1,01701305000E+010; -1,03803462534E+001; +0,00000000000E+000
+1,02601290000E+010; -1,06386306688E+001; +0,00000000000E+000
+1,03501275000E+010; -1,09988805192E+001; +0,00000000000E+000
+1,04401260000E+010; -9,66714592520E+000; +0,00000000000E+000
+1,05301245000E+010; -1,08755739777E+001; +0,00000000000E+000
+1,06201230000E+010; -1,18811832898E+001; +0,00000000000E+000
+1,07101215000E+010; -1,22165407067E+001; +0,00000000000E+000
+1,08001200000E+010; -1,32960388110E+001; +0,00000000000E+000
+1,08901185000E+010; -1,13623691023E+001; +0,00000000000E+000
+1,09801170000E+010; -1,10205771381E+001; +0,00000000000E+000
+1,10701155000E+010; -1,01434455468E+001; +0,00000000000E+000
+1,11601140000E+010; -9,63250059156E+000; +0,00000000000E+000
+1,12501125000E+010; -9,19737168920E+000; +0,00000000000E+000
+1,13401110000E+010; -1,04562796513E+001; +0,00000000000E+000
+1,14301095000E+010; -9,58153136847E+000; +0,00000000000E+000
+1,15201080000E+010; -9,20578336038E+000; +0,00000000000E+000
+1,16101065000E+010; -8,86739880631E+000; +0,00000000000E+000
+1,17001050000E+010; -8,38210298436E+000; +0,00000000000E+000
+1,17901035000E+010; -8,33833094937E+000; +0,00000000000E+000
+1,18801020000E+010; -9,28580857162E+000; +0,00000000000E+000
+1,19701005000E+010; -8,53941575999E+000; +0,00000000000E+000
+1,20600990000E+010; -9,25544972560E+000; +0,00000000000E+000
+1,21500975000E+010; -1,03529116248E+001; +0,00000000000E+000
+1,22400960000E+010; -1,15977517967E+001; +0,00000000000E+000
+1,23300945000E+010; -1,07885107171E+001; +0,00000000000E+000
+1,24200930000E+010; -1,27369749552E+001; +0,00000000000E+000
+1,25100915000E+010; -1,26135730101E+001; +0,00000000000E+000
+1,26000900000E+010; -1,42401174879E+001; +0,00000000000E+000
+1,26900885000E+010; -1,55218694457E+001; +0,00000000000E+000
+1,27800870000E+010; -1,59001715171E+001; +0,00000000000E+000
+1,28700855000E+010; -1,54526101474E+001; +0,00000000000E+000
+1,29600840000E+010; -1,67262216507E+001; +0,00000000000E+000
+1,30500825000E+010; -1,83693195500E+001; +0,00000000000E+000
+1,31400810000E+010; -2,05075066453E+001; +0,00000000000E+000
+1,32300795000E+010; -2,14629301511E+001; +0,00000000000E+000
+1,33200780000E+010; -2,14539446775E+001; +0,00000000000E+000
+1,34100765000E+010; -1,90032330065E+001; +0,00000000000E+000
+1,35000750000E+010; -1,77502310138E+001; +0,00000000000E+000
+1,35900735000E+010; -1,54641053485E+001; +0,00000000000E+000
+1,36800720000E+010; -1,37546248499E+001; +0,00000000000E+000
+1,37700705000E+010; -1,30004590149E+001; +0,00000000000E+000
+1,38600690000E+010; -1,26287685237E+001; +0,00000000000E+000
+1,39500675000E+010; -1,29941874309E+001; +0,00000000000E+000
+1,40400660000E+010; -1,30892283386E+001; +0,00000000000E+000
+1,41300645000E+010; -1,28089931007E+001; +0,00000000000E+000
+1,42200630000E+010; -1,25678949454E+001; +0,00000000000E+000
+1,43100615000E+010; -9,48955345387E+000; +0,00000000000E+000
+1,44000600000E+010; -1,00639063103E+001; +0,00000000000E+000
+1,44900585000E+010; -9,76663421019E+000; +0,00000000000E+000
+1,45800570000E+010; -9,67090226871E+000; +0,00000000000E+000
+1,46700555000E+010; -1,06902640252E+001; +0,00000000000E+000
+1,47600540000E+010; -9,58926968574E+000; +0,00000000000E+000
+1,48500525000E+010; -9,76138855902E+000; +0,00000000000E+000
+1,49400510000E+010; -8,40935507832E+000; +0,00000000000E+000
+1,50300495000E+010; -9,23048271927E+000; +0,00000000000E+000
+1,51200480000E+010; -1,00413391603E+001; +0,00000000000E+000
+1,52100465000E+010; -1,05234539020E+001; +0,00000000000E+000
+1,53000450000E+010; -1,28808237804E+001; +0,00000000000E+000
+1,53900435000E+010; -1,09903309199E+001; +0,00000000000E+000
+1,54800420000E+010; -8,71048073477E+000; +0,00000000000E+000
+1,55700405000E+010; -1,20008255745E+001; +0,00000000000E+000
+1,56600390000E+010; -1,01525938623E+001; +0,00000000000E+000
+1,57500375000E+010; -9,72267846053E+000; +0,00000000000E+000
+1,58400360000E+010; -9,59348019509E+000; +0,00000000000E+000
+1,59300345000E+010; -1,04028926715E+001; +0,00000000000E+000
+1,60200330000E+010; -1,04097620896E+001; +0,00000000000E+000
+1,61100315000E+010; -1,21632197496E+001; +0,00000000000E+000
+1,62000300000E+010; -1,07586473278E+001; +0,00000000000E+000
+1,62900285000E+010; -1,20136653904E+001; +0,00000000000E+000
+1,63800270000E+010; -1,55281332816E+001; +0,00000000000E+000
+1,64700255000E+010; -2,04082785973E+001; +0,00000000000E+000
+1,65600240000E+010; -1,84166134949E+001; +0,00000000000E+000
+1,66500225000E+010; -1,89853517589E+001; +0,00000000000E+000
+1,67400210000E+010; -1,76755517889E+001; +0,00000000000E+000
+1,68300195000E+010; -1,77584682425E+001; +0,00000000000E+000
+1,69200180000E+010; -2,01378929358E+001; +0,00000000000E+000
+1,70100165000E+010; -3,75892406193E+001; +0,00000000000E+000
+1,71000150000E+010; -2,37780196709E+001; +0,00000000000E+000
+1,71900135000E+010; -2,03980310891E+001; +0,00000000000E+000
+1,72800120000E+010; -1,71446549042E+001; +0,00000000000E+000
+1,73700105000E+010; -1,79552926464E+001; +0,00000000000E+000
+1,74600090000E+010; -3,30695918405E+001; +0,00000000000E+000
+1,75500075000E+010; -2,42761668063E+001; +0,00000000000E+000
+1,76400060000E+010; -1,92162343933E+001; +0,00000000000E+000
+1,77300045000E+010; -1,36247961819E+001; +0,00000000000E+000
+1,78200030000E+010; -1,79372370776E+001; +0,00000000000E+000
+1,79100015000E+010; -1,71936539754E+001; +0,00000000000E+000
+1,80000000000E+010; -1,57493190755E+001; +0,00000000000E+000
