"# Channel 1"
"# Trace 1"
Frequency; Formatted Data; Formatted Data
+3,00000000000E+005; +1,01825346233E-001; +0,00000000000E+000
+9,02985000000E+007; -2,36238141892E-001; +0,00000000000E+000
+1,80297000000E+008; -3,80081924012E-001; +0,00000000000E+000
+2,70295500000E+008; -5,80557931301E-001; +0,00000000000E+000
+3,60294000000E+008; -7,52666167271E-001; +0,00000000000E+000
+4,50292500000E+008; -8,94049809718E-001; +0,00000000000E+000
+5,40291000000E+008; -9,34917087138E-001; +0,00000000000E+000
+6,30289500000E+008; -1,02664240813E+000; +0,00000000000E+000
+7,20288000000E+008; -1,07412762244E+000; +0,00000000000E+000
+8,10286500000E+008; -1,13969968370E+000; +0,00000000000E+000
+9,00285000000E+008; -1,23712177628E+000; +0,00000000000E+000
+9,90283500000E+008; -1,31127369764E+000; +0,00000000000E+000
+1,08028200000E+009; -1,40598709328E+000; +0,00000000000E+000
+1,17028050000E+009; -1,51082536872E+000; +0,00000000000E+000
+1,26027900000E+009; -1,55320417155E+000; +0,00000000000E+000
+1,35027750000E+009; -1,61487477656E+000; +0,00000000000E+000
+1,44027600000E+009; -1,69680990356E+000; +0,00000000000E+000
+1,53027450000E+009; -1,79294363818E+000; +0,00000000000E+000
+1,62027300000E+009; -1,90624552777E+000; +0,00000000000E+000
+1,71027150000E+009; -2,00781215201E+000; +0,00000000000E+000
+1,80027000000E+009; -2,12990696599E+000; +0,00000000000E+000
+1,89026850000E+009; -2,34030827872E+000; +0,00000000000E+000
+1,98026700000E+009; -2,58872591184E+000; +0,00000000000E+000
+2,07026550000E+009; -2,86108828179E+000; +0,00000000000E+000
+2,16026400000E+009; -3,18483736056E+000; +0,00000000000E+000
+2,25026250000E+009; -3,71247574469E+000; +0,00000000000E+000
+2,34026100000E+009; -4,33481846966E+000; +0,00000000000E+000
+2,43025950000E+009; -4,92894114262E+000; +0,00000000000E+000
+2,52025800000E+009; -5,47748292242E+000; +0,00000000000E+000
+2,61025650000E+009; -5,89650938989E+000; +0,00000000000E+000
+2,70025500000E+009; -6,60991124152E+000; +0,00000000000E+000
+2,79025350000E+009; -7,08873413725E+000; +0,00000000000E+000
+2,88025200000E+009; -7,71522826695E+000; +0,00000000000E+000
+2,97025050000E+009; -8,72984624632E+000; +0,00000000000E+000
+3,06024900000E+009; -9,83998071615E+000; +0,00000000000E+000
+3,15024750000E+009; -1,15889140979E+001; +0,00000000000E+000
+3,24024600000E+009; -1,24538910841E+001; +0,00000000000E+000
+3,33024450000E+009; -1,64391559260E+001; +0,00000000000E+000
+3,42024300000E+009; -2,03002147898E+001; +0,00000000000E+000
+3,51024150000E+009; -2,55885010591E+001; +0,00000000000E+000
+3,60024000000E+009; -2,46477867791E+001; +0,00000000000E+000
+3,69023850000E+009; -2,54891533319E+001; +0,00000000000E+000
+3,78023700000E+009; -3,69953194494E+001; +0,00000000000E+000
+3,87023550000E+009; -3,62327521669E+001; +0,00000000000E+000
+3,96023400000E+009; -3,09905429067E+001; +0,00000000000E+000
+4,05023250000E+009; -2,18497437878E+001; +0,00000000000E+000
+4,14023100000E+009; -1,68939442575E+001; +0,00000000000E+000
+4,23022950000E+009; -1,58193725722E+001; +0,00000000000E+000
+4,32022800000E+009; -1,51807055362E+001; +0,00000000000E+000
+4,41022650000E+009; -1,48938607040E+001; +0,00000000000E+000
+4,50022500000E+009; -1,52780688911E+001; +0,00000000000E+000
+4,59022350000E+009; -1,92555413270E+001; +0,00000000000E+000
+4,68022200000E+009; -2,12821664630E+001; +0,00000000000E+000
+4,77022050000E+009; -2,58552027153E+001; +0,00000000000E+000
+4,86021900000E+009; -2,15602078399E+001; +0,00000000000E+000
+4,95021750000E+009; -1,79784385181E+001; +0,00000000000E+000
+5,04021600000E+009; -1,65454774167E+001; +0,00000000000E+000
+5,13021450000E+009; -1,65341811732E+001; +0,00000000000E+000
+5,22021300000E+009; -1,60289437391E+001; +0,00000000000E+000
+5,31021150000E+009; -1,56459863613E+001; +0,00000000000E+000
+5,40021000000E+009; -1,52716817649E+001; +0,00000000000E+000
+5,49020850000E+009; -1,46394613986E+001; +0,00000000000E+000
+5,58020700000E+009; -1,30756435786E+001; +0,00000000000E+000
+5,67020550000E+009; -1,24478021692E+001; +0,00000000000E+000
+5,76020400000E+009; -1,24644263898E+001; +0,00000000000E+000
+5,85020250000E+009; -1,28142507870E+001; +0,00000000000E+000
+5,94020100000E+009; -1,29177054419E+001; +0,00000000000E+000
+6,03019950000E+009; -1,42040649274E+001; +0,00000000000E+000
+6,12019800000E+009; -1,42254876717E+001; +0,00000000000E+000
+6,21019650000E+009; -1,64189378480E+001; +0,00000000000E+000
+6,30019500000E+009; -1,73478852019E+001; +0,00000000000E+000
+6,39019350000E+009; -1,70835594521E+001; +0,00000000000E+000
+6,48019200000E+009; -1,75663999584E+001; +0,00000000000E+000
+6,57019050000E+009; -1,75954555797E+001; +0,00000000000E+000
+6,66018900000E+009; -1,67934526166E+001; +0,00000000000E+000
+6,75018750000E+009; -1,59436540138E+001; +0,00000000000E+000
+6,84018600000E+009; -1,59429217791E+001; +0,00000000000E+000
+6,93018450000E+009; -1,60548486590E+001; +0,00000000000E+000
+7,02018300000E+009; -1,48965156239E+001; +0,00000000000E+000
+7,11018150000E+009; -1,55545745570E+001; +0,00000000000E+000
+7,20018000000E+009; -1,57842969303E+001; +0,00000000000E+000
+7,29017850000E+009; -1,46398604667E+001; +0,00000000000E+000
+7,38017700000E+009; -1,58248861645E+001; +0,00000000000E+000
+7,47017550000E+009; -1,58947251785E+001; +0,00000000000E+000
+7,56017400000E+009; -1,48967820071E+001; +0,00000000000E+000
+7,65017250000E+009; -2,11701386631E+001; +0,00000000000E+000
+7,74017100000E+009; -2,35100894938E+001; +0,00000000000E+000
+7,83016950000E+009; -3,24611445854E+001; +0,00000000000E+000
+7,92016800000E+009; -2,18333999785E+001; +0,00000000000E+000
+8,01016650000E+009; -2,42159660636E+001; +0,00000000000E+000
+8,10016500000E+009; -3,27259263038E+001; +0,00000000000E+000
+8,19016350000E+009; -2,38493148089E+001; +0,00000000000E+000
+8,28016200000E+009; -2,16467483778E+001; +0,00000000000E+000
+8,37016050000E+009; -1,94347559227E+001; +0,00000000000E+000
+8,46015900000E+009; -1,91819115933E+001; +0,00000000000E+000
+8,55015750000E+009; -1,97247391795E+001; +0,00000000000E+000
+8,64015600000E+009; -1,99547643242E+001; +0,00000000000E+000
+8,73015450000E+009; -1,77533353681E+001; +0,00000000000E+000
+8,82015300000E+009; -1,77303887730E+001; +0,00000000000E+000
+8,91015150000E+009; -1,40139521087E+001; +0,00000000000E+000
+9,00015000000E+009; -1,13601761194E+001; +0,00000000000E+000
+9,09014850000E+009; -8,91131973296E+000; +0,00000000000E+000
+9,18014700000E+009; -7,63855609236E+000; +0,00000000000E+000
+9,27014550000E+009; -6,82651212796E+000; +0,00000000000E+000
+9,36014400000E+009; -6,75425635261E+000; +0,00000000000E+000
+9,45014250000E+009; -6,62601869164E+000; +0,00000000000E+000
+9,54014100000E+009; -6,84610435515E+000; +0,00000000000E+000
+9,63013950000E+009; -6,92500776005E+000; +0,00000000000E+000
+9,72013800000E+009; -6,85068069130E+000; +0,00000000000E+000
+9,81013650000E+009; -6,74476956202E+000; +0,00000000000E+000
+9,90013500000E+009; -6,82041895643E+000; +0,00000000000E+000
+9,99013350000E+009; -6,75857483572E+000; +0,00000000000E+000
+1,00801320000E+010; -6,78468706530E+000; +0,00000000000E+000
+1,01701305000E+010; -6,76544810827E+000; +0,00000000000E+000
+1,02601290000E+010; -7,14745295130E+000; +0,00000000000E+000
+1,03501275000E+010; -7,38866779613E+000; +0,00000000000E+000
+1,04401260000E+010; -8,33295831516E+000; +0,00000000000E+000
+1,05301245000E+010; -7,98273401904E+000; +0,00000000000E+000
+1,06201230000E+010; -7,82315980599E+000; +0,00000000000E+000
+1,07101215000E+010; -7,88727789039E+000; +0,00000000000E+000
+1,08001200000E+010; -7,59720216468E+000; +0,00000000000E+000
+1,08901185000E+010; -8,21052567358E+000; +0,00000000000E+000
+1,09801170000E+010; -8,31528237417E+000; +0,00000000000E+000
+1,10701155000E+010; -8,89939209925E+000; +0,00000000000E+000
+1,11601140000E+010; -9,85034596219E+000; +0,00000000000E+000
+1,12501125000E+010; -1,07028391329E+001; +0,00000000000E+000
+1,13401110000E+010; -1,00204124591E+001; +0,00000000000E+000
+1,14301095000E+010; -1,09024103589E+001; +0,00000000000E+000
+1,15201080000E+010; -1,13663766572E+001; +0,00000000000E+000
+1,16101065000E+010; -1,21024310102E+001; +0,00000000000E+000
+1,17001050000E+010; -1,34283626485E+001; +0,00000000000E+000
+1,17901035000E+010; -1,43590317838E+001; +0,00000000000E+000
+1,18801020000E+010; -1,36788635324E+001; +0,00000000000E+000
+1,19701005000E+010; -1,49506311146E+001; +0,00000000000E+000
+1,20600990000E+010; -1,50772457807E+001; +0,00000000000E+000
+1,21500975000E+010; -1,52415889865E+001; +0,00000000000E+000
+1,22400960000E+010; -1,51987191192E+001; +0,00000000000E+000
+1,23300945000E+010; -1,75062661415E+001; +0,00000000000E+000
+1,24200930000E+010; -1,66794754343E+001; +0,00000000000E+000
+1,25100915000E+010; -1,75747004389E+001; +0,00000000000E+000
+1,26000900000E+010; -1,85955568704E+001; +0,00000000000E+000
+1,26900885000E+010; -1,81653927423E+001; +0,00000000000E+000
+1,27800870000E+010; -1,95879159078E+001; +0,00000000000E+000
+1,28700855000E+010; -2,00395023295E+001; +0,00000000000E+000
+1,29600840000E+010; -1,73379281084E+001; +0,00000000000E+000
+1,30500825000E+010; -1,62046469623E+001; +0,00000000000E+000
+1,31400810000E+010; -1,64688710847E+001; +0,00000000000E+000
+1,32300795000E+010; -1,67043671855E+001; +0,00000000000E+000
+1,33200780000E+010; -1,69096492447E+001; +0,00000000000E+000
+1,34100765000E+010; -1,62006781673E+001; +0,00000000000E+000
+1,35000750000E+010; -1,56533531927E+001; +0,00000000000E+000
+1,35900735000E+010; -1,33735774803E+001; +0,00000000000E+000
+1,36800720000E+010; -1,33965372624E+001; +0,00000000000E+000
+1,37700705000E+010; -1,38435097264E+001; +0,00000000000E+000
+1,38600690000E+010; -1,41011153936E+001; +0,00000000000E+000
+1,39500675000E+010; -1,31350030875E+001; +0,00000000000E+000
+1,40400660000E+010; -1,25038715464E+001; +0,00000000000E+000
+1,41300645000E+010; -1,15719388328E+001; +0,00000000000E+000
+1,42200630000E+010; -1,11173334579E+001; +0,00000000000E+000
+1,43100615000E+010; -9,27502045249E+000; +0,00000000000E+000
+1,44000600000E+010; -9,97755732690E+000; +0,00000000000E+000
+1,44900585000E+010; -9,91359860123E+000; +0,00000000000E+000
+1,45800570000E+010; -9,86944732695E+000; +0,00000000000E+000
+1,46700555000E+010; -1,05015417829E+001; +0,00000000000E+000
+1,47600540000E+010; -9,54505660973E+000; +0,00000000000E+000
+1,48500525000E+010; -9,34307320004E+000; +0,00000000000E+000
+1,49400510000E+010; -8,15345684609E+000; +0,00000000000E+000
+1,50300495000E+010; -8,19174506869E+000; +0,00000000000E+000
+1,51200480000E+010; -8,31472897497E+000; +0,00000000000E+000
+1,52100465000E+010; -8,39631862438E+000; +0,00000000000E+000
+1,53000450000E+010; -9,29197230680E+000; +0,00000000000E+000
+1,53900435000E+010; -8,81151784418E+000; +0,00000000000E+000
+1,54800420000E+010; -8,71712832038E+000; +0,00000000000E+000
+1,55700405000E+010; -9,86281018088E+000; +0,00000000000E+000
+1,56600390000E+010; -9,02451697887E+000; +0,00000000000E+000
+1,57500375000E+010; -9,15120475154E+000; +0,00000000000E+000
+1,58400360000E+010; -9,29213117594E+000; +0,00000000000E+000
+1,59300345000E+010; -1,01964535328E+001; +0,00000000000E+000
+1,60200330000E+010; -1,07428180290E+001; +0,00000000000E+000
+1,61100315000E+010; -1,24219098603E+001; +0,00000000000E+000
+1,62000300000E+010; -1,13941388629E+001; +0,00000000000E+000
+1,62900285000E+010; -1,20573922310E+001; +0,00000000000E+000
+1,63800270000E+010; -1,21988768032E+001; +0,00000000000E+000
+1,64700255000E+010; -1,40310910968E+001; +0,00000000000E+000
+1,65600240000E+010; -1,43489745435E+001; +0,00000000000E+000
+1,66500225000E+010; -1,75494339883E+001; +0,00000000000E+000
+1,67400210000E+010; -1,69117838824E+001; +0,00000000000E+000
+1,68300195000E+010; -1,57703234517E+001; +0,00000000000E+000
+1,69200180000E+010; -1,60162902911E+001; +0,00000000000E+000
+1,70100165000E+010; -1,55946501146E+001; +0,00000000000E+000
+1,71000150000E+010; -1,70344311639E+001; +0,00000000000E+000
+1,71900135000E+010; -1,96927865096E+001; +0,00000000000E+000
+1,72800120000E+010; -2,28173605763E+001; +0,00000000000E+000
+1,73700105000E+010; -2,14135806749E+001; +0,00000000000E+000
+1,74600090000E+010; -1,58631321643E+001; +0,00000000000E+000
+1,75500075000E+010; -1,53084811412E+001; +0,00000000000E+000
+1,76400060000E+010; -1,60294840851E+001; +0,00000000000E+000
+1,77300045000E+010; -1,65048629823E+001; +0,00000000000E+000
+1,78200030000E+010; -1,90020970915E+001; +0,00000000000E+000
+1,79100015000E+010; -2,09866571888E+001; +0,00000000000E+000
+1,80000000000E+010; -1,55193851624E+001; +0,00000000000E+000
