!Keysight Technologies,N5222B,MY60213399,A.14.00.23
!Date: Tuesday, February 27, 2024 20:49:19
!Correction: S11(C  1-Port  ) 
!S21(Off) 
!S12(Off) 
!S22(Off) 
!S2P File: Measurement: :
# Hz S  dB   R 50
18000000000 -18.273777 117.27403 -200 45 -200 45 -200 45
18005312500 -18.201481 116.60258 -200 45 -200 45 -200 45
18010625000 -18.113266 116.2424 -200 45 -200 45 -200 45
18015937500 -17.997551 115.80862 -200 45 -200 45 -200 45
18021250000 -17.892826 115.27628 -200 45 -200 45 -200 45
18026562500 -17.771618 114.85564 -200 45 -200 45 -200 45
18031875000 -17.649939 114.46126 -200 45 -200 45 -200 45
18037187500 -17.544378 114.03827 -200 45 -200 45 -200 45
18042500000 -17.421867 113.35917 -200 45 -200 45 -200 45
18047812500 -17.318924 112.90567 -200 45 -200 45 -200 45
18053125000 -17.221788 112.41208 -200 45 -200 45 -200 45
18058437500 -17.121853 111.98636 -200 45 -200 45 -200 45
18063750000 -17.031931 111.57639 -200 45 -200 45 -200 45
18069062500 -16.924938 111.29063 -200 45 -200 45 -200 45
18074375000 -16.814209 111.00558 -200 45 -200 45 -200 45
18079687500 -16.71044 110.53468 -200 45 -200 45 -200 45
18085000000 -16.607889 110.13667 -200 45 -200 45 -200 45
18090312500 -16.514042 109.70173 -200 45 -200 45 -200 45
18095625000 -16.414284 109.30035 -200 45 -200 45 -200 45
18100937500 -16.31938 108.84784 -200 45 -200 45 -200 45
18106250000 -16.217972 108.43987 -200 45 -200 45 -200 45
18111562500 -16.134548 108.02817 -200 45 -200 45 -200 45
18116875000 -16.04483 107.53896 -200 45 -200 45 -200 45
18122187500 -15.976738 107.13072 -200 45 -200 45 -200 45
18127500000 -15.903853 106.84674 -200 45 -200 45 -200 45
18132812500 -15.817146 106.44032 -200 45 -200 45 -200 45
18138125000 -15.715039 106.1419 -200 45 -200 45 -200 45
18143437500 -15.6177 105.66592 -200 45 -200 45 -200 45
18148750000 -15.523853 105.12668 -200 45 -200 45 -200 45
18154062500 -15.440763 104.56196 -200 45 -200 45 -200 45
18159375000 -15.342091 104.00798 -200 45 -200 45 -200 45
18164687500 -15.2627 103.37703 -200 45 -200 45 -200 45
18170000000 -15.186559 102.70512 -200 45 -200 45 -200 45
18175312500 -15.115739 102.11262 -200 45 -200 45 -200 45
18180625000 -15.040159 101.52975 -200 45 -200 45 -200 45
18185937500 -14.971021 100.8055 -200 45 -200 45 -200 45
18191250000 -14.912549 100.3136 -200 45 -200 45 -200 45
18196562500 -14.838424 99.835266 -200 45 -200 45 -200 45
18201875000 -14.764255 99.214798 -200 45 -200 45 -200 45
18207187500 -14.681896 98.54834 -200 45 -200 45 -200 45
18212500000 -14.617995 98.014313 -200 45 -200 45 -200 45
18217812500 -14.537451 97.373665 -200 45 -200 45 -200 45
18223125000 -14.462259 96.842384 -200 45 -200 45 -200 45
18228437500 -14.400272 96.195808 -200 45 -200 45 -200 45
18233750000 -14.333199 95.651283 -200 45 -200 45 -200 45
18239062500 -14.263828 95.110001 -200 45 -200 45 -200 45
18244375000 -14.185412 94.477432 -200 45 -200 45 -200 45
18249687500 -14.119623 93.925789 -200 45 -200 45 -200 45
18255000000 -14.056604 93.419708 -200 45 -200 45 -200 45
18260312500 -14.003334 92.99369 -200 45 -200 45 -200 45
18265625000 -13.932862 92.603027 -200 45 -200 45 -200 45
18270937500 -13.833872 92.215851 -200 45 -200 45 -200 45
18276250000 -13.743287 91.785385 -200 45 -200 45 -200 45
18281562500 -13.646549 91.269798 -200 45 -200 45 -200 45
18286875000 -13.554523 90.557938 -200 45 -200 45 -200 45
18292187500 -13.489369 89.901398 -200 45 -200 45 -200 45
18297500000 -13.4349 89.340477 -200 45 -200 45 -200 45
18302812500 -13.379859 88.827972 -200 45 -200 45 -200 45
18308125000 -13.319989 88.43792 -200 45 -200 45 -200 45
18313437500 -13.253511 88.017471 -200 45 -200 45 -200 45
18318750000 -13.177635 87.564301 -200 45 -200 45 -200 45
18324062500 -13.096711 87.132835 -200 45 -200 45 -200 45
18329375000 -13.020358 86.586784 -200 45 -200 45 -200 45
18334687500 -12.954091 85.999268 -200 45 -200 45 -200 45
18340000000 -12.892303 85.420784 -200 45 -200 45 -200 45
18345312500 -12.834274 84.881371 -200 45 -200 45 -200 45
18350625000 -12.781247 84.286301 -200 45 -200 45 -200 45
18355937500 -12.72689 83.783485 -200 45 -200 45 -200 45
18361250000 -12.676785 83.291626 -200 45 -200 45 -200 45
18366562500 -12.61162 82.770531 -200 45 -200 45 -200 45
18371875000 -12.545326 82.304482 -200 45 -200 45 -200 45
18377187500 -12.469592 81.693672 -200 45 -200 45 -200 45
18382500000 -12.401198 81.091331 -200 45 -200 45 -200 45
18387812500 -12.350333 80.346725 -200 45 -200 45 -200 45
18393125000 -12.306248 79.6726 -200 45 -200 45 -200 45
18398437500 -12.257928 79.011536 -200 45 -200 45 -200 45
18403750000 -12.228759 78.427368 -200 45 -200 45 -200 45
18409062500 -12.197478 77.869637 -200 45 -200 45 -200 45
18414375000 -12.153942 77.340714 -200 45 -200 45 -200 45
18419687500 -12.10388 76.862648 -200 45 -200 45 -200 45
18425000000 -12.052616 76.277458 -200 45 -200 45 -200 45
18430312500 -12.001141 75.641624 -200 45 -200 45 -200 45
18435625000 -11.942002 75.141838 -200 45 -200 45 -200 45
18440937500 -11.879514 74.595085 -200 45 -200 45 -200 45
18446250000 -11.822126 73.900024 -200 45 -200 45 -200 45
18451562500 -11.783509 73.275291 -200 45 -200 45 -200 45
18456875000 -11.739516 72.673759 -200 45 -200 45 -200 45
18462187500 -11.702029 72.030846 -200 45 -200 45 -200 45
18467500000 -11.657594 71.422028 -200 45 -200 45 -200 45
18472812500 -11.615854 70.864151 -200 45 -200 45 -200 45
18478125000 -11.579431 70.341805 -200 45 -200 45 -200 45
18483437500 -11.52599 69.779022 -200 45 -200 45 -200 45
18488750000 -11.480097 69.207176 -200 45 -200 45 -200 45
18494062500 -11.435455 68.614616 -200 45 -200 45 -200 45
18499375000 -11.398386 68.073647 -200 45 -200 45 -200 45
18504687500 -11.360481 67.515945 -200 45 -200 45 -200 45
18510000000 -11.319309 66.886368 -200 45 -200 45 -200 45
18515312500 -11.285973 66.377998 -200 45 -200 45 -200 45
18520625000 -11.253264 65.815536 -200 45 -200 45 -200 45
18525937500 -11.21975 65.380821 -200 45 -200 45 -200 45
18531250000 -11.177958 64.943245 -200 45 -200 45 -200 45
18536562500 -11.125123 64.470459 -200 45 -200 45 -200 45
18541875000 -11.068538 63.948574 -200 45 -200 45 -200 45
18547187500 -11.007442 63.318226 -200 45 -200 45 -200 45
18552500000 -10.963079 62.670177 -200 45 -200 45 -200 45
18557812500 -10.916103 62.019444 -200 45 -200 45 -200 45
18563125000 -10.891013 61.384613 -200 45 -200 45 -200 45
18568437500 -10.868034 60.798752 -200 45 -200 45 -200 45
18573750000 -10.832858 60.254612 -200 45 -200 45 -200 45
18579062500 -10.807178 59.737381 -200 45 -200 45 -200 45
18584375000 -10.776592 59.208855 -200 45 -200 45 -200 45
18589687500 -10.744366 58.727516 -200 45 -200 45 -200 45
18595000000 -10.705592 58.188801 -200 45 -200 45 -200 45
18600312500 -10.661907 57.700996 -200 45 -200 45 -200 45
18605625000 -10.616799 57.165104 -200 45 -200 45 -200 45
18610937500 -10.565716 56.538124 -200 45 -200 45 -200 45
18616250000 -10.530281 55.922173 -200 45 -200 45 -200 45
18621562500 -10.497087 55.221874 -200 45 -200 45 -200 45
18626875000 -10.480911 54.608208 -200 45 -200 45 -200 45
18632187500 -10.463754 54.03323 -200 45 -200 45 -200 45
18637500000 -10.448598 53.510464 -200 45 -200 45 -200 45
18642812500 -10.422269 52.991615 -200 45 -200 45 -200 45
18648125000 -10.394744 52.419228 -200 45 -200 45 -200 45
18653437500 -10.363587 51.949306 -200 45 -200 45 -200 45
18658750000 -10.334875 51.431904 -200 45 -200 45 -200 45
18664062500 -10.307355 50.957088 -200 45 -200 45 -200 45
18669375000 -10.276235 50.480274 -200 45 -200 45 -200 45
18674687500 -10.235105 49.895985 -200 45 -200 45 -200 45
18680000000 -10.203192 49.29314 -200 45 -200 45 -200 45
18685312500 -10.162275 48.730999 -200 45 -200 45 -200 45
18690625000 -10.133514 48.164063 -200 45 -200 45 -200 45
18695937500 -10.10211 47.624966 -200 45 -200 45 -200 45
18701250000 -10.075068 46.988853 -200 45 -200 45 -200 45
18706562500 -10.040948 46.412483 -200 45 -200 45 -200 45
18711875000 -10.012132 45.89072 -200 45 -200 45 -200 45
18717187500 -9.9833517 45.28582 -200 45 -200 45 -200 45
18722500000 -9.947114 44.629601 -200 45 -200 45 -200 45
18727812500 -9.9154577 43.991596 -200 45 -200 45 -200 45
18733125000 -9.8911781 43.327267 -200 45 -200 45 -200 45
18738437500 -9.8722315 42.65358 -200 45 -200 45 -200 45
18743750000 -9.8654671 42.023872 -200 45 -200 45 -200 45
18749062500 -9.8550863 41.47963 -200 45 -200 45 -200 45
18754375000 -9.8311005 40.932293 -200 45 -200 45 -200 45
18759687500 -9.8153181 40.395187 -200 45 -200 45 -200 45
18765000000 -9.7901554 39.909088 -200 45 -200 45 -200 45
18770312500 -9.7529573 39.314304 -200 45 -200 45 -200 45
18775625000 -9.718833 38.585506 -200 45 -200 45 -200 45
18780937500 -9.6919003 37.840576 -200 45 -200 45 -200 45
18786250000 -9.6932096 37.140724 -200 45 -200 45 -200 45
18791562500 -9.6989384 36.51722 -200 45 -200 45 -200 45
18796875000 -9.6984673 35.91626 -200 45 -200 45 -200 45
18802187500 -9.7047462 35.372322 -200 45 -200 45 -200 45
18807500000 -9.7065992 34.901138 -200 45 -200 45 -200 45
18812812500 -9.6924286 34.482311 -200 45 -200 45 -200 45
18818125000 -9.6730099 33.988819 -200 45 -200 45 -200 45
18823437500 -9.6352978 33.472332 -200 45 -200 45 -200 45
18828750000 -9.6104059 32.796577 -200 45 -200 45 -200 45
18834062500 -9.5934229 32.147575 -200 45 -200 45 -200 45
18839375000 -9.5900145 31.536541 -200 45 -200 45 -200 45
18844687500 -9.5763359 30.979786 -200 45 -200 45 -200 45
18850000000 -9.5625801 30.364727 -200 45 -200 45 -200 45
18855312500 -9.5512457 29.726154 -200 45 -200 45 -200 45
18860625000 -9.5474415 29.177803 -200 45 -200 45 -200 45
18865937500 -9.5425262 28.644846 -200 45 -200 45 -200 45
18871250000 -9.5246677 28.023682 -200 45 -200 45 -200 45
18876562500 -9.5139408 27.385618 -200 45 -200 45 -200 45
18881875000 -9.5093832 26.704039 -200 45 -200 45 -200 45
18887187500 -9.5031672 26.078779 -200 45 -200 45 -200 45
18892500000 -9.5011778 25.541973 -200 45 -200 45 -200 45
18897812500 -9.4927483 24.913147 -200 45 -200 45 -200 45
18903125000 -9.4885588 24.293859 -200 45 -200 45 -200 45
18908437500 -9.482254 23.724897 -200 45 -200 45 -200 45
18913750000 -9.4748459 23.158506 -200 45 -200 45 -200 45
18919062500 -9.4566269 22.523033 -200 45 -200 45 -200 45
18924375000 -9.4350119 21.883215 -200 45 -200 45 -200 45
18929687500 -9.4292727 21.142208 -200 45 -200 45 -200 45
18935000000 -9.4273109 20.43791 -200 45 -200 45 -200 45
18940312500 -9.4297934 19.796011 -200 45 -200 45 -200 45
18945625000 -9.4264355 19.189919 -200 45 -200 45 -200 45
18950937500 -9.421174 18.613831 -200 45 -200 45 -200 45
18956250000 -9.4134359 17.965006 -200 45 -200 45 -200 45
18961562500 -9.412591 17.311947 -200 45 -200 45 -200 45
18966875000 -9.4127932 16.691202 -200 45 -200 45 -200 45
18972187500 -9.408474 16.087141 -200 45 -200 45 -200 45
18977500000 -9.4096441 15.502035 -200 45 -200 45 -200 45
18982812500 -9.4080286 14.899066 -200 45 -200 45 -200 45
18988125000 -9.3958073 14.384674 -200 45 -200 45 -200 45
18993437500 -9.3881741 13.847668 -200 45 -200 45 -200 45
18998750000 -9.3783445 13.271461 -200 45 -200 45 -200 45
19004062500 -9.3641739 12.671651 -200 45 -200 45 -200 45
19009375000 -9.3612566 12.028003 -200 45 -200 45 -200 45
19014687500 -9.3585482 11.454145 -200 45 -200 45 -200 45
19020000000 -9.3636951 10.892654 -200 45 -200 45 -200 45
19025312500 -9.3571415 10.272891 -200 45 -200 45 -200 45
19030625000 -9.3497372 9.7525635 -200 45 -200 45 -200 45
19035937500 -9.344985 9.2495251 -200 45 -200 45 -200 45
19041250000 -9.3542614 8.6339769 -200 45 -200 45 -200 45
19046562500 -9.3536978 8.1279058 -200 45 -200 45 -200 45
19051875000 -9.3501492 7.585742 -200 45 -200 45 -200 45
19057187500 -9.3426857 7.0766029 -200 45 -200 45 -200 45
19062500000 -9.3394012 6.4651232 -200 45 -200 45 -200 45
19067812500 -9.3348017 5.9051948 -200 45 -200 45 -200 45
19073125000 -9.3378124 5.2707024 -200 45 -200 45 -200 45
19078437500 -9.3353882 4.6592689 -200 45 -200 45 -200 45
19083750000 -9.3498526 4.0959187 -200 45 -200 45 -200 45
19089062500 -9.3627443 3.559098 -200 45 -200 45 -200 45
19094375000 -9.3614941 2.9434412 -200 45 -200 45 -200 45
19099687500 -9.3659868 2.3588943 -200 45 -200 45 -200 45
19105000000 -9.379982 1.6438314 -200 45 -200 45 -200 45
19110312500 -9.3982086 1.0830264 -200 45 -200 45 -200 45
19115625000 -9.4105425 0.52565593 -200 45 -200 45 -200 45
19120937500 -9.4205046 -0.063609935 -200 45 -200 45 -200 45
19126250000 -9.4324484 -0.65408468 -200 45 -200 45 -200 45
19131562500 -9.4467573 -1.2486895 -200 45 -200 45 -200 45
19136875000 -9.4621572 -1.824568 -200 45 -200 45 -200 45
19142187500 -9.4601545 -2.3398657 -200 45 -200 45 -200 45
19147500000 -9.45784 -2.9593074 -200 45 -200 45 -200 45
19152812500 -9.4673681 -3.7022028 -200 45 -200 45 -200 45
19158125000 -9.4746361 -4.3873234 -200 45 -200 45 -200 45
19163437500 -9.4905748 -5.0983801 -200 45 -200 45 -200 45
19168750000 -9.5121927 -5.8127422 -200 45 -200 45 -200 45
19174062500 -9.5456572 -6.4582748 -200 45 -200 45 -200 45
19179375000 -9.5742455 -7.017066 -200 45 -200 45 -200 45
19184687500 -9.5905771 -7.5485229 -200 45 -200 45 -200 45
19190000000 -9.609704 -8.0891609 -200 45 -200 45 -200 45
19195312500 -9.6230669 -8.6249619 -200 45 -200 45 -200 45
19200625000 -9.63204 -9.1480637 -200 45 -200 45 -200 45
19205937500 -9.6366072 -9.6993828 -200 45 -200 45 -200 45
19211250000 -9.6348848 -10.233149 -200 45 -200 45 -200 45
19216562500 -9.63626 -10.837202 -200 45 -200 45 -200 45
19221875000 -9.6371899 -11.454113 -200 45 -200 45 -200 45
19227187500 -9.6425314 -12.13135 -200 45 -200 45 -200 45
19232500000 -9.6604424 -12.764401 -200 45 -200 45 -200 45
19237812500 -9.6813936 -13.364364 -200 45 -200 45 -200 45
19243125000 -9.7064877 -13.894485 -200 45 -200 45 -200 45
19248437500 -9.7149363 -14.450944 -200 45 -200 45 -200 45
19253750000 -9.7166977 -14.965939 -200 45 -200 45 -200 45
19259062500 -9.7259359 -15.592134 -200 45 -200 45 -200 45
19264375000 -9.7360334 -16.152849 -200 45 -200 45 -200 45
19269687500 -9.7415361 -16.779032 -200 45 -200 45 -200 45
19275000000 -9.7642736 -17.423573 -200 45 -200 45 -200 45
19280312500 -9.780695 -18.028744 -200 45 -200 45 -200 45
19285625000 -9.8032236 -18.672855 -200 45 -200 45 -200 45
19290937500 -9.8406467 -19.290899 -200 45 -200 45 -200 45
19296250000 -9.8657455 -19.819639 -200 45 -200 45 -200 45
19301562500 -9.9018841 -20.30904 -200 45 -200 45 -200 45
19306875000 -9.9114094 -20.787994 -200 45 -200 45 -200 45
19312187500 -9.9111395 -21.34078 -200 45 -200 45 -200 45
19317500000 -9.9290552 -22.007502 -200 45 -200 45 -200 45
19322812500 -9.9633255 -22.605923 -200 45 -200 45 -200 45
19328125000 -9.9891796 -23.126923 -200 45 -200 45 -200 45
19333437500 -10.00104 -23.586681 -200 45 -200 45 -200 45
19338750000 -10.005745 -24.195906 -200 45 -200 45 -200 45
19344062500 -10.013904 -24.812735 -200 45 -200 45 -200 45
19349375000 -10.036841 -25.493177 -200 45 -200 45 -200 45
19354687500 -10.056467 -26.062687 -200 45 -200 45 -200 45
19360000000 -10.074457 -26.713694 -200 45 -200 45 -200 45
19365312500 -10.088503 -27.337496 -200 45 -200 45 -200 45
19370625000 -10.117169 -27.905132 -200 45 -200 45 -200 45
19375937500 -10.135942 -28.437582 -200 45 -200 45 -200 45
19381250000 -10.149619 -28.997711 -200 45 -200 45 -200 45
19386562500 -10.153849 -29.630529 -200 45 -200 45 -200 45
19391875000 -10.156188 -30.222672 -200 45 -200 45 -200 45
19397187500 -10.170257 -30.86426 -200 45 -200 45 -200 45
19402500000 -10.182428 -31.518171 -200 45 -200 45 -200 45
19407812500 -10.20207 -32.173267 -200 45 -200 45 -200 45
19413125000 -10.217649 -32.7314 -200 45 -200 45 -200 45
19418437500 -10.228381 -33.395065 -200 45 -200 45 -200 45
19423750000 -10.24765 -33.985241 -200 45 -200 45 -200 45
19429062500 -10.273863 -34.557198 -200 45 -200 45 -200 45
19434375000 -10.283736 -35.156307 -200 45 -200 45 -200 45
19439687500 -10.292391 -35.718246 -200 45 -200 45 -200 45
19445000000 -10.298786 -36.31049 -200 45 -200 45 -200 45
19450312500 -10.324464 -36.904652 -200 45 -200 45 -200 45
19455625000 -10.337748 -37.47567 -200 45 -200 45 -200 45
19460937500 -10.352652 -38.070305 -200 45 -200 45 -200 45
19466250000 -10.375967 -38.704525 -200 45 -200 45 -200 45
19471562500 -10.397763 -39.310135 -200 45 -200 45 -200 45
19476875000 -10.413829 -39.841789 -200 45 -200 45 -200 45
19482187500 -10.430027 -40.392662 -200 45 -200 45 -200 45
19487500000 -10.446394 -40.964478 -200 45 -200 45 -200 45
19492812500 -10.462678 -41.644249 -200 45 -200 45 -200 45
19498125000 -10.488968 -42.346798 -200 45 -200 45 -200 45
19503437500 -10.523973 -42.939831 -200 45 -200 45 -200 45
19508750000 -10.555648 -43.574066 -200 45 -200 45 -200 45
19514062500 -10.59287 -44.128719 -200 45 -200 45 -200 45
19519375000 -10.61987 -44.606731 -200 45 -200 45 -200 45
19524687500 -10.651538 -45.222225 -200 45 -200 45 -200 45
19530000000 -10.675017 -45.804806 -200 45 -200 45 -200 45
19535312500 -10.700865 -46.399113 -200 45 -200 45 -200 45
19540625000 -10.724558 -47.001076 -200 45 -200 45 -200 45
19545937500 -10.749796 -47.695946 -200 45 -200 45 -200 45
19551250000 -10.778783 -48.252693 -200 45 -200 45 -200 45
19556562500 -10.803115 -48.835175 -200 45 -200 45 -200 45
19561875000 -10.814604 -49.527893 -200 45 -200 45 -200 45
19567187500 -10.844363 -50.322384 -200 45 -200 45 -200 45
19572500000 -10.885532 -51.016506 -200 45 -200 45 -200 45
19577812500 -10.928328 -51.590618 -200 45 -200 45 -200 45
19583125000 -10.955436 -52.199924 -200 45 -200 45 -200 45
19588437500 -10.992734 -52.818909 -200 45 -200 45 -200 45
19593750000 -11.009034 -53.459763 -200 45 -200 45 -200 45
19599062500 -11.034775 -54.134113 -200 45 -200 45 -200 45
19604375000 -11.066799 -54.787571 -200 45 -200 45 -200 45
19609687500 -11.099719 -55.442581 -200 45 -200 45 -200 45
19615000000 -11.128056 -56.009201 -200 45 -200 45 -200 45
19620312500 -11.13706 -56.571217 -200 45 -200 45 -200 45
19625625000 -11.157828 -57.231869 -200 45 -200 45 -200 45
19630937500 -11.174932 -57.953472 -200 45 -200 45 -200 45
19636250000 -11.192706 -58.603302 -200 45 -200 45 -200 45
19641562500 -11.210488 -59.3116 -200 45 -200 45 -200 45
19646875000 -11.245273 -60.014736 -200 45 -200 45 -200 45
19652187500 -11.269146 -60.636269 -200 45 -200 45 -200 45
19657500000 -11.301734 -61.292404 -200 45 -200 45 -200 45
19662812500 -11.32169 -61.98629 -200 45 -200 45 -200 45
19668125000 -11.350445 -62.673515 -200 45 -200 45 -200 45
19673437500 -11.381122 -63.215664 -200 45 -200 45 -200 45
19678750000 -11.404608 -63.856361 -200 45 -200 45 -200 45
19684062500 -11.417415 -64.517433 -200 45 -200 45 -200 45
19689375000 -11.445469 -65.160629 -200 45 -200 45 -200 45
19694687500 -11.477602 -65.882065 -200 45 -200 45 -200 45
19700000000 -11.509531 -66.570671 -200 45 -200 45 -200 45
19705312500 -11.546304 -67.24157 -200 45 -200 45 -200 45
19710625000 -11.575148 -67.891373 -200 45 -200 45 -200 45
19715937500 -11.608039 -68.529587 -200 45 -200 45 -200 45
19721250000 -11.634948 -69.16095 -200 45 -200 45 -200 45
19726562500 -11.676008 -69.874542 -200 45 -200 45 -200 45
19731875000 -11.713694 -70.380424 -200 45 -200 45 -200 45
19737187500 -11.732305 -71.025276 -200 45 -200 45 -200 45
19742500000 -11.755412 -71.599785 -200 45 -200 45 -200 45
19747812500 -11.778378 -72.256958 -200 45 -200 45 -200 45
19753125000 -11.79564 -73.081314 -200 45 -200 45 -200 45
19758437500 -11.819632 -73.788116 -200 45 -200 45 -200 45
19763750000 -11.837864 -74.57972 -200 45 -200 45 -200 45
19769062500 -11.884007 -75.369698 -200 45 -200 45 -200 45
19774375000 -11.913858 -76.111832 -200 45 -200 45 -200 45
19779687500 -11.94129 -76.806931 -200 45 -200 45 -200 45
19785000000 -11.961967 -77.611183 -200 45 -200 45 -200 45
19790312500 -12.000278 -78.30117 -200 45 -200 45 -200 45
19795625000 -12.031775 -79.111313 -200 45 -200 45 -200 45
19800937500 -12.052825 -79.846542 -200 45 -200 45 -200 45
19806250000 -12.083196 -80.641418 -200 45 -200 45 -200 45
19811562500 -12.113399 -81.396729 -200 45 -200 45 -200 45
19816875000 -12.149939 -82.144463 -200 45 -200 45 -200 45
19822187500 -12.169368 -82.836899 -200 45 -200 45 -200 45
19827500000 -12.186924 -83.69928 -200 45 -200 45 -200 45
19832812500 -12.211456 -84.494362 -200 45 -200 45 -200 45
