!Keysight Technologies,N5222B,MY60213399,A.14.00.23
!Date: Tuesday, February 27, 2024 20:30:07
!Correction: S11(C  1-Port  ) 
!S21(Off) 
!S12(Off) 
!S22(Off) 
!S2P File: Measurement: :
# Hz S  dB   R 50
100000000 -0.0068130922 -15.05923 -200 45 -200 45 -200 45
108250000 -0.011447352 -16.287279 -200 45 -200 45 -200 45
116500000 -0.010472619 -17.531355 -200 45 -200 45 -200 45
124750000 -0.012599876 -18.78824 -200 45 -200 45 -200 45
133000000 -0.015772711 -20.054312 -200 45 -200 45 -200 45
141250000 -0.020811627 -21.284283 -200 45 -200 45 -200 45
149500000 -0.022942133 -22.538719 -200 45 -200 45 -200 45
157750000 -0.031930953 -23.75555 -200 45 -200 45 -200 45
166000000 -0.033193782 -24.966145 -200 45 -200 45 -200 45
174250000 -0.032066293 -26.1991 -200 45 -200 45 -200 45
182500000 -0.029328726 -27.438419 -200 45 -200 45 -200 45
190750000 -0.029167149 -28.713488 -200 45 -200 45 -200 45
199000000 -0.02892323 -30.007996 -200 45 -200 45 -200 45
207250000 -0.02986406 -31.29129 -200 45 -200 45 -200 45
215500000 -0.033216216 -32.578674 -200 45 -200 45 -200 45
223750000 -0.039439268 -33.881989 -200 45 -200 45 -200 45
232000000 -0.047414355 -35.224808 -200 45 -200 45 -200 45
240250000 -0.055727657 -36.560432 -200 45 -200 45 -200 45
248500000 -0.075292654 -37.827682 -200 45 -200 45 -200 45
256750000 -0.094681084 -39.197678 -200 45 -200 45 -200 45
265000000 -0.10779233 -40.43116 -200 45 -200 45 -200 45
273250000 -0.13313231 -41.752869 -200 45 -200 45 -200 45
281500000 -0.1464618 -42.939426 -200 45 -200 45 -200 45
289750000 -0.15907291 -44.100826 -200 45 -200 45 -200 45
298000000 -0.16738716 -45.362453 -200 45 -200 45 -200 45
306250000 -0.16318665 -46.663849 -200 45 -200 45 -200 45
314500000 -0.18424696 -47.997696 -200 45 -200 45 -200 45
322750000 -0.20339252 -49.312691 -200 45 -200 45 -200 45
331000000 -0.22683954 -50.583984 -200 45 -200 45 -200 45
339250000 -0.25293636 -51.756458 -200 45 -200 45 -200 45
347500000 -0.26487222 -52.974129 -200 45 -200 45 -200 45
355750000 -0.27396709 -54.143501 -200 45 -200 45 -200 45
364000000 -0.28766 -55.297462 -200 45 -200 45 -200 45
372250000 -0.28452271 -56.538277 -200 45 -200 45 -200 45
380500000 -0.28510264 -57.85556 -200 45 -200 45 -200 45
388750000 -0.28379506 -59.141804 -200 45 -200 45 -200 45
397000000 -0.28171501 -60.481339 -200 45 -200 45 -200 45
405250000 -0.28751647 -61.923828 -200 45 -200 45 -200 45
413500000 -0.30912489 -63.329079 -200 45 -200 45 -200 45
421750000 -0.34035161 -64.742897 -200 45 -200 45 -200 45
430000000 -0.37340373 -66.098274 -200 45 -200 45 -200 45
438250000 -0.40313974 -67.379288 -200 45 -200 45 -200 45
446500000 -0.43994713 -68.641197 -200 45 -200 45 -200 45
454750000 -0.45512229 -69.947372 -200 45 -200 45 -200 45
463000000 -0.48183337 -71.292824 -200 45 -200 45 -200 45
471250000 -0.51451933 -72.685257 -200 45 -200 45 -200 45
479500000 -0.5685823 -74.022873 -200 45 -200 45 -200 45
487750000 -0.61602014 -75.285248 -200 45 -200 45 -200 45
496000000 -0.67178118 -76.526825 -200 45 -200 45 -200 45
504250000 -0.70794964 -77.706093 -200 45 -200 45 -200 45
512500000 -0.74692762 -78.925034 -200 45 -200 45 -200 45
520750000 -0.79231828 -80.115097 -200 45 -200 45 -200 45
529000000 -0.85162997 -81.333931 -200 45 -200 45 -200 45
537250000 -0.89777642 -82.328064 -200 45 -200 45 -200 45
545500000 -0.91484427 -83.35836 -200 45 -200 45 -200 45
553750000 -0.94636613 -84.45771 -200 45 -200 45 -200 45
562000000 -0.96631014 -85.490265 -200 45 -200 45 -200 45
570250000 -0.95885807 -86.645348 -200 45 -200 45 -200 45
578500000 -0.9896487 -88.058006 -200 45 -200 45 -200 45
586750000 -1.0386571 -89.189735 -200 45 -200 45 -200 45
595000000 -1.0721146 -90.299522 -200 45 -200 45 -200 45
603250000 -1.0977721 -91.271385 -200 45 -200 45 -200 45
611500000 -1.1152732 -92.422043 -200 45 -200 45 -200 45
619750000 -1.1270186 -93.607788 -200 45 -200 45 -200 45
628000000 -1.1607823 -94.837006 -200 45 -200 45 -200 45
636250000 -1.1779486 -95.928696 -200 45 -200 45 -200 45
644500000 -1.1938255 -97.20816 -200 45 -200 45 -200 45
652750000 -1.2215558 -98.471458 -200 45 -200 45 -200 45
661000000 -1.2628759 -99.708656 -200 45 -200 45 -200 45
669250000 -1.3060218 -101.02172 -200 45 -200 45 -200 45
677500000 -1.3568658 -102.1767 -200 45 -200 45 -200 45
685750000 -1.4172206 -103.29752 -200 45 -200 45 -200 45
694000000 -1.4744725 -104.38467 -200 45 -200 45 -200 45
702250000 -1.5604752 -105.30006 -200 45 -200 45 -200 45
710500000 -1.6218356 -105.89653 -200 45 -200 45 -200 45
718750000 -1.630567 -106.55917 -200 45 -200 45 -200 45
727000000 -1.6239879 -107.33155 -200 45 -200 45 -200 45
735250000 -1.6091429 -108.09064 -200 45 -200 45 -200 45
743500000 -1.5651689 -109.0035 -200 45 -200 45 -200 45
751750000 -1.5276991 -109.98368 -200 45 -200 45 -200 45
760000000 -1.4748648 -111.1376 -200 45 -200 45 -200 45
768250000 -1.4425334 -112.4855 -200 45 -200 45 -200 45
776500000 -1.4157776 -113.80777 -200 45 -200 45 -200 45
784750000 -1.4219848 -115.23178 -200 45 -200 45 -200 45
793000000 -1.4327925 -116.51292 -200 45 -200 45 -200 45
801250000 -1.43683 -117.7407 -200 45 -200 45 -200 45
809500000 -1.4403393 -119.16457 -200 45 -200 45 -200 45
817750000 -1.4983418 -120.45771 -200 45 -200 45 -200 45
826000000 -1.5334293 -121.5068 -200 45 -200 45 -200 45
834250000 -1.5703331 -122.55624 -200 45 -200 45 -200 45
842500000 -1.5832113 -123.41804 -200 45 -200 45 -200 45
850750000 -1.5670995 -124.43194 -200 45 -200 45 -200 45
859000000 -1.5653868 -125.53809 -200 45 -200 45 -200 45
867250000 -1.5609888 -126.4967 -200 45 -200 45 -200 45
875500000 -1.5365586 -127.53489 -200 45 -200 45 -200 45
883750000 -1.5144663 -128.7352 -200 45 -200 45 -200 45
892000000 -1.4895204 -129.79832 -200 45 -200 45 -200 45
900250000 -1.460748 -130.9922 -200 45 -200 45 -200 45
908500000 -1.4401233 -132.24216 -200 45 -200 45 -200 45
916750000 -1.4191259 -133.44049 -200 45 -200 45 -200 45
925000000 -1.3743235 -134.7047 -200 45 -200 45 -200 45
933250000 -1.3510462 -135.97003 -200 45 -200 45 -200 45
941500000 -1.3138605 -137.34245 -200 45 -200 45 -200 45
949750000 -1.2749391 -138.79082 -200 45 -200 45 -200 45
958000000 -1.25739 -140.25714 -200 45 -200 45 -200 45
966250000 -1.2307743 -141.77621 -200 45 -200 45 -200 45
974500000 -1.2148092 -143.41798 -200 45 -200 45 -200 45
982750000 -1.2304897 -145.0663 -200 45 -200 45 -200 45
991000000 -1.2606025 -146.60789 -200 45 -200 45 -200 45
999250000 -1.2985996 -148.12183 -200 45 -200 45 -200 45
1007500000 -1.3430206 -149.47641 -200 45 -200 45 -200 45
1015750000 -1.3879746 -150.71471 -200 45 -200 45 -200 45
1024000000 -1.4156754 -151.92143 -200 45 -200 45 -200 45
1032250000 -1.424997 -153.05598 -200 45 -200 45 -200 45
1040500000 -1.4317799 -154.20796 -200 45 -200 45 -200 45
1048750000 -1.4266227 -155.47107 -200 45 -200 45 -200 45
1057000000 -1.4120076 -156.76579 -200 45 -200 45 -200 45
1065250000 -1.4076967 -158.06796 -200 45 -200 45 -200 45
1073500000 -1.4066906 -159.40494 -200 45 -200 45 -200 45
1081750000 -1.4136192 -160.7101 -200 45 -200 45 -200 45
1090000000 -1.4068054 -162.03084 -200 45 -200 45 -200 45
1098250000 -1.391318 -163.39587 -200 45 -200 45 -200 45
1106500000 -1.3950027 -164.79822 -200 45 -200 45 -200 45
1114750000 -1.3919289 -166.14981 -200 45 -200 45 -200 45
1123000000 -1.3888606 -167.48358 -200 45 -200 45 -200 45
1131250000 -1.3792385 -168.91394 -200 45 -200 45 -200 45
1139500000 -1.3853798 -170.36635 -200 45 -200 45 -200 45
1147750000 -1.3832932 -171.77208 -200 45 -200 45 -200 45
1156000000 -1.3913344 -173.20155 -200 45 -200 45 -200 45
1164250000 -1.3943995 -174.61694 -200 45 -200 45 -200 45
1172500000 -1.4111043 -176.05643 -200 45 -200 45 -200 45
1180750000 -1.4176253 -177.38797 -200 45 -200 45 -200 45
1189000000 -1.4304738 -178.77579 -200 45 -200 45 -200 45
1197250000 -1.4346554 179.91443 -200 45 -200 45 -200 45
1205500000 -1.4310583 178.57465 -200 45 -200 45 -200 45
1213750000 -1.4237686 177.16428 -200 45 -200 45 -200 45
1222000000 -1.426385 175.75264 -200 45 -200 45 -200 45
1230250000 -1.4226938 174.36069 -200 45 -200 45 -200 45
1238500000 -1.4297132 172.93111 -200 45 -200 45 -200 45
1246750000 -1.4317212 171.5526 -200 45 -200 45 -200 45
1255000000 -1.424221 170.16068 -200 45 -200 45 -200 45
1263250000 -1.4246347 168.68039 -200 45 -200 45 -200 45
1271500000 -1.4267734 167.23224 -200 45 -200 45 -200 45
1279750000 -1.4264901 165.79773 -200 45 -200 45 -200 45
1288000000 -1.4294118 164.39587 -200 45 -200 45 -200 45
1296250000 -1.413525 162.95914 -200 45 -200 45 -200 45
1304500000 -1.4053649 161.43089 -200 45 -200 45 -200 45
1312750000 -1.4075334 159.92139 -200 45 -200 45 -200 45
1321000000 -1.4042705 158.33633 -200 45 -200 45 -200 45
1329250000 -1.4081972 156.83649 -200 45 -200 45 -200 45
1337500000 -1.4145548 155.26154 -200 45 -200 45 -200 45
1345750000 -1.4259372 153.72649 -200 45 -200 45 -200 45
1354000000 -1.4306531 152.27998 -200 45 -200 45 -200 45
1362250000 -1.4204818 150.77373 -200 45 -200 45 -200 45
1370500000 -1.4260317 149.19264 -200 45 -200 45 -200 45
1378750000 -1.4287318 147.62505 -200 45 -200 45 -200 45
1387000000 -1.4410095 146.07832 -200 45 -200 45 -200 45
1395250000 -1.4468603 144.5031 -200 45 -200 45 -200 45
1403500000 -1.4609672 142.91832 -200 45 -200 45 -200 45
1411750000 -1.4709927 141.36554 -200 45 -200 45 -200 45
1420000000 -1.4832809 139.7719 -200 45 -200 45 -200 45
1428250000 -1.5070859 138.21121 -200 45 -200 45 -200 45
1436500000 -1.5214239 136.68536 -200 45 -200 45 -200 45
1444750000 -1.5325906 135.12619 -200 45 -200 45 -200 45
1453000000 -1.5522569 133.52811 -200 45 -200 45 -200 45
1461250000 -1.5747603 131.88792 -200 45 -200 45 -200 45
1469500000 -1.603645 130.39948 -200 45 -200 45 -200 45
1477750000 -1.6294129 128.87288 -200 45 -200 45 -200 45
1486000000 -1.6550405 127.41525 -200 45 -200 45 -200 45
1494250000 -1.6670889 125.89883 -200 45 -200 45 -200 45
1502500000 -1.6875712 124.3676 -200 45 -200 45 -200 45
1510750000 -1.7063597 122.82963 -200 45 -200 45 -200 45
1519000000 -1.7195725 121.24867 -200 45 -200 45 -200 45
1527250000 -1.7445632 119.69295 -200 45 -200 45 -200 45
1535500000 -1.7719107 118.17896 -200 45 -200 45 -200 45
1543750000 -1.7919387 116.66488 -200 45 -200 45 -200 45
1552000000 -1.815502 115.19162 -200 45 -200 45 -200 45
1560250000 -1.8340532 113.67879 -200 45 -200 45 -200 45
1568500000 -1.8526746 112.18288 -200 45 -200 45 -200 45
1576750000 -1.8702896 110.63564 -200 45 -200 45 -200 45
1585000000 -1.8965336 109.09828 -200 45 -200 45 -200 45
1593250000 -1.9063993 107.62453 -200 45 -200 45 -200 45
1601500000 -1.9209251 106.11742 -200 45 -200 45 -200 45
1609750000 -1.9375161 104.57616 -200 45 -200 45 -200 45
1618000000 -1.9558946 103.04523 -200 45 -200 45 -200 45
1626250000 -1.9642171 101.53265 -200 45 -200 45 -200 45
1634500000 -1.9686803 99.935158 -200 45 -200 45 -200 45
1642750000 -1.9865738 98.319077 -200 45 -200 45 -200 45
1651000000 -2.0053332 96.714409 -200 45 -200 45 -200 45
1659250000 -2.027812 95.097816 -200 45 -200 45 -200 45
1667500000 -2.0627873 93.482536 -200 45 -200 45 -200 45
1675750000 -2.0850441 91.906052 -200 45 -200 45 -200 45
1684000000 -2.1304111 90.334686 -200 45 -200 45 -200 45
1692250000 -2.1632359 88.814293 -200 45 -200 45 -200 45
1700500000 -2.1812124 87.330551 -200 45 -200 45 -200 45
1708750000 -2.1998334 85.825401 -200 45 -200 45 -200 45
1717000000 -2.2180176 84.269913 -200 45 -200 45 -200 45
1725250000 -2.2437763 82.666512 -200 45 -200 45 -200 45
1733500000 -2.2708423 81.180229 -200 45 -200 45 -200 45
1741750000 -2.267683 79.56144 -200 45 -200 45 -200 45
1750000000 -2.2969701 77.867691 -200 45 -200 45 -200 45
1758250000 -2.3342493 76.246811 -200 45 -200 45 -200 45
1766500000 -2.3636212 74.640633 -200 45 -200 45 -200 45
1774750000 -2.3980887 73.034485 -200 45 -200 45 -200 45
1783000000 -2.4297104 71.44117 -200 45 -200 45 -200 45
1791250000 -2.466496 69.80011 -200 45 -200 45 -200 45
1799500000 -2.5124235 68.231316 -200 45 -200 45 -200 45
1807750000 -2.5590243 66.640961 -200 45 -200 45 -200 45
1816000000 -2.6111588 65.221893 -200 45 -200 45 -200 45
1824250000 -2.6380992 63.744293 -200 45 -200 45 -200 45
1832500000 -2.6630309 62.192097 -200 45 -200 45 -200 45
1840750000 -2.7039204 60.603485 -200 45 -200 45 -200 45
1849000000 -2.7346692 59.082798 -200 45 -200 45 -200 45
1857250000 -2.7835829 57.516369 -200 45 -200 45 -200 45
1865500000 -2.8263228 56.048634 -200 45 -200 45 -200 45
1873750000 -2.8573949 54.584923 -200 45 -200 45 -200 45
1882000000 -2.8985507 52.937813 -200 45 -200 45 -200 45
1890250000 -2.9550345 51.49012 -200 45 -200 45 -200 45
1898500000 -2.9897223 50.150871 -200 45 -200 45 -200 45
1906750000 -3.0054295 48.633934 -200 45 -200 45 -200 45
1915000000 -3.044137 47.040646 -200 45 -200 45 -200 45
1923250000 -3.0906467 45.52565 -200 45 -200 45 -200 45
1931500000 -3.1371403 44.020348 -200 45 -200 45 -200 45
1939750000 -3.1883414 42.52113 -200 45 -200 45 -200 45
1948000000 -3.2476945 41.143459 -200 45 -200 45 -200 45
1956250000 -3.2912574 39.871021 -200 45 -200 45 -200 45
1964500000 -3.3171368 38.533714 -200 45 -200 45 -200 45
1972750000 -3.3484406 37.130539 -200 45 -200 45 -200 45
1981000000 -3.370429 35.726471 -200 45 -200 45 -200 45
1989250000 -3.4021423 34.381046 -200 45 -200 45 -200 45
1997500000 -3.4196398 32.9058 -200 45 -200 45 -200 45
2005750000 -3.4620595 31.5098 -200 45 -200 45 -200 45
2014000000 -3.497472 30.182928 -200 45 -200 45 -200 45
2022250000 -3.5157602 28.857693 -200 45 -200 45 -200 45
2030500000 -3.521842 27.684467 -200 45 -200 45 -200 45
2038750000 -3.5037746 26.281757 -200 45 -200 45 -200 45
2047000000 -3.4862411 24.80971 -200 45 -200 45 -200 45
2055250000 -3.4710758 23.145273 -200 45 -200 45 -200 45
2063500000 -3.4765732 21.492908 -200 45 -200 45 -200 45
2071750000 -3.4803705 19.830389 -200 45 -200 45 -200 45
2080000000 -3.4870868 18.112928 -200 45 -200 45 -200 45
2088250000 -3.5057588 16.330378 -200 45 -200 45 -200 45
2096500000 -3.5360491 14.523875 -200 45 -200 45 -200 45
2104750000 -3.5746384 12.832053 -200 45 -200 45 -200 45
2113000000 -3.6266074 11.042064 -200 45 -200 45 -200 45
2121250000 -3.6690321 9.3265896 -200 45 -200 45 -200 45
2129500000 -3.7263074 7.4740782 -200 45 -200 45 -200 45
2137750000 -3.8325632 5.6718831 -200 45 -200 45 -200 45
2146000000 -3.9526029 4.1773643 -200 45 -200 45 -200 45
2154250000 -4.0426898 2.9015546 -200 45 -200 45 -200 45
2162500000 -4.1265893 1.7219027 -200 45 -200 45 -200 45
2170750000 -4.208374 0.40393135 -200 45 -200 45 -200 45
2179000000 -4.2754717 -0.69030333 -200 45 -200 45 -200 45
2187250000 -4.3106375 -1.7743999 -200 45 -200 45 -200 45
2195500000 -4.3466415 -3.0458107 -200 45 -200 45 -200 45
2203750000 -4.3822918 -4.2751498 -200 45 -200 45 -200 45
2212000000 -4.4084229 -5.4965186 -200 45 -200 45 -200 45
2220250000 -4.4485645 -6.6672015 -200 45 -200 45 -200 45
2228500000 -4.4592695 -7.8539023 -200 45 -200 45 -200 45
2236750000 -4.4771628 -9.1445856 -200 45 -200 45 -200 45
2245000000 -4.491106 -10.482306 -200 45 -200 45 -200 45
2253250000 -4.5229306 -11.81852 -200 45 -200 45 -200 45
2261500000 -4.5744591 -12.983923 -200 45 -200 45 -200 45
2269750000 -4.5771618 -13.992111 -200 45 -200 45 -200 45
2278000000 -4.567533 -15.205488 -200 45 -200 45 -200 45
2286250000 -4.5498652 -16.343538 -200 45 -200 45 -200 45
2294500000 -4.5123291 -17.628065 -200 45 -200 45 -200 45
2302750000 -4.4851298 -19.112928 -200 45 -200 45 -200 45
2311000000 -4.4836087 -20.552732 -200 45 -200 45 -200 45
2319250000 -4.4609351 -21.928988 -200 45 -200 45 -200 45
2327500000 -4.4563994 -23.377216 -200 45 -200 45 -200 45
2335750000 -4.4210782 -24.680046 -200 45 -200 45 -200 45
2344000000 -4.3882418 -26.188957 -200 45 -200 45 -200 45
2352250000 -4.342351 -27.6688 -200 45 -200 45 -200 45
2360500000 -4.3091273 -29.384409 -200 45 -200 45 -200 45
2368750000 -4.2851043 -31.059332 -200 45 -200 45 -200 45
2377000000 -4.265275 -32.709324 -200 45 -200 45 -200 45
2385250000 -4.2472525 -34.379387 -200 45 -200 45 -200 45
2393500000 -4.2180076 -36.077293 -200 45 -200 45 -200 45
2401750000 -4.1915808 -37.799194 -200 45 -200 45 -200 45
2410000000 -4.1655297 -39.656273 -200 45 -200 45 -200 45
2418250000 -4.1621337 -41.521408 -200 45 -200 45 -200 45
2426500000 -4.1461229 -43.314445 -200 45 -200 45 -200 45
2434750000 -4.1201496 -45.088322 -200 45 -200 45 -200 45
2443000000 -4.0872931 -47.023056 -200 45 -200 45 -200 45
2451250000 -4.0646286 -49.171417 -200 45 -200 45 -200 45
2459500000 -4.0641694 -51.35891 -200 45 -200 45 -200 45
2467750000 -4.0957594 -53.545952 -200 45 -200 45 -200 45
2476000000 -4.1505094 -55.56691 -200 45 -200 45 -200 45
2484250000 -4.1904612 -57.421448 -200 45 -200 45 -200 45
2492500000 -4.2100053 -59.262459 -200 45 -200 45 -200 45
2500750000 -4.2058282 -61.113632 -200 45 -200 45 -200 45
2509000000 -4.2122512 -63.170349 -200 45 -200 45 -200 45
2517250000 -4.2187648 -65.312988 -200 45 -200 45 -200 45
2525500000 -4.2391138 -67.518692 -200 45 -200 45 -200 45
2533750000 -4.2772145 -69.827805 -200 45 -200 45 -200 45
2542000000 -4.3313389 -72.098587 -200 45 -200 45 -200 45
2550250000 -4.4242506 -74.353088 -200 45 -200 45 -200 45
2558500000 -4.4984488 -76.230217 -200 45 -200 45 -200 45
2566750000 -4.5650425 -78.240379 -200 45 -200 45 -200 45
2575000000 -4.6362276 -80.158623 -200 45 -200 45 -200 45
2583250000 -4.6941447 -82.071381 -200 45 -200 45 -200 45
2591500000 -4.7404084 -84.056091 -200 45 -200 45 -200 45
2599750000 -4.7848821 -86.019279 -200 45 -200 45 -200 45
2608000000 -4.8164511 -88.176437 -200 45 -200 45 -200 45
2616250000 -4.8753991 -90.554787 -200 45 -200 45 -200 45
2624500000 -4.980145 -92.89389 -200 45 -200 45 -200 45
2632750000 -5.0888777 -94.88401 -200 45 -200 45 -200 45
2641000000 -5.1636615 -96.806099 -200 45 -200 45 -200 45
2649250000 -5.2390265 -98.888344 -200 45 -200 45 -200 45
2657500000 -5.2981281 -101.02052 -200 45 -200 45 -200 45
2665750000 -5.3714795 -103.33092 -200 45 -200 45 -200 45
2674000000 -5.4825273 -105.6282 -200 45 -200 45 -200 45
2682250000 -5.6151571 -107.75434 -200 45 -200 45 -200 45
2690500000 -5.7071953 -109.692 -200 45 -200 45 -200 45
2698750000 -5.8099651 -111.84553 -200 45 -200 45 -200 45
2707000000 -5.9181337 -113.94832 -200 45 -200 45 -200 45
2715250000 -6.0221319 -115.96834 -200 45 -200 45 -200 45
2723500000 -6.1313968 -117.8774 -200 45 -200 45 -200 45
2731750000 -6.1851463 -119.86254 -200 45 -200 45 -200 45
2740000000 -6.2500563 -122.11063 -200 45 -200 45 -200 45
2748250000 -6.3400636 -124.50334 -200 45 -200 45 -200 45
2756500000 -6.4514318 -126.80396 -200 45 -200 45 -200 45
2764750000 -6.5568495 -129.29596 -200 45 -200 45 -200 45
2773000000 -6.7168665 -131.78568 -200 45 -200 45 -200 45
2781250000 -6.8857198 -133.92213 -200 45 -200 45 -200 45
2789500000 -7.0372558 -135.91905 -200 45 -200 45 -200 45
2797750000 -7.1665196 -137.98616 -200 45 -200 45 -200 45
2806000000 -7.2990937 -139.94218 -200 45 -200 45 -200 45
2814250000 -7.4007225 -142.06587 -200 45 -200 45 -200 45
2822500000 -7.5322704 -144.35454 -200 45 -200 45 -200 45
2830750000 -7.6874847 -146.61679 -200 45 -200 45 -200 45
2839000000 -7.8304968 -148.60699 -200 45 -200 45 -200 45
2847250000 -7.9544673 -150.7516 -200 45 -200 45 -200 45
2855500000 -8.0658312 -153.02846 -200 45 -200 45 -200 45
2863750000 -8.2242756 -155.31494 -200 45 -200 45 -200 45
2872000000 -8.366209 -157.50565 -200 45 -200 45 -200 45
2880250000 -8.5148153 -159.60378 -200 45 -200 45 -200 45
2888500000 -8.6450768 -161.82346 -200 45 -200 45 -200 45
2896750000 -8.7873077 -164.05298 -200 45 -200 45 -200 45
2905000000 -8.9241409 -166.23602 -200 45 -200 45 -200 45
2913250000 -9.0511923 -168.48264 -200 45 -200 45 -200 45
2921500000 -9.220191 -170.72954 -200 45 -200 45 -200 45
2929750000 -9.3617735 -172.6331 -200 45 -200 45 -200 45
2938000000 -9.4271345 -174.58302 -200 45 -200 45 -200 45
2946250000 -9.462882 -177.07513 -200 45 -200 45 -200 45
2954500000 -9.553215 -179.86154 -200 45 -200 45 -200 45
2962750000 -9.6601582 177.26782 -200 45 -200 45 -200 45
2971000000 -9.8134727 174.07646 -200 45 -200 45 -200 45
2979250000 -10.042881 171.30159 -200 45 -200 45 -200 45
2987500000 -10.241721 168.86749 -200 45 -200 45 -200 45
