!Keysight Technologies,N5222B,MY60213399,A.14.00.23
!Date: Tuesday, February 27, 2024 20:50:35
!Correction: S11(C  1-Port  ) 
!S21(Off) 
!S12(Off) 
!S22(Off) 
!S2P File: Measurement: :
# Hz S  dB   R 50
18000000000 -8.5398254 149.2047 -200 45 -200 45 -200 45
18005312500 -8.505187 148.55606 -200 45 -200 45 -200 45
18010625000 -8.4613428 147.94496 -200 45 -200 45 -200 45
18015937500 -8.4206858 147.38635 -200 45 -200 45 -200 45
18021250000 -8.3816328 146.81645 -200 45 -200 45 -200 45
18026562500 -8.3298588 146.18166 -200 45 -200 45 -200 45
18031875000 -8.2836838 145.61501 -200 45 -200 45 -200 45
18037187500 -8.2494869 145.02411 -200 45 -200 45 -200 45
18042500000 -8.2035875 144.4306 -200 45 -200 45 -200 45
18047812500 -8.1607695 143.85861 -200 45 -200 45 -200 45
18053125000 -8.1233387 143.22255 -200 45 -200 45 -200 45
18058437500 -8.0653238 142.61018 -200 45 -200 45 -200 45
18063750000 -8.0235949 141.98041 -200 45 -200 45 -200 45
18069062500 -7.9856653 141.3667 -200 45 -200 45 -200 45
18074375000 -7.935575 140.74367 -200 45 -200 45 -200 45
18079687500 -7.9052596 140.15004 -200 45 -200 45 -200 45
18085000000 -7.8707571 139.57652 -200 45 -200 45 -200 45
18090312500 -7.8386312 139.00594 -200 45 -200 45 -200 45
18095625000 -7.7917557 138.44354 -200 45 -200 45 -200 45
18100937500 -7.7485943 137.85838 -200 45 -200 45 -200 45
18106250000 -7.715591 137.23529 -200 45 -200 45 -200 45
18111562500 -7.678051 136.64603 -200 45 -200 45 -200 45
18116875000 -7.6383142 136.04472 -200 45 -200 45 -200 45
18122187500 -7.6131768 135.45299 -200 45 -200 45 -200 45
18127500000 -7.5772295 134.85378 -200 45 -200 45 -200 45
18132812500 -7.549078 134.28246 -200 45 -200 45 -200 45
18138125000 -7.5226293 133.73293 -200 45 -200 45 -200 45
18143437500 -7.5040908 133.14247 -200 45 -200 45 -200 45
18148750000 -7.4735436 132.6096 -200 45 -200 45 -200 45
18154062500 -7.442709 132.08774 -200 45 -200 45 -200 45
18159375000 -7.4173961 131.55147 -200 45 -200 45 -200 45
18164687500 -7.386024 131.02122 -200 45 -200 45 -200 45
18170000000 -7.3575726 130.43343 -200 45 -200 45 -200 45
18175312500 -7.3295403 129.89606 -200 45 -200 45 -200 45
18180625000 -7.3007646 129.35973 -200 45 -200 45 -200 45
18185937500 -7.2689514 128.77872 -200 45 -200 45 -200 45
18191250000 -7.2388806 128.24083 -200 45 -200 45 -200 45
18196562500 -7.2077942 127.66277 -200 45 -200 45 -200 45
18201875000 -7.1859779 127.11914 -200 45 -200 45 -200 45
18207187500 -7.1448932 126.5556 -200 45 -200 45 -200 45
18212500000 -7.1147418 126.00754 -200 45 -200 45 -200 45
18217812500 -7.0797038 125.42815 -200 45 -200 45 -200 45
18223125000 -7.0502639 124.83057 -200 45 -200 45 -200 45
18228437500 -7.0153193 124.29767 -200 45 -200 45 -200 45
18233750000 -6.9857526 123.73756 -200 45 -200 45 -200 45
18239062500 -6.9506135 123.18056 -200 45 -200 45 -200 45
18244375000 -6.9185653 122.54601 -200 45 -200 45 -200 45
18249687500 -6.8850288 121.95307 -200 45 -200 45 -200 45
18255000000 -6.8581271 121.38896 -200 45 -200 45 -200 45
18260312500 -6.8263988 120.8325 -200 45 -200 45 -200 45
18265625000 -6.7866182 120.25425 -200 45 -200 45 -200 45
18270937500 -6.7537608 119.692 -200 45 -200 45 -200 45
18276250000 -6.7213883 119.11653 -200 45 -200 45 -200 45
18281562500 -6.6867971 118.50671 -200 45 -200 45 -200 45
18286875000 -6.6586304 117.91539 -200 45 -200 45 -200 45
18292187500 -6.633532 117.32342 -200 45 -200 45 -200 45
18297500000 -6.6058979 116.77193 -200 45 -200 45 -200 45
18302812500 -6.5810294 116.19037 -200 45 -200 45 -200 45
18308125000 -6.5506806 115.70515 -200 45 -200 45 -200 45
18313437500 -6.5232477 115.16993 -200 45 -200 45 -200 45
18318750000 -6.4923325 114.57434 -200 45 -200 45 -200 45
18324062500 -6.4575701 114.04435 -200 45 -200 45 -200 45
18329375000 -6.4291973 113.51014 -200 45 -200 45 -200 45
18334687500 -6.400228 112.93663 -200 45 -200 45 -200 45
18340000000 -6.3785634 112.3323 -200 45 -200 45 -200 45
18345312500 -6.3603888 111.76621 -200 45 -200 45 -200 45
18350625000 -6.3378663 111.23914 -200 45 -200 45 -200 45
18355937500 -6.3182607 110.74145 -200 45 -200 45 -200 45
18361250000 -6.2942863 110.22081 -200 45 -200 45 -200 45
18366562500 -6.2734275 109.69906 -200 45 -200 45 -200 45
18371875000 -6.2490406 109.21735 -200 45 -200 45 -200 45
18377187500 -6.2219815 108.66447 -200 45 -200 45 -200 45
18382500000 -6.1972809 108.1318 -200 45 -200 45 -200 45
18387812500 -6.1767426 107.60401 -200 45 -200 45 -200 45
18393125000 -6.1565189 107.06402 -200 45 -200 45 -200 45
18398437500 -6.1311431 106.55384 -200 45 -200 45 -200 45
18403750000 -6.1162543 106.02158 -200 45 -200 45 -200 45
18409062500 -6.0855341 105.50806 -200 45 -200 45 -200 45
18414375000 -6.0567203 104.96078 -200 45 -200 45 -200 45
18419687500 -6.0395141 104.42315 -200 45 -200 45 -200 45
18425000000 -6.018364 103.85534 -200 45 -200 45 -200 45
18430312500 -6.0067444 103.31041 -200 45 -200 45 -200 45
18435625000 -5.9830141 102.81432 -200 45 -200 45 -200 45
18440937500 -5.9664226 102.30618 -200 45 -200 45 -200 45
18446250000 -5.9356074 101.75703 -200 45 -200 45 -200 45
18451562500 -5.903605 101.23996 -200 45 -200 45 -200 45
18456875000 -5.8902302 100.70865 -200 45 -200 45 -200 45
18462187500 -5.8643279 100.13561 -200 45 -200 45 -200 45
18467500000 -5.8465915 99.570274 -200 45 -200 45 -200 45
18472812500 -5.82687 99.051872 -200 45 -200 45 -200 45
18478125000 -5.8066435 98.512253 -200 45 -200 45 -200 45
18483437500 -5.7816749 97.949928 -200 45 -200 45 -200 45
18488750000 -5.7613835 97.414894 -200 45 -200 45 -200 45
18494062500 -5.7453842 96.869675 -200 45 -200 45 -200 45
18499375000 -5.7319365 96.315941 -200 45 -200 45 -200 45
18504687500 -5.7200522 95.817772 -200 45 -200 45 -200 45
18510000000 -5.7057285 95.279335 -200 45 -200 45 -200 45
18515312500 -5.6880221 94.766212 -200 45 -200 45 -200 45
18520625000 -5.6691136 94.264282 -200 45 -200 45 -200 45
18525937500 -5.6542487 93.809563 -200 45 -200 45 -200 45
18531250000 -5.633296 93.307999 -200 45 -200 45 -200 45
18536562500 -5.6136098 92.821213 -200 45 -200 45 -200 45
18541875000 -5.5893307 92.303505 -200 45 -200 45 -200 45
18547187500 -5.5669312 91.751511 -200 45 -200 45 -200 45
18552500000 -5.5458708 91.225914 -200 45 -200 45 -200 45
18557812500 -5.5302448 90.73642 -200 45 -200 45 -200 45
18563125000 -5.5148902 90.19986 -200 45 -200 45 -200 45
18568437500 -5.4975858 89.725304 -200 45 -200 45 -200 45
18573750000 -5.4786448 89.216187 -200 45 -200 45 -200 45
18579062500 -5.4589672 88.737061 -200 45 -200 45 -200 45
18584375000 -5.4443631 88.236313 -200 45 -200 45 -200 45
18589687500 -5.4281158 87.738579 -200 45 -200 45 -200 45
18595000000 -5.4077849 87.250389 -200 45 -200 45 -200 45
18600312500 -5.3912539 86.750252 -200 45 -200 45 -200 45
18605625000 -5.3694186 86.260117 -200 45 -200 45 -200 45
18610937500 -5.345921 85.749268 -200 45 -200 45 -200 45
18616250000 -5.33603 85.261848 -200 45 -200 45 -200 45
18621562500 -5.3161831 84.7463 -200 45 -200 45 -200 45
18626875000 -5.2959218 84.242523 -200 45 -200 45 -200 45
18632187500 -5.2793512 83.748604 -200 45 -200 45 -200 45
18637500000 -5.2693596 83.230965 -200 45 -200 45 -200 45
18642812500 -5.2524843 82.676315 -200 45 -200 45 -200 45
18648125000 -5.2467647 82.163559 -200 45 -200 45 -200 45
18653437500 -5.2344761 81.738899 -200 45 -200 45 -200 45
18658750000 -5.2114539 81.20192 -200 45 -200 45 -200 45
18664062500 -5.2059236 80.68367 -200 45 -200 45 -200 45
18669375000 -5.1952543 80.19117 -200 45 -200 45 -200 45
18674687500 -5.1843905 79.644325 -200 45 -200 45 -200 45
18680000000 -5.1800041 79.123123 -200 45 -200 45 -200 45
18685312500 -5.1623392 78.644272 -200 45 -200 45 -200 45
18690625000 -5.1525636 78.128471 -200 45 -200 45 -200 45
18695937500 -5.1478934 77.654427 -200 45 -200 45 -200 45
18701250000 -5.1425285 77.162689 -200 45 -200 45 -200 45
18706562500 -5.1271186 76.647507 -200 45 -200 45 -200 45
18711875000 -5.1219039 76.14769 -200 45 -200 45 -200 45
18717187500 -5.1177754 75.623169 -200 45 -200 45 -200 45
18722500000 -5.1084609 75.097275 -200 45 -200 45 -200 45
18727812500 -5.1001678 74.628395 -200 45 -200 45 -200 45
18733125000 -5.0970836 74.115295 -200 45 -200 45 -200 45
18738437500 -5.0911007 73.62381 -200 45 -200 45 -200 45
18743750000 -5.0885358 73.127388 -200 45 -200 45 -200 45
18749062500 -5.0802474 72.652832 -200 45 -200 45 -200 45
18754375000 -5.0707707 72.165024 -200 45 -200 45 -200 45
18759687500 -5.0667534 71.660042 -200 45 -200 45 -200 45
18765000000 -5.06353 71.209641 -200 45 -200 45 -200 45
18770312500 -5.0558233 70.728569 -200 45 -200 45 -200 45
18775625000 -5.048214 70.21257 -200 45 -200 45 -200 45
18780937500 -5.04318 69.751213 -200 45 -200 45 -200 45
18786250000 -5.0345678 69.300346 -200 45 -200 45 -200 45
18791562500 -5.0238996 68.840744 -200 45 -200 45 -200 45
18796875000 -5.0179706 68.329269 -200 45 -200 45 -200 45
18802187500 -5.0106831 67.840508 -200 45 -200 45 -200 45
18807500000 -5.0020328 67.404396 -200 45 -200 45 -200 45
18812812500 -4.9901247 66.913414 -200 45 -200 45 -200 45
18818125000 -4.9891033 66.445831 -200 45 -200 45 -200 45
18823437500 -4.9737711 65.973824 -200 45 -200 45 -200 45
18828750000 -4.9726992 65.518036 -200 45 -200 45 -200 45
18834062500 -4.9642606 65.08213 -200 45 -200 45 -200 45
18839375000 -4.954659 64.608269 -200 45 -200 45 -200 45
18844687500 -4.9483919 64.164734 -200 45 -200 45 -200 45
18850000000 -4.9400897 63.677956 -200 45 -200 45 -200 45
18855312500 -4.9273691 63.209835 -200 45 -200 45 -200 45
18860625000 -4.9204926 62.726913 -200 45 -200 45 -200 45
18865937500 -4.9171305 62.265213 -200 45 -200 45 -200 45
18871250000 -4.9089603 61.784698 -200 45 -200 45 -200 45
18876562500 -4.9050064 61.318756 -200 45 -200 45 -200 45
18881875000 -4.9028683 60.830212 -200 45 -200 45 -200 45
18887187500 -4.8983321 60.339321 -200 45 -200 45 -200 45
18892500000 -4.8920994 59.88501 -200 45 -200 45 -200 45
18897812500 -4.8923721 59.407803 -200 45 -200 45 -200 45
18903125000 -4.8943181 58.94381 -200 45 -200 45 -200 45
18908437500 -4.8875809 58.479733 -200 45 -200 45 -200 45
18913750000 -4.8863025 58.004501 -200 45 -200 45 -200 45
18919062500 -4.8843489 57.535992 -200 45 -200 45 -200 45
18924375000 -4.8794403 57.069702 -200 45 -200 45 -200 45
18929687500 -4.8825831 56.615437 -200 45 -200 45 -200 45
18935000000 -4.8801084 56.180897 -200 45 -200 45 -200 45
18940312500 -4.8778343 55.732368 -200 45 -200 45 -200 45
18945625000 -4.867219 55.242607 -200 45 -200 45 -200 45
18950937500 -4.8576488 54.746494 -200 45 -200 45 -200 45
18956250000 -4.857574 54.218979 -200 45 -200 45 -200 45
18961562500 -4.8602219 53.729771 -200 45 -200 45 -200 45
18966875000 -4.8566322 53.235668 -200 45 -200 45 -200 45
18972187500 -4.8533096 52.76276 -200 45 -200 45 -200 45
18977500000 -4.8561549 52.27142 -200 45 -200 45 -200 45
18982812500 -4.8529363 51.765362 -200 45 -200 45 -200 45
18988125000 -4.8463826 51.310036 -200 45 -200 45 -200 45
18993437500 -4.8460484 50.852222 -200 45 -200 45 -200 45
18998750000 -4.8460374 50.338791 -200 45 -200 45 -200 45
19004062500 -4.8446074 49.865788 -200 45 -200 45 -200 45
19009375000 -4.8425236 49.416065 -200 45 -200 45 -200 45
19014687500 -4.8422561 48.954681 -200 45 -200 45 -200 45
19020000000 -4.8455577 48.476681 -200 45 -200 45 -200 45
19025312500 -4.8445239 48.032341 -200 45 -200 45 -200 45
19030625000 -4.8382092 47.570087 -200 45 -200 45 -200 45
19035937500 -4.8350945 47.145298 -200 45 -200 45 -200 45
19041250000 -4.8403068 46.653908 -200 45 -200 45 -200 45
19046562500 -4.8383803 46.232975 -200 45 -200 45 -200 45
19051875000 -4.8415427 45.797169 -200 45 -200 45 -200 45
19057187500 -4.8373647 45.371227 -200 45 -200 45 -200 45
19062500000 -4.8440261 44.901833 -200 45 -200 45 -200 45
19067812500 -4.8382215 44.482048 -200 45 -200 45 -200 45
19073125000 -4.8401084 44.042835 -200 45 -200 45 -200 45
19078437500 -4.8423018 43.636879 -200 45 -200 45 -200 45
19083750000 -4.8374014 43.203243 -200 45 -200 45 -200 45
19089062500 -4.838089 42.814053 -200 45 -200 45 -200 45
19094375000 -4.8316774 42.334137 -200 45 -200 45 -200 45
19099687500 -4.8368797 41.901157 -200 45 -200 45 -200 45
19105000000 -4.8432388 41.410465 -200 45 -200 45 -200 45
19110312500 -4.8440285 40.987415 -200 45 -200 45 -200 45
19115625000 -4.8530011 40.550117 -200 45 -200 45 -200 45
19120937500 -4.8536062 40.128586 -200 45 -200 45 -200 45
19126250000 -4.8566046 39.713638 -200 45 -200 45 -200 45
19131562500 -4.8608241 39.284607 -200 45 -200 45 -200 45
19136875000 -4.8625059 38.863262 -200 45 -200 45 -200 45
19142187500 -4.8616242 38.423733 -200 45 -200 45 -200 45
19147500000 -4.8649325 37.958286 -200 45 -200 45 -200 45
19152812500 -4.8648953 37.485313 -200 45 -200 45 -200 45
19158125000 -4.8645716 37.033852 -200 45 -200 45 -200 45
19163437500 -4.8617229 36.54108 -200 45 -200 45 -200 45
19168750000 -4.8662834 36.073444 -200 45 -200 45 -200 45
19174062500 -4.8737016 35.582928 -200 45 -200 45 -200 45
19179375000 -4.8755074 35.106926 -200 45 -200 45 -200 45
19184687500 -4.8802538 34.647087 -200 45 -200 45 -200 45
19190000000 -4.8804197 34.216545 -200 45 -200 45 -200 45
19195312500 -4.8870311 33.704655 -200 45 -200 45 -200 45
19200625000 -4.8967452 33.22818 -200 45 -200 45 -200 45
19205937500 -4.8970914 32.807026 -200 45 -200 45 -200 45
19211250000 -4.8919597 32.32642 -200 45 -200 45 -200 45
19216562500 -4.8940339 31.809759 -200 45 -200 45 -200 45
19221875000 -4.8936672 31.330133 -200 45 -200 45 -200 45
19227187500 -4.8940835 30.817196 -200 45 -200 45 -200 45
19232500000 -4.8989925 30.348146 -200 45 -200 45 -200 45
19237812500 -4.8985763 29.878635 -200 45 -200 45 -200 45
19243125000 -4.9096293 29.408579 -200 45 -200 45 -200 45
19248437500 -4.9150162 28.912508 -200 45 -200 45 -200 45
19253750000 -4.9231811 28.471647 -200 45 -200 45 -200 45
19259062500 -4.93014 28.009363 -200 45 -200 45 -200 45
19264375000 -4.9313993 27.583426 -200 45 -200 45 -200 45
19269687500 -4.9367895 27.123482 -200 45 -200 45 -200 45
19275000000 -4.9380927 26.650003 -200 45 -200 45 -200 45
19280312500 -4.9453564 26.186258 -200 45 -200 45 -200 45
19285625000 -4.9511685 25.717386 -200 45 -200 45 -200 45
19290937500 -4.9630537 25.278769 -200 45 -200 45 -200 45
19296250000 -4.9669752 24.846046 -200 45 -200 45 -200 45
19301562500 -4.9760618 24.401827 -200 45 -200 45 -200 45
19306875000 -4.9797201 23.964579 -200 45 -200 45 -200 45
19312187500 -4.9851031 23.494827 -200 45 -200 45 -200 45
19317500000 -4.9979777 23.041117 -200 45 -200 45 -200 45
19322812500 -5.0071187 22.571352 -200 45 -200 45 -200 45
19328125000 -5.0170803 22.112534 -200 45 -200 45 -200 45
19333437500 -5.0300064 21.665081 -200 45 -200 45 -200 45
19338750000 -5.0432649 21.228012 -200 45 -200 45 -200 45
19344062500 -5.0458026 20.803377 -200 45 -200 45 -200 45
19349375000 -5.0623417 20.376064 -200 45 -200 45 -200 45
19354687500 -5.0667248 19.929897 -200 45 -200 45 -200 45
19360000000 -5.0717134 19.46546 -200 45 -200 45 -200 45
19365312500 -5.0799975 18.948715 -200 45 -200 45 -200 45
19370625000 -5.0916948 18.488098 -200 45 -200 45 -200 45
19375937500 -5.1099038 18.008755 -200 45 -200 45 -200 45
19381250000 -5.1197033 17.537273 -200 45 -200 45 -200 45
19386562500 -5.1364837 17.08124 -200 45 -200 45 -200 45
19391875000 -5.1515474 16.613239 -200 45 -200 45 -200 45
19397187500 -5.161963 16.194231 -200 45 -200 45 -200 45
19402500000 -5.1752238 15.775928 -200 45 -200 45 -200 45
19407812500 -5.1841331 15.284288 -200 45 -200 45 -200 45
19413125000 -5.186008 14.847898 -200 45 -200 45 -200 45
19418437500 -5.203033 14.325176 -200 45 -200 45 -200 45
19423750000 -5.2138262 13.866375 -200 45 -200 45 -200 45
19429062500 -5.2330403 13.45042 -200 45 -200 45 -200 45
19434375000 -5.2428536 13.030928 -200 45 -200 45 -200 45
19439687500 -5.2445884 12.593166 -200 45 -200 45 -200 45
19445000000 -5.2547922 12.132771 -200 45 -200 45 -200 45
19450312500 -5.2585621 11.643433 -200 45 -200 45 -200 45
19455625000 -5.2717938 11.182164 -200 45 -200 45 -200 45
19460937500 -5.2828608 10.724275 -200 45 -200 45 -200 45
19466250000 -5.3021598 10.282481 -200 45 -200 45 -200 45
19471562500 -5.3155651 9.8174629 -200 45 -200 45 -200 45
19476875000 -5.3255687 9.4179153 -200 45 -200 45 -200 45
19482187500 -5.33288 8.9944468 -200 45 -200 45 -200 45
19487500000 -5.3466196 8.6022415 -200 45 -200 45 -200 45
19492812500 -5.3568544 8.1665316 -200 45 -200 45 -200 45
19498125000 -5.3681989 7.7053318 -200 45 -200 45 -200 45
19503437500 -5.3728871 7.2682366 -200 45 -200 45 -200 45
19508750000 -5.3877192 6.7810421 -200 45 -200 45 -200 45
19514062500 -5.4040627 6.357625 -200 45 -200 45 -200 45
19519375000 -5.4197068 5.9526753 -200 45 -200 45 -200 45
19524687500 -5.4348249 5.5092435 -200 45 -200 45 -200 45
19530000000 -5.4472213 5.1042066 -200 45 -200 45 -200 45
19535312500 -5.4637041 4.666441 -200 45 -200 45 -200 45
19540625000 -5.4774294 4.2570972 -200 45 -200 45 -200 45
19545937500 -5.4943748 3.8235459 -200 45 -200 45 -200 45
19551250000 -5.5095954 3.3924017 -200 45 -200 45 -200 45
19556562500 -5.5247846 2.9457438 -200 45 -200 45 -200 45
19561875000 -5.5426226 2.5202522 -200 45 -200 45 -200 45
19567187500 -5.5563154 2.072506 -200 45 -200 45 -200 45
19572500000 -5.5704284 1.6080883 -200 45 -200 45 -200 45
19577812500 -5.5852628 1.1955595 -200 45 -200 45 -200 45
19583125000 -5.6035419 0.76539969 -200 45 -200 45 -200 45
19588437500 -5.6315179 0.32612142 -200 45 -200 45 -200 45
19593750000 -5.6473103 -0.11835056 -200 45 -200 45 -200 45
19599062500 -5.6703434 -0.52551907 -200 45 -200 45 -200 45
19604375000 -5.6837735 -0.96050709 -200 45 -200 45 -200 45
19609687500 -5.6940899 -1.4131068 -200 45 -200 45 -200 45
19615000000 -5.7194366 -1.8390075 -200 45 -200 45 -200 45
19620312500 -5.7272019 -2.3144503 -200 45 -200 45 -200 45
19625625000 -5.7492952 -2.7753017 -200 45 -200 45 -200 45
19630937500 -5.7745595 -3.2293749 -200 45 -200 45 -200 45
19636250000 -5.7938805 -3.6563442 -200 45 -200 45 -200 45
19641562500 -5.8085823 -4.1051946 -200 45 -200 45 -200 45
19646875000 -5.8322525 -4.5430155 -200 45 -200 45 -200 45
19652187500 -5.844944 -4.972662 -200 45 -200 45 -200 45
19657500000 -5.8613067 -5.3565555 -200 45 -200 45 -200 45
19662812500 -5.8766727 -5.7976613 -200 45 -200 45 -200 45
19668125000 -5.8896937 -6.2687664 -200 45 -200 45 -200 45
19673437500 -5.9040699 -6.6929865 -200 45 -200 45 -200 45
19678750000 -5.9203339 -7.1335392 -200 45 -200 45 -200 45
19684062500 -5.9422321 -7.6017957 -200 45 -200 45 -200 45
19689375000 -5.9641232 -7.9967585 -200 45 -200 45 -200 45
19694687500 -5.9817886 -8.4061222 -200 45 -200 45 -200 45
19700000000 -5.9930363 -8.8556824 -200 45 -200 45 -200 45
19705312500 -6.0084186 -9.2790747 -200 45 -200 45 -200 45
19710625000 -6.0285392 -9.7621469 -200 45 -200 45 -200 45
19715937500 -6.0435567 -10.165293 -200 45 -200 45 -200 45
19721250000 -6.0698357 -10.651551 -200 45 -200 45 -200 45
19726562500 -6.0904999 -11.11486 -200 45 -200 45 -200 45
19731875000 -6.1137776 -11.485034 -200 45 -200 45 -200 45
19737187500 -6.1350808 -11.891502 -200 45 -200 45 -200 45
19742500000 -6.150147 -12.257008 -200 45 -200 45 -200 45
19747812500 -6.1660547 -12.698573 -200 45 -200 45 -200 45
19753125000 -6.1923199 -13.129496 -200 45 -200 45 -200 45
19758437500 -6.2147794 -13.585357 -200 45 -200 45 -200 45
19763750000 -6.2330146 -14.00316 -200 45 -200 45 -200 45
19769062500 -6.2586803 -14.420435 -200 45 -200 45 -200 45
19774375000 -6.2816463 -14.856923 -200 45 -200 45 -200 45
19779687500 -6.3018112 -15.254762 -200 45 -200 45 -200 45
19785000000 -6.3204789 -15.723038 -200 45 -200 45 -200 45
19790312500 -6.344492 -16.141602 -200 45 -200 45 -200 45
19795625000 -6.3592329 -16.59137 -200 45 -200 45 -200 45
19800937500 -6.3789592 -17.039679 -200 45 -200 45 -200 45
19806250000 -6.4080081 -17.54641 -200 45 -200 45 -200 45
19811562500 -6.434382 -17.957781 -200 45 -200 45 -200 45
19816875000 -6.4597034 -18.40983 -200 45 -200 45 -200 45
19822187500 -6.4766903 -18.84067 -200 45 -200 45 -200 45
19827500000 -6.5013437 -19.304977 -200 45 -200 45 -200 45
19832812500 -6.5272198 -19.774763 -200 45 -200 45 -200 45
19838125000 -6.5405416 -20.247049 -200 45 -200 45 -200 45
