!Keysight Technologies,N5222B,MY60213399,A.14.00.23
!Date: Tuesday, February 27, 2024 20:31:58
!Correction: S11(C  1-Port  ) 
!S21(Off) 
!S12(Off) 
!S22(Off) 
!S2P File: Measurement: :
# Hz S  dB   R 50
100000000 0.00021070667 -13.851162 -200 45 -200 45 -200 45
108250000 0.0013675992 -14.999712 -200 45 -200 45 -200 45
116500000 0.00077340385 -16.157202 -200 45 -200 45 -200 45
124750000 0.0020812508 -17.308411 -200 45 -200 45 -200 45
133000000 -0.0019501689 -18.458578 -200 45 -200 45 -200 45
141250000 -0.007569178 -19.599857 -200 45 -200 45 -200 45
149500000 -0.0085681593 -20.728355 -200 45 -200 45 -200 45
157750000 -0.01323701 -21.846998 -200 45 -200 45 -200 45
166000000 -0.016405374 -22.958445 -200 45 -200 45 -200 45
174250000 -0.016341714 -24.072384 -200 45 -200 45 -200 45
182500000 -0.012729424 -25.193441 -200 45 -200 45 -200 45
190750000 -0.014698306 -26.324133 -200 45 -200 45 -200 45
199000000 -0.013181445 -27.482637 -200 45 -200 45 -200 45
207250000 -0.013264533 -28.622765 -200 45 -200 45 -200 45
215500000 -0.014406891 -29.768202 -200 45 -200 45 -200 45
223750000 -0.019986399 -30.92795 -200 45 -200 45 -200 45
232000000 -0.025028644 -32.083763 -200 45 -200 45 -200 45
240250000 -0.023017861 -33.216125 -200 45 -200 45 -200 45
248500000 -0.03339177 -34.374428 -200 45 -200 45 -200 45
256750000 -0.047015015 -35.550972 -200 45 -200 45 -200 45
265000000 -0.046266682 -36.676601 -200 45 -200 45 -200 45
273250000 -0.054373328 -37.808167 -200 45 -200 45 -200 45
281500000 -0.058378812 -38.878201 -200 45 -200 45 -200 45
289750000 -0.060589254 -39.984055 -200 45 -200 45 -200 45
298000000 -0.064542942 -41.126156 -200 45 -200 45 -200 45
306250000 -0.063765839 -42.250031 -200 45 -200 45 -200 45
314500000 -0.066983387 -43.369797 -200 45 -200 45 -200 45
322750000 -0.069797143 -44.547295 -200 45 -200 45 -200 45
331000000 -0.070404582 -45.668991 -200 45 -200 45 -200 45
339250000 -0.07165654 -46.850636 -200 45 -200 45 -200 45
347500000 -0.075180449 -47.968395 -200 45 -200 45 -200 45
355750000 -0.071833923 -49.119789 -200 45 -200 45 -200 45
364000000 -0.084943846 -50.234592 -200 45 -200 45 -200 45
372250000 -0.084723696 -51.400993 -200 45 -200 45 -200 45
380500000 -0.094353832 -52.545891 -200 45 -200 45 -200 45
388750000 -0.094098821 -53.68187 -200 45 -200 45 -200 45
397000000 -0.094359919 -54.842754 -200 45 -200 45 -200 45
405250000 -0.10218958 -56.020496 -200 45 -200 45 -200 45
413500000 -0.10585029 -57.143997 -200 45 -200 45 -200 45
421750000 -0.11287413 -58.314026 -200 45 -200 45 -200 45
430000000 -0.11600252 -59.491032 -200 45 -200 45 -200 45
438250000 -0.12954028 -60.642742 -200 45 -200 45 -200 45
446500000 -0.1381987 -61.810692 -200 45 -200 45 -200 45
454750000 -0.15618892 -62.978115 -200 45 -200 45 -200 45
463000000 -0.17065981 -64.092216 -200 45 -200 45 -200 45
471250000 -0.19203299 -65.225914 -200 45 -200 45 -200 45
479500000 -0.20267697 -66.264046 -200 45 -200 45 -200 45
487750000 -0.21542595 -67.379036 -200 45 -200 45 -200 45
496000000 -0.22570865 -68.467255 -200 45 -200 45 -200 45
504250000 -0.23336703 -69.585045 -200 45 -200 45 -200 45
512500000 -0.2439886 -70.679443 -200 45 -200 45 -200 45
520750000 -0.2549217 -71.769814 -200 45 -200 45 -200 45
529000000 -0.26081389 -72.918289 -200 45 -200 45 -200 45
537250000 -0.27919587 -74.041656 -200 45 -200 45 -200 45
545500000 -0.29180995 -75.12339 -200 45 -200 45 -200 45
553750000 -0.30131355 -76.201309 -200 45 -200 45 -200 45
562000000 -0.32457057 -77.292519 -200 45 -200 45 -200 45
570250000 -0.34522963 -78.355667 -200 45 -200 45 -200 45
578500000 -0.35607249 -79.36573 -200 45 -200 45 -200 45
586750000 -0.36884624 -80.391792 -200 45 -200 45 -200 45
595000000 -0.37291008 -81.398987 -200 45 -200 45 -200 45
603250000 -0.38231683 -82.45755 -200 45 -200 45 -200 45
611500000 -0.38768739 -83.471344 -200 45 -200 45 -200 45
619750000 -0.39584208 -84.545677 -200 45 -200 45 -200 45
628000000 -0.41006359 -85.642105 -200 45 -200 45 -200 45
636250000 -0.43419543 -86.637901 -200 45 -200 45 -200 45
644500000 -0.44512448 -87.669746 -200 45 -200 45 -200 45
652750000 -0.45666164 -88.644211 -200 45 -200 45 -200 45
661000000 -0.46005705 -89.603989 -200 45 -200 45 -200 45
669250000 -0.45731962 -90.614159 -200 45 -200 45 -200 45
677500000 -0.44942743 -91.593697 -200 45 -200 45 -200 45
685750000 -0.43602872 -92.735748 -200 45 -200 45 -200 45
694000000 -0.44679511 -93.864433 -200 45 -200 45 -200 45
702250000 -0.47085238 -94.921303 -200 45 -200 45 -200 45
710500000 -0.48029059 -95.963951 -200 45 -200 45 -200 45
718750000 -0.50040156 -96.956223 -200 45 -200 45 -200 45
727000000 -0.4981899 -97.933609 -200 45 -200 45 -200 45
735250000 -0.50062114 -98.906456 -200 45 -200 45 -200 45
743500000 -0.49779478 -99.988403 -200 45 -200 45 -200 45
751750000 -0.50409704 -101.00148 -200 45 -200 45 -200 45
760000000 -0.50969613 -102.04751 -200 45 -200 45 -200 45
768250000 -0.51294219 -103.06383 -200 45 -200 45 -200 45
776500000 -0.51470906 -104.04829 -200 45 -200 45 -200 45
784750000 -0.50940508 -105.05514 -200 45 -200 45 -200 45
793000000 -0.50712192 -106.05338 -200 45 -200 45 -200 45
801250000 -0.50156301 -107.07914 -200 45 -200 45 -200 45
809500000 -0.49996385 -108.1237 -200 45 -200 45 -200 45
817750000 -0.49943468 -109.13476 -200 45 -200 45 -200 45
826000000 -0.49861407 -110.10503 -200 45 -200 45 -200 45
834250000 -0.48757496 -111.12234 -200 45 -200 45 -200 45
842500000 -0.4727999 -112.19598 -200 45 -200 45 -200 45
850750000 -0.46746263 -113.31564 -200 45 -200 45 -200 45
859000000 -0.47295865 -114.34922 -200 45 -200 45 -200 45
867250000 -0.46355075 -115.34634 -200 45 -200 45 -200 45
875500000 -0.46769699 -116.35692 -200 45 -200 45 -200 45
883750000 -0.45706969 -117.43384 -200 45 -200 45 -200 45
892000000 -0.44419822 -118.47403 -200 45 -200 45 -200 45
900250000 -0.43889108 -119.54394 -200 45 -200 45 -200 45
908500000 -0.43697843 -120.62307 -200 45 -200 45 -200 45
916750000 -0.42616037 -121.71064 -200 45 -200 45 -200 45
925000000 -0.41877493 -122.79913 -200 45 -200 45 -200 45
933250000 -0.41558626 -123.88625 -200 45 -200 45 -200 45
941500000 -0.41809511 -124.98525 -200 45 -200 45 -200 45
949750000 -0.41083121 -126.06176 -200 45 -200 45 -200 45
958000000 -0.41199744 -127.14986 -200 45 -200 45 -200 45
966250000 -0.41635656 -128.18677 -200 45 -200 45 -200 45
974500000 -0.40447918 -129.28096 -200 45 -200 45 -200 45
982750000 -0.40392715 -130.35268 -200 45 -200 45 -200 45
991000000 -0.39966986 -131.42931 -200 45 -200 45 -200 45
999250000 -0.39264297 -132.5387 -200 45 -200 45 -200 45
1007500000 -0.38865545 -133.5838 -200 45 -200 45 -200 45
1015750000 -0.38556349 -134.70966 -200 45 -200 45 -200 45
1024000000 -0.38445526 -135.84811 -200 45 -200 45 -200 45
1032250000 -0.37785077 -136.92917 -200 45 -200 45 -200 45
1040500000 -0.37935278 -138.02283 -200 45 -200 45 -200 45
1048750000 -0.37347454 -139.14142 -200 45 -200 45 -200 45
1057000000 -0.36811924 -140.26102 -200 45 -200 45 -200 45
1065250000 -0.37142834 -141.33163 -200 45 -200 45 -200 45
1073500000 -0.37150222 -142.43616 -200 45 -200 45 -200 45
1081750000 -0.37506363 -143.56215 -200 45 -200 45 -200 45
1090000000 -0.37394992 -144.66077 -200 45 -200 45 -200 45
1098250000 -0.37213108 -145.74329 -200 45 -200 45 -200 45
1106500000 -0.36862531 -146.84944 -200 45 -200 45 -200 45
1114750000 -0.36347243 -147.95474 -200 45 -200 45 -200 45
1123000000 -0.3669191 -149.03537 -200 45 -200 45 -200 45
1131250000 -0.37019685 -150.1357 -200 45 -200 45 -200 45
1139500000 -0.36825562 -151.24672 -200 45 -200 45 -200 45
1147750000 -0.35947168 -152.35243 -200 45 -200 45 -200 45
1156000000 -0.36180344 -153.47002 -200 45 -200 45 -200 45
1164250000 -0.35466585 -154.56946 -200 45 -200 45 -200 45
1172500000 -0.3533268 -155.72687 -200 45 -200 45 -200 45
1180750000 -0.35537207 -156.80313 -200 45 -200 45 -200 45
1189000000 -0.35602415 -157.94836 -200 45 -200 45 -200 45
1197250000 -0.35706389 -159.09358 -200 45 -200 45 -200 45
1205500000 -0.35588732 -160.19304 -200 45 -200 45 -200 45
1213750000 -0.35889244 -161.31636 -200 45 -200 45 -200 45
1222000000 -0.35414878 -162.39723 -200 45 -200 45 -200 45
1230250000 -0.35578504 -163.50266 -200 45 -200 45 -200 45
1238500000 -0.35808474 -164.60898 -200 45 -200 45 -200 45
1246750000 -0.35910669 -165.72295 -200 45 -200 45 -200 45
1255000000 -0.35530069 -166.82605 -200 45 -200 45 -200 45
1263250000 -0.36049056 -167.98363 -200 45 -200 45 -200 45
1271500000 -0.36434054 -169.09593 -200 45 -200 45 -200 45
1279750000 -0.35726428 -170.20717 -200 45 -200 45 -200 45
1288000000 -0.36022028 -171.34256 -200 45 -200 45 -200 45
1296250000 -0.35572773 -172.46823 -200 45 -200 45 -200 45
1304500000 -0.35438779 -173.61424 -200 45 -200 45 -200 45
1312750000 -0.36741123 -174.76801 -200 45 -200 45 -200 45
1321000000 -0.35861748 -175.9341 -200 45 -200 45 -200 45
1329250000 -0.36101881 -177.02892 -200 45 -200 45 -200 45
1337500000 -0.36663154 -178.17525 -200 45 -200 45 -200 45
1345750000 -0.36635578 -179.34537 -200 45 -200 45 -200 45
1354000000 -0.36646956 179.48412 -200 45 -200 45 -200 45
1362250000 -0.36422482 178.3439 -200 45 -200 45 -200 45
1370500000 -0.37117597 177.22902 -200 45 -200 45 -200 45
1378750000 -0.36942679 176.06262 -200 45 -200 45 -200 45
1387000000 -0.36854696 174.94893 -200 45 -200 45 -200 45
1395250000 -0.37398884 173.76785 -200 45 -200 45 -200 45
1403500000 -0.37527502 172.5912 -200 45 -200 45 -200 45
1411750000 -0.37854552 171.44061 -200 45 -200 45 -200 45
1420000000 -0.37932143 170.28717 -200 45 -200 45 -200 45
1428250000 -0.38159576 169.08249 -200 45 -200 45 -200 45
1436500000 -0.39125222 167.9315 -200 45 -200 45 -200 45
1444750000 -0.39202163 166.79948 -200 45 -200 45 -200 45
1453000000 -0.39818096 165.60672 -200 45 -200 45 -200 45
1461250000 -0.40078342 164.46329 -200 45 -200 45 -200 45
1469500000 -0.40740809 163.32141 -200 45 -200 45 -200 45
1477750000 -0.41033587 162.1512 -200 45 -200 45 -200 45
1486000000 -0.41519061 161.00977 -200 45 -200 45 -200 45
1494250000 -0.41429889 159.82628 -200 45 -200 45 -200 45
1502500000 -0.41899672 158.65877 -200 45 -200 45 -200 45
1510750000 -0.42521188 157.4214 -200 45 -200 45 -200 45
1519000000 -0.42920738 156.25368 -200 45 -200 45 -200 45
1527250000 -0.43550873 155.0497 -200 45 -200 45 -200 45
1535500000 -0.44477001 153.85931 -200 45 -200 45 -200 45
1543750000 -0.45099318 152.66527 -200 45 -200 45 -200 45
1552000000 -0.45578465 151.46953 -200 45 -200 45 -200 45
1560250000 -0.46357405 150.27748 -200 45 -200 45 -200 45
1568500000 -0.47025174 149.1153 -200 45 -200 45 -200 45
1576750000 -0.47926691 147.91566 -200 45 -200 45 -200 45
1585000000 -0.4862192 146.71805 -200 45 -200 45 -200 45
1593250000 -0.48936516 145.55685 -200 45 -200 45 -200 45
1601500000 -0.49636674 144.36559 -200 45 -200 45 -200 45
1609750000 -0.50380754 143.13297 -200 45 -200 45 -200 45
1618000000 -0.5116303 141.9257 -200 45 -200 45 -200 45
1626250000 -0.52757758 140.69792 -200 45 -200 45 -200 45
1634500000 -0.5293709 139.51163 -200 45 -200 45 -200 45
1642750000 -0.5415827 138.32208 -200 45 -200 45 -200 45
1651000000 -0.54952562 137.10756 -200 45 -200 45 -200 45
1659250000 -0.5561353 135.90286 -200 45 -200 45 -200 45
1667500000 -0.56997263 134.70453 -200 45 -200 45 -200 45
1675750000 -0.57473588 133.51294 -200 45 -200 45 -200 45
1684000000 -0.58667934 132.26903 -200 45 -200 45 -200 45
1692250000 -0.59527105 131.03763 -200 45 -200 45 -200 45
1700500000 -0.60407913 129.80774 -200 45 -200 45 -200 45
1708750000 -0.61457086 128.62198 -200 45 -200 45 -200 45
1717000000 -0.62516576 127.39132 -200 45 -200 45 -200 45
1725250000 -0.63845831 126.13882 -200 45 -200 45 -200 45
1733500000 -0.65620029 124.87695 -200 45 -200 45 -200 45
1741750000 -0.66879869 123.67103 -200 45 -200 45 -200 45
1750000000 -0.68305415 122.50108 -200 45 -200 45 -200 45
1758250000 -0.68628234 121.28043 -200 45 -200 45 -200 45
1766500000 -0.69609326 120.0011 -200 45 -200 45 -200 45
1774750000 -0.71056193 118.74876 -200 45 -200 45 -200 45
1783000000 -0.7215125 117.55547 -200 45 -200 45 -200 45
1791250000 -0.72397786 116.29253 -200 45 -200 45 -200 45
1799500000 -0.74028742 114.93619 -200 45 -200 45 -200 45
1807750000 -0.7557348 113.68194 -200 45 -200 45 -200 45
1816000000 -0.77263403 112.43141 -200 45 -200 45 -200 45
1824250000 -0.78963155 111.16279 -200 45 -200 45 -200 45
1832500000 -0.80518878 109.88833 -200 45 -200 45 -200 45
1840750000 -0.82691723 108.57713 -200 45 -200 45 -200 45
1849000000 -0.84198779 107.36541 -200 45 -200 45 -200 45
1857250000 -0.85741836 106.09896 -200 45 -200 45 -200 45
1865500000 -0.87359959 104.85275 -200 45 -200 45 -200 45
1873750000 -0.8940084 103.58952 -200 45 -200 45 -200 45
1882000000 -0.90319896 102.33094 -200 45 -200 45 -200 45
1890250000 -0.91828507 100.99068 -200 45 -200 45 -200 45
1898500000 -0.94022501 99.687881 -200 45 -200 45 -200 45
1906750000 -0.95658541 98.468964 -200 45 -200 45 -200 45
1915000000 -0.97615844 97.183197 -200 45 -200 45 -200 45
1923250000 -1.0000813 95.925667 -200 45 -200 45 -200 45
1931500000 -1.0149307 94.7108 -200 45 -200 45 -200 45
1939750000 -1.0250684 93.460602 -200 45 -200 45 -200 45
1948000000 -1.0322545 92.166069 -200 45 -200 45 -200 45
1956250000 -1.0416524 90.837814 -200 45 -200 45 -200 45
1964500000 -1.0502799 89.482117 -200 45 -200 45 -200 45
1972750000 -1.0799716 88.061623 -200 45 -200 45 -200 45
1981000000 -1.099557 86.842918 -200 45 -200 45 -200 45
1989250000 -1.1126206 85.524368 -200 45 -200 45 -200 45
1997500000 -1.129356 84.117149 -200 45 -200 45 -200 45
2005750000 -1.1652634 82.823685 -200 45 -200 45 -200 45
2014000000 -1.1820536 81.527969 -200 45 -200 45 -200 45
2022250000 -1.2011808 80.159828 -200 45 -200 45 -200 45
2030500000 -1.2180403 78.881294 -200 45 -200 45 -200 45
2038750000 -1.2434139 77.514626 -200 45 -200 45 -200 45
2047000000 -1.2668499 76.193825 -200 45 -200 45 -200 45
2055250000 -1.2803838 74.919815 -200 45 -200 45 -200 45
2063500000 -1.2963982 73.495705 -200 45 -200 45 -200 45
2071750000 -1.3101293 72.076607 -200 45 -200 45 -200 45
2080000000 -1.3349551 70.650818 -200 45 -200 45 -200 45
2088250000 -1.3662511 69.19294 -200 45 -200 45 -200 45
2096500000 -1.3948232 67.767929 -200 45 -200 45 -200 45
2104750000 -1.443694 66.390335 -200 45 -200 45 -200 45
2113000000 -1.4779451 65.099373 -200 45 -200 45 -200 45
2121250000 -1.5028019 63.808811 -200 45 -200 45 -200 45
2129500000 -1.5295973 62.386593 -200 45 -200 45 -200 45
2137750000 -1.5685806 61.061142 -200 45 -200 45 -200 45
2146000000 -1.5913398 59.793682 -200 45 -200 45 -200 45
2154250000 -1.6031283 58.4375 -200 45 -200 45 -200 45
2162500000 -1.6388782 57.056759 -200 45 -200 45 -200 45
2170750000 -1.651274 55.701508 -200 45 -200 45 -200 45
2179000000 -1.6549174 54.189072 -200 45 -200 45 -200 45
2187250000 -1.7022405 52.726082 -200 45 -200 45 -200 45
2195500000 -1.7292671 51.344769 -200 45 -200 45 -200 45
2203750000 -1.7573746 49.882412 -200 45 -200 45 -200 45
2212000000 -1.7849624 48.476036 -200 45 -200 45 -200 45
2220250000 -1.8173772 46.984192 -200 45 -200 45 -200 45
2228500000 -1.8522372 45.466106 -200 45 -200 45 -200 45
2236750000 -1.9002849 43.99931 -200 45 -200 45 -200 45
2245000000 -1.9390887 42.533291 -200 45 -200 45 -200 45
2253250000 -1.9912119 41.145416 -200 45 -200 45 -200 45
2261500000 -2.0269573 39.783173 -200 45 -200 45 -200 45
2269750000 -2.0609128 38.230038 -200 45 -200 45 -200 45
2278000000 -2.1085465 36.764839 -200 45 -200 45 -200 45
2286250000 -2.161526 35.375599 -200 45 -200 45 -200 45
2294500000 -2.2078595 33.923557 -200 45 -200 45 -200 45
2302750000 -2.2476506 32.499451 -200 45 -200 45 -200 45
2311000000 -2.2942657 31.002998 -200 45 -200 45 -200 45
2319250000 -2.3439867 29.548584 -200 45 -200 45 -200 45
2327500000 -2.3815465 28.033875 -200 45 -200 45 -200 45
2335750000 -2.4417551 26.520391 -200 45 -200 45 -200 45
2344000000 -2.5052633 25.005049 -200 45 -200 45 -200 45
2352250000 -2.5746288 23.588236 -200 45 -200 45 -200 45
2360500000 -2.6431782 22.218166 -200 45 -200 45 -200 45
2368750000 -2.6996343 20.861933 -200 45 -200 45 -200 45
2377000000 -2.75701 19.459904 -200 45 -200 45 -200 45
2385250000 -2.833014 18.070965 -200 45 -200 45 -200 45
2393500000 -2.8906579 16.977493 -200 45 -200 45 -200 45
2401750000 -2.9189093 15.800002 -200 45 -200 45 -200 45
2410000000 -2.9175327 14.416203 -200 45 -200 45 -200 45
2418250000 -2.9479992 12.869845 -200 45 -200 45 -200 45
2426500000 -2.9878879 11.371313 -200 45 -200 45 -200 45
2434750000 -3.0130966 9.8768921 -200 45 -200 45 -200 45
2443000000 -3.0381293 8.1686478 -200 45 -200 45 -200 45
2451250000 -3.0952749 6.4659042 -200 45 -200 45 -200 45
2459500000 -3.1715698 4.7853632 -200 45 -200 45 -200 45
2467750000 -3.2439923 3.1889844 -200 45 -200 45 -200 45
2476000000 -3.328963 1.5674028 -200 45 -200 45 -200 45
2484250000 -3.4109511 0.11628284 -200 45 -200 45 -200 45
2492500000 -3.4768667 -1.4316287 -200 45 -200 45 -200 45
2500750000 -3.5639875 -3.0768673 -200 45 -200 45 -200 45
2509000000 -3.672703 -4.489141 -200 45 -200 45 -200 45
2517250000 -3.7446678 -5.8323236 -200 45 -200 45 -200 45
2525500000 -3.8137846 -7.3324018 -200 45 -200 45 -200 45
2533750000 -3.9047666 -8.893836 -200 45 -200 45 -200 45
2542000000 -3.9964659 -10.315783 -200 45 -200 45 -200 45
2550250000 -4.0841899 -11.728859 -200 45 -200 45 -200 45
2558500000 -4.172318 -13.153756 -200 45 -200 45 -200 45
2566750000 -4.2745042 -14.505612 -200 45 -200 45 -200 45
2575000000 -4.3607941 -15.793384 -200 45 -200 45 -200 45
2583250000 -4.4475083 -17.27096 -200 45 -200 45 -200 45
2591500000 -4.5499659 -18.585876 -200 45 -200 45 -200 45
2599750000 -4.6666512 -19.886637 -200 45 -200 45 -200 45
2608000000 -4.7586122 -21.04143 -200 45 -200 45 -200 45
2616250000 -4.8594041 -22.211655 -200 45 -200 45 -200 45
2624500000 -4.9412799 -23.291014 -200 45 -200 45 -200 45
2632750000 -5.0095744 -24.399107 -200 45 -200 45 -200 45
2641000000 -5.0648274 -25.436049 -200 45 -200 45 -200 45
2649250000 -5.1119051 -26.722948 -200 45 -200 45 -200 45
2657500000 -5.1542964 -28.010578 -200 45 -200 45 -200 45
2665750000 -5.1968217 -29.460159 -200 45 -200 45 -200 45
2674000000 -5.2685747 -31.030529 -200 45 -200 45 -200 45
2682250000 -5.3656216 -32.545387 -200 45 -200 45 -200 45
2690500000 -5.4799137 -33.967918 -200 45 -200 45 -200 45
2698750000 -5.6172395 -35.266418 -200 45 -200 45 -200 45
2707000000 -5.7385602 -36.054775 -200 45 -200 45 -200 45
2715250000 -5.7936001 -36.875641 -200 45 -200 45 -200 45
2723500000 -5.8333812 -37.93782 -200 45 -200 45 -200 45
2731750000 -5.8712049 -38.964867 -200 45 -200 45 -200 45
2740000000 -5.8835363 -40.050587 -200 45 -200 45 -200 45
2748250000 -5.8656058 -41.397755 -200 45 -200 45 -200 45
2756500000 -5.8718729 -43.01939 -200 45 -200 45 -200 45
2764750000 -5.8824744 -44.7957 -200 45 -200 45 -200 45
2773000000 -5.956738 -46.916042 -200 45 -200 45 -200 45
2781250000 -6.1303525 -48.92522 -200 45 -200 45 -200 45
2789500000 -6.3323245 -49.998852 -200 45 -200 45 -200 45
2797750000 -6.4567332 -50.867641 -200 45 -200 45 -200 45
2806000000 -6.5236692 -51.641956 -200 45 -200 45 -200 45
2814250000 -6.5564871 -52.651279 -200 45 -200 45 -200 45
2822500000 -6.5889587 -54.022758 -200 45 -200 45 -200 45
2830750000 -6.648674 -55.381714 -200 45 -200 45 -200 45
2839000000 -6.7135463 -56.942688 -200 45 -200 45 -200 45
2847250000 -6.8256187 -58.203129 -200 45 -200 45 -200 45
2855500000 -6.8928318 -59.494938 -200 45 -200 45 -200 45
2863750000 -6.9948468 -61.007713 -200 45 -200 45 -200 45
2872000000 -7.1350632 -62.132778 -200 45 -200 45 -200 45
2880250000 -7.2312112 -62.873913 -200 45 -200 45 -200 45
2888500000 -7.2714634 -63.727604 -200 45 -200 45 -200 45
2896750000 -7.2732139 -64.903061 -200 45 -200 45 -200 45
2905000000 -7.3027539 -66.383995 -200 45 -200 45 -200 45
2913250000 -7.3736486 -67.778343 -200 45 -200 45 -200 45
2921500000 -7.4433298 -69.202675 -200 45 -200 45 -200 45
2929750000 -7.5234399 -70.500031 -200 45 -200 45 -200 45
2938000000 -7.5890074 -71.907013 -200 45 -200 45 -200 45
2946250000 -7.712738 -73.204384 -200 45 -200 45 -200 45
2954500000 -7.8384957 -73.980377 -200 45 -200 45 -200 45
2962750000 -7.8472838 -74.614227 -200 45 -200 45 -200 45
