!Keysight Technologies,N5222B,MY60213399,A.14.00.23
!Date: Tuesday, February 27, 2024 20:36:21
!Correction: S11(C  1-Port  ) 
!S21(Off) 
!S12(Off) 
!S22(Off) 
!S2P File: Measurement: :
# Hz S  dB   R 50
100000000 0.0014266003 -11.230034 -200 45 -200 45 -200 45
108250000 -0.00066635595 -12.170725 -200 45 -200 45 -200 45
116500000 0.0030260507 -13.101019 -200 45 -200 45 -200 45
124750000 0.00042865047 -14.034825 -200 45 -200 45 -200 45
133000000 -0.00046157136 -14.973653 -200 45 -200 45 -200 45
141250000 -0.0058754277 -15.895447 -200 45 -200 45 -200 45
149500000 -0.0081612254 -16.815128 -200 45 -200 45 -200 45
157750000 -0.013035786 -17.713364 -200 45 -200 45 -200 45
166000000 -0.013020467 -18.601727 -200 45 -200 45 -200 45
174250000 -0.011913776 -19.501635 -200 45 -200 45 -200 45
182500000 -0.0076918337 -20.408108 -200 45 -200 45 -200 45
190750000 -0.0082784519 -21.331982 -200 45 -200 45 -200 45
199000000 -0.0073002805 -22.291292 -200 45 -200 45 -200 45
207250000 -0.007391294 -23.21867 -200 45 -200 45 -200 45
215500000 -0.0087453136 -24.144201 -200 45 -200 45 -200 45
223750000 -0.012222936 -25.084175 -200 45 -200 45 -200 45
232000000 -0.014280928 -26.042042 -200 45 -200 45 -200 45
240250000 -0.011326407 -26.962379 -200 45 -200 45 -200 45
248500000 -0.016854661 -27.90547 -200 45 -200 45 -200 45
256750000 -0.021459593 -28.872412 -200 45 -200 45 -200 45
265000000 -0.021064194 -29.673388 -200 45 -200 45 -200 45
273250000 -0.030095519 -30.80113 -200 45 -200 45 -200 45
281500000 -0.038649146 -31.663101 -200 45 -200 45 -200 45
289750000 -0.046164911 -32.549877 -200 45 -200 45 -200 45
298000000 -0.048873585 -33.465401 -200 45 -200 45 -200 45
306250000 -0.048026778 -34.408344 -200 45 -200 45 -200 45
314500000 -0.055692784 -35.332169 -200 45 -200 45 -200 45
322750000 -0.062366195 -36.253109 -200 45 -200 45 -200 45
331000000 -0.061151296 -37.122295 -200 45 -200 45 -200 45
339250000 -0.061730739 -38.04496 -200 45 -200 45 -200 45
347500000 -0.059491374 -38.987827 -200 45 -200 45 -200 45
355750000 -0.048594262 -39.903641 -200 45 -200 45 -200 45
364000000 -0.060222562 -40.840408 -200 45 -200 45 -200 45
372250000 -0.061481573 -41.803806 -200 45 -200 45 -200 45
380500000 -0.062160581 -42.718483 -200 45 -200 45 -200 45
388750000 -0.068268545 -43.665222 -200 45 -200 45 -200 45
397000000 -0.067455553 -44.58847 -200 45 -200 45 -200 45
405250000 -0.069234245 -45.539639 -200 45 -200 45 -200 45
413500000 -0.067683764 -46.49155 -200 45 -200 45 -200 45
421750000 -0.075465441 -47.483322 -200 45 -200 45 -200 45
430000000 -0.084104493 -48.469818 -200 45 -200 45 -200 45
438250000 -0.094569445 -49.409794 -200 45 -200 45 -200 45
446500000 -0.10323284 -50.365658 -200 45 -200 45 -200 45
454750000 -0.11781691 -51.32272 -200 45 -200 45 -200 45
463000000 -0.13102898 -52.261086 -200 45 -200 45 -200 45
471250000 -0.15796299 -53.151752 -200 45 -200 45 -200 45
479500000 -0.16978651 -54.025246 -200 45 -200 45 -200 45
487750000 -0.17393602 -54.920231 -200 45 -200 45 -200 45
496000000 -0.19278631 -55.81707 -200 45 -200 45 -200 45
504250000 -0.20059499 -56.656334 -200 45 -200 45 -200 45
512500000 -0.20261784 -57.545643 -200 45 -200 45 -200 45
520750000 -0.20672446 -58.445087 -200 45 -200 45 -200 45
529000000 -0.20720366 -59.362587 -200 45 -200 45 -200 45
537250000 -0.21570233 -60.247063 -200 45 -200 45 -200 45
545500000 -0.21493579 -61.111259 -200 45 -200 45 -200 45
553750000 -0.20534775 -62.009533 -200 45 -200 45 -200 45
562000000 -0.20279251 -62.981701 -200 45 -200 45 -200 45
570250000 -0.20686455 -63.992172 -200 45 -200 45 -200 45
578500000 -0.21770638 -64.980362 -200 45 -200 45 -200 45
586750000 -0.22990377 -65.969215 -200 45 -200 45 -200 45
595000000 -0.25501063 -66.861198 -200 45 -200 45 -200 45
603250000 -0.27042615 -67.772392 -200 45 -200 45 -200 45
611500000 -0.29197747 -68.66497 -200 45 -200 45 -200 45
619750000 -0.31141198 -69.493538 -200 45 -200 45 -200 45
628000000 -0.32088754 -70.341263 -200 45 -200 45 -200 45
636250000 -0.33444059 -71.173622 -200 45 -200 45 -200 45
644500000 -0.34088245 -72.005341 -200 45 -200 45 -200 45
652750000 -0.33471516 -72.833473 -200 45 -200 45 -200 45
661000000 -0.33562282 -73.756935 -200 45 -200 45 -200 45
669250000 -0.34611258 -74.692406 -200 45 -200 45 -200 45
677500000 -0.35485378 -75.558533 -200 45 -200 45 -200 45
685750000 -0.35949191 -76.492905 -200 45 -200 45 -200 45
694000000 -0.36982083 -77.360481 -200 45 -200 45 -200 45
702250000 -0.38705769 -78.218269 -200 45 -200 45 -200 45
710500000 -0.39465553 -79.143173 -200 45 -200 45 -200 45
718750000 -0.40780446 -79.990509 -200 45 -200 45 -200 45
727000000 -0.41813159 -80.84417 -200 45 -200 45 -200 45
735250000 -0.42944628 -81.684303 -200 45 -200 45 -200 45
743500000 -0.43568903 -82.491287 -200 45 -200 45 -200 45
751750000 -0.4296326 -83.306053 -200 45 -200 45 -200 45
760000000 -0.4305169 -84.196609 -200 45 -200 45 -200 45
768250000 -0.43124413 -85.074883 -200 45 -200 45 -200 45
776500000 -0.42772862 -85.939308 -200 45 -200 45 -200 45
784750000 -0.42331097 -86.836441 -200 45 -200 45 -200 45
793000000 -0.41802785 -87.729744 -200 45 -200 45 -200 45
801250000 -0.41403577 -88.673454 -200 45 -200 45 -200 45
809500000 -0.41562071 -89.5746 -200 45 -200 45 -200 45
817750000 -0.4157452 -90.518082 -200 45 -200 45 -200 45
826000000 -0.42428502 -91.46743 -200 45 -200 45 -200 45
834250000 -0.44250506 -92.429535 -200 45 -200 45 -200 45
842500000 -0.45709673 -93.232979 -200 45 -200 45 -200 45
850750000 -0.46511897 -94.068016 -200 45 -200 45 -200 45
859000000 -0.47262934 -94.918129 -200 45 -200 45 -200 45
867250000 -0.46984619 -95.763763 -200 45 -200 45 -200 45
875500000 -0.47711506 -96.588463 -200 45 -200 45 -200 45
883750000 -0.47239497 -97.445274 -200 45 -200 45 -200 45
892000000 -0.46598777 -98.318451 -200 45 -200 45 -200 45
900250000 -0.4664264 -99.23278 -200 45 -200 45 -200 45
908500000 -0.47651908 -100.1301 -200 45 -200 45 -200 45
916750000 -0.47520372 -100.98193 -200 45 -200 45 -200 45
925000000 -0.46539357 -101.79858 -200 45 -200 45 -200 45
933250000 -0.455724 -102.68542 -200 45 -200 45 -200 45
941500000 -0.44879302 -103.6607 -200 45 -200 45 -200 45
949750000 -0.44309613 -104.59533 -200 45 -200 45 -200 45
958000000 -0.44094068 -105.53874 -200 45 -200 45 -200 45
966250000 -0.43825737 -106.43221 -200 45 -200 45 -200 45
974500000 -0.4299024 -107.42464 -200 45 -200 45 -200 45
982750000 -0.43228659 -108.44105 -200 45 -200 45 -200 45
991000000 -0.43799308 -109.42266 -200 45 -200 45 -200 45
999250000 -0.44426045 -110.39009 -200 45 -200 45 -200 45
1007500000 -0.45097652 -111.30692 -200 45 -200 45 -200 45
1015750000 -0.46384799 -112.27311 -200 45 -200 45 -200 45
1024000000 -0.46665409 -113.19782 -200 45 -200 45 -200 45
1032250000 -0.46801847 -114.1055 -200 45 -200 45 -200 45
1040500000 -0.4757227 -115.1005 -200 45 -200 45 -200 45
1048750000 -0.48478803 -116.02784 -200 45 -200 45 -200 45
1057000000 -0.4886345 -116.93916 -200 45 -200 45 -200 45
1065250000 -0.49803108 -117.82515 -200 45 -200 45 -200 45
1073500000 -0.50607497 -118.75249 -200 45 -200 45 -200 45
1081750000 -0.52060026 -119.6667 -200 45 -200 45 -200 45
1090000000 -0.51851594 -120.53844 -200 45 -200 45 -200 45
1098250000 -0.51608074 -121.44917 -200 45 -200 45 -200 45
1106500000 -0.52362901 -122.39821 -200 45 -200 45 -200 45
1114750000 -0.5322302 -123.3166 -200 45 -200 45 -200 45
1123000000 -0.54262149 -124.20669 -200 45 -200 45 -200 45
1131250000 -0.54696518 -125.06986 -200 45 -200 45 -200 45
1139500000 -0.54753983 -125.9456 -200 45 -200 45 -200 45
1147750000 -0.54069191 -126.87746 -200 45 -200 45 -200 45
1156000000 -0.54311663 -127.85033 -200 45 -200 45 -200 45
1164250000 -0.54463696 -128.76398 -200 45 -200 45 -200 45
1172500000 -0.54408681 -129.71568 -200 45 -200 45 -200 45
1180750000 -0.54828107 -130.63342 -200 45 -200 45 -200 45
1189000000 -0.54372501 -131.62106 -200 45 -200 45 -200 45
1197250000 -0.55076551 -132.60023 -200 45 -200 45 -200 45
1205500000 -0.54996216 -133.53935 -200 45 -200 45 -200 45
1213750000 -0.54539764 -134.51993 -200 45 -200 45 -200 45
1222000000 -0.54978591 -135.50742 -200 45 -200 45 -200 45
1230250000 -0.55183822 -136.4848 -200 45 -200 45 -200 45
1238500000 -0.56554121 -137.48521 -200 45 -200 45 -200 45
1246750000 -0.57669008 -138.52054 -200 45 -200 45 -200 45
1255000000 -0.59201127 -139.43509 -200 45 -200 45 -200 45
1263250000 -0.60440046 -140.41264 -200 45 -200 45 -200 45
1271500000 -0.61799806 -141.36026 -200 45 -200 45 -200 45
1279750000 -0.62440175 -142.28252 -200 45 -200 45 -200 45
1288000000 -0.63369417 -143.24507 -200 45 -200 45 -200 45
1296250000 -0.64921725 -144.21368 -200 45 -200 45 -200 45
1304500000 -0.66219568 -145.18329 -200 45 -200 45 -200 45
1312750000 -0.67988282 -146.09517 -200 45 -200 45 -200 45
1321000000 -0.68432188 -147.02554 -200 45 -200 45 -200 45
1329250000 -0.69377726 -147.93102 -200 45 -200 45 -200 45
1337500000 -0.70838505 -148.8562 -200 45 -200 45 -200 45
1345750000 -0.70930755 -149.79924 -200 45 -200 45 -200 45
1354000000 -0.71154189 -150.74571 -200 45 -200 45 -200 45
1362250000 -0.70928806 -151.66653 -200 45 -200 45 -200 45
1370500000 -0.72078693 -152.62839 -200 45 -200 45 -200 45
1378750000 -0.72236222 -153.6368 -200 45 -200 45 -200 45
1387000000 -0.72543108 -154.66496 -200 45 -200 45 -200 45
1395250000 -0.73256457 -155.69753 -200 45 -200 45 -200 45
1403500000 -0.74740666 -156.75262 -200 45 -200 45 -200 45
1411750000 -0.76241994 -157.77005 -200 45 -200 45 -200 45
1420000000 -0.77351612 -158.77867 -200 45 -200 45 -200 45
1428250000 -0.78992933 -159.85631 -200 45 -200 45 -200 45
1436500000 -0.81858784 -160.88307 -200 45 -200 45 -200 45
1444750000 -0.84672916 -161.8773 -200 45 -200 45 -200 45
1453000000 -0.86819112 -162.8817 -200 45 -200 45 -200 45
1461250000 -0.89532173 -163.79266 -200 45 -200 45 -200 45
1469500000 -0.92671734 -164.7653 -200 45 -200 45 -200 45
1477750000 -0.95151645 -165.66888 -200 45 -200 45 -200 45
1486000000 -0.96902078 -166.6001 -200 45 -200 45 -200 45
1494250000 -0.98490173 -167.59908 -200 45 -200 45 -200 45
1502500000 -1.0150197 -168.56239 -200 45 -200 45 -200 45
1510750000 -1.0404866 -169.50938 -200 45 -200 45 -200 45
1519000000 -1.0604204 -170.50934 -200 45 -200 45 -200 45
1527250000 -1.0967587 -171.46884 -200 45 -200 45 -200 45
1535500000 -1.1286161 -172.39751 -200 45 -200 45 -200 45
1543750000 -1.1656003 -173.32953 -200 45 -200 45 -200 45
1552000000 -1.1978652 -174.23323 -200 45 -200 45 -200 45
1560250000 -1.2315301 -175.12457 -200 45 -200 45 -200 45
1568500000 -1.2588997 -176.02133 -200 45 -200 45 -200 45
1576750000 -1.292281 -176.87378 -200 45 -200 45 -200 45
1585000000 -1.3165007 -177.77388 -200 45 -200 45 -200 45
1593250000 -1.3510462 -178.59059 -200 45 -200 45 -200 45
1601500000 -1.3731511 -179.39214 -200 45 -200 45 -200 45
1609750000 -1.3965241 179.69745 -200 45 -200 45 -200 45
1618000000 -1.4181057 178.86488 -200 45 -200 45 -200 45
1626250000 -1.4478649 177.95285 -200 45 -200 45 -200 45
1634500000 -1.4681318 177.10133 -200 45 -200 45 -200 45
1642750000 -1.499859 176.16653 -200 45 -200 45 -200 45
1651000000 -1.5346497 175.32399 -200 45 -200 45 -200 45
1659250000 -1.5586588 174.44336 -200 45 -200 45 -200 45
1667500000 -1.5998192 173.52158 -200 45 -200 45 -200 45
1675750000 -1.636077 172.74561 -200 45 -200 45 -200 45
1684000000 -1.6798514 171.97481 -200 45 -200 45 -200 45
1692250000 -1.705407 171.25763 -200 45 -200 45 -200 45
1700500000 -1.7209255 170.46767 -200 45 -200 45 -200 45
1708750000 -1.7538726 169.55757 -200 45 -200 45 -200 45
1717000000 -1.8002871 168.85114 -200 45 -200 45 -200 45
1725250000 -1.8258973 168.09892 -200 45 -200 45 -200 45
1733500000 -1.8568733 167.37529 -200 45 -200 45 -200 45
1741750000 -1.8890159 166.60696 -200 45 -200 45 -200 45
1750000000 -1.933768 165.97166 -200 45 -200 45 -200 45
1758250000 -1.948501 165.40515 -200 45 -200 45 -200 45
1766500000 -1.9568641 164.72658 -200 45 -200 45 -200 45
1774750000 -1.9703195 163.98543 -200 45 -200 45 -200 45
1783000000 -1.9861313 163.2836 -200 45 -200 45 -200 45
1791250000 -2.0059729 162.58244 -200 45 -200 45 -200 45
1799500000 -2.0154874 161.8985 -200 45 -200 45 -200 45
1807750000 -2.0359797 161.24899 -200 45 -200 45 -200 45
1816000000 -2.0348365 160.59349 -200 45 -200 45 -200 45
1824250000 -2.0384915 159.88487 -200 45 -200 45 -200 45
1832500000 -2.0499759 159.20732 -200 45 -200 45 -200 45
1840750000 -2.0551302 158.50424 -200 45 -200 45 -200 45
1849000000 -2.0521357 157.80649 -200 45 -200 45 -200 45
1857250000 -2.0666132 157.03333 -200 45 -200 45 -200 45
1865500000 -2.0761056 156.39618 -200 45 -200 45 -200 45
1873750000 -2.0812972 155.80177 -200 45 -200 45 -200 45
1882000000 -2.0758667 155.14183 -200 45 -200 45 -200 45
1890250000 -2.0645745 154.46837 -200 45 -200 45 -200 45
1898500000 -2.0587616 153.81622 -200 45 -200 45 -200 45
1906750000 -2.0461724 153.0575 -200 45 -200 45 -200 45
1915000000 -2.0573056 152.3846 -200 45 -200 45 -200 45
1923250000 -2.0628512 151.85431 -200 45 -200 45 -200 45
1931500000 -2.0367973 151.29182 -200 45 -200 45 -200 45
1939750000 -2.0072231 150.69766 -200 45 -200 45 -200 45
1948000000 -1.9711607 150.04164 -200 45 -200 45 -200 45
1956250000 -1.9348348 149.31982 -200 45 -200 45 -200 45
1964500000 -1.9056629 148.60251 -200 45 -200 45 -200 45
1972750000 -1.8663369 147.88376 -200 45 -200 45 -200 45
1981000000 -1.8370047 147.09303 -200 45 -200 45 -200 45
1989250000 -1.8034757 146.38705 -200 45 -200 45 -200 45
1997500000 -1.7616646 145.67015 -200 45 -200 45 -200 45
2005750000 -1.7148398 144.85249 -200 45 -200 45 -200 45
2014000000 -1.6744491 143.9576 -200 45 -200 45 -200 45
2022250000 -1.6371158 143.14766 -200 45 -200 45 -200 45
2030500000 -1.5943274 142.26108 -200 45 -200 45 -200 45
2038750000 -1.5525367 141.40543 -200 45 -200 45 -200 45
2047000000 -1.506017 140.46999 -200 45 -200 45 -200 45
2055250000 -1.4669983 139.4975 -200 45 -200 45 -200 45
2063500000 -1.4309665 138.43724 -200 45 -200 45 -200 45
2071750000 -1.4046258 137.47559 -200 45 -200 45 -200 45
2080000000 -1.3767041 136.485 -200 45 -200 45 -200 45
2088250000 -1.3480988 135.46295 -200 45 -200 45 -200 45
2096500000 -1.3287289 134.51599 -200 45 -200 45 -200 45
2104750000 -1.3040329 133.53683 -200 45 -200 45 -200 45
2113000000 -1.2780478 132.56459 -200 45 -200 45 -200 45
2121250000 -1.254485 131.5519 -200 45 -200 45 -200 45
2129500000 -1.2272091 130.56813 -200 45 -200 45 -200 45
2137750000 -1.1998504 129.52307 -200 45 -200 45 -200 45
2146000000 -1.1768123 128.52028 -200 45 -200 45 -200 45
2154250000 -1.1532415 127.5369 -200 45 -200 45 -200 45
2162500000 -1.1376876 126.4994 -200 45 -200 45 -200 45
2170750000 -1.1110693 125.50921 -200 45 -200 45 -200 45
2179000000 -1.0849133 124.49337 -200 45 -200 45 -200 45
2187250000 -1.0633155 123.39896 -200 45 -200 45 -200 45
2195500000 -1.0411741 122.4015 -200 45 -200 45 -200 45
2203750000 -1.0101196 121.35688 -200 45 -200 45 -200 45
2212000000 -0.98564517 120.28855 -200 45 -200 45 -200 45
2220250000 -0.9690823 119.16455 -200 45 -200 45 -200 45
2228500000 -0.94687796 118.09568 -200 45 -200 45 -200 45
2236750000 -0.9275403 116.99256 -200 45 -200 45 -200 45
2245000000 -0.90595722 115.88448 -200 45 -200 45 -200 45
2253250000 -0.89783084 114.74696 -200 45 -200 45 -200 45
2261500000 -0.8887133 113.62313 -200 45 -200 45 -200 45
2269750000 -0.87904114 112.51022 -200 45 -200 45 -200 45
2278000000 -0.87048948 111.4313 -200 45 -200 45 -200 45
2286250000 -0.86670774 110.33498 -200 45 -200 45 -200 45
2294500000 -0.86045223 109.20378 -200 45 -200 45 -200 45
2302750000 -0.86108184 108.07336 -200 45 -200 45 -200 45
2311000000 -0.86109734 106.98199 -200 45 -200 45 -200 45
2319250000 -0.86160046 105.91492 -200 45 -200 45 -200 45
2327500000 -0.85229081 104.84531 -200 45 -200 45 -200 45
2335750000 -0.84635824 103.80733 -200 45 -200 45 -200 45
2344000000 -0.83779752 102.71809 -200 45 -200 45 -200 45
2352250000 -0.83487856 101.6335 -200 45 -200 45 -200 45
2360500000 -0.83569092 100.52811 -200 45 -200 45 -200 45
2368750000 -0.82888424 99.453209 -200 45 -200 45 -200 45
2377000000 -0.82196343 98.344063 -200 45 -200 45 -200 45
2385250000 -0.82093102 97.25946 -200 45 -200 45 -200 45
2393500000 -0.81110615 96.16893 -200 45 -200 45 -200 45
2401750000 -0.81087339 95.04908 -200 45 -200 45 -200 45
2410000000 -0.82048452 93.955666 -200 45 -200 45 -200 45
2418250000 -0.82526189 92.888062 -200 45 -200 45 -200 45
2426500000 -0.81939584 91.781288 -200 45 -200 45 -200 45
2434750000 -0.82050073 90.688583 -200 45 -200 45 -200 45
2443000000 -0.81791431 89.606781 -200 45 -200 45 -200 45
2451250000 -0.82409787 88.533989 -200 45 -200 45 -200 45
2459500000 -0.82125562 87.439362 -200 45 -200 45 -200 45
2467750000 -0.82098764 86.415543 -200 45 -200 45 -200 45
2476000000 -0.82599884 85.292152 -200 45 -200 45 -200 45
2484250000 -0.82729334 84.193146 -200 45 -200 45 -200 45
2492500000 -0.83486885 83.082947 -200 45 -200 45 -200 45
2500750000 -0.83553618 81.995758 -200 45 -200 45 -200 45
2509000000 -0.83998811 80.896767 -200 45 -200 45 -200 45
2517250000 -0.84130692 79.80056 -200 45 -200 45 -200 45
2525500000 -0.84409595 78.725632 -200 45 -200 45 -200 45
2533750000 -0.84296989 77.562424 -200 45 -200 45 -200 45
2542000000 -0.85606694 76.457352 -200 45 -200 45 -200 45
2550250000 -0.86250871 75.323898 -200 45 -200 45 -200 45
2558500000 -0.87160462 74.231514 -200 45 -200 45 -200 45
2566750000 -0.87748271 73.119576 -200 45 -200 45 -200 45
2575000000 -0.88666499 72.017258 -200 45 -200 45 -200 45
2583250000 -0.89052105 70.904808 -200 45 -200 45 -200 45
2591500000 -0.90585452 69.823051 -200 45 -200 45 -200 45
2599750000 -0.91416019 68.749359 -200 45 -200 45 -200 45
2608000000 -0.920748 67.667091 -200 45 -200 45 -200 45
2616250000 -0.93348473 66.607643 -200 45 -200 45 -200 45
2624500000 -0.93303221 65.560394 -200 45 -200 45 -200 45
2632750000 -0.94065672 64.485603 -200 45 -200 45 -200 45
2641000000 -0.93991905 63.411865 -200 45 -200 45 -200 45
2649250000 -0.949619 62.349808 -200 45 -200 45 -200 45
2657500000 -0.94861794 61.218761 -200 45 -200 45 -200 45
2665750000 -0.95408601 60.141655 -200 45 -200 45 -200 45
2674000000 -0.95880032 59.058968 -200 45 -200 45 -200 45
2682250000 -0.96589237 57.928345 -200 45 -200 45 -200 45
2690500000 -0.97116655 56.802963 -200 45 -200 45 -200 45
2698750000 -0.98284817 55.719353 -200 45 -200 45 -200 45
2707000000 -0.99406332 54.617657 -200 45 -200 45 -200 45
2715250000 -1.0034735 53.567551 -200 45 -200 45 -200 45
2723500000 -1.0024267 52.455246 -200 45 -200 45 -200 45
2731750000 -1.011736 51.291626 -200 45 -200 45 -200 45
2740000000 -1.0245728 50.212147 -200 45 -200 45 -200 45
2748250000 -1.0297095 49.112095 -200 45 -200 45 -200 45
2756500000 -1.0332468 47.937553 -200 45 -200 45 -200 45
2764750000 -1.0431603 46.792347 -200 45 -200 45 -200 45
2773000000 -1.0571178 45.661602 -200 45 -200 45 -200 45
2781250000 -1.0732937 44.491936 -200 45 -200 45 -200 45
2789500000 -1.0880206 43.400124 -200 45 -200 45 -200 45
2797750000 -1.1019685 42.270752 -200 45 -200 45 -200 45
2806000000 -1.1171921 41.118191 -200 45 -200 45 -200 45
2814250000 -1.134504 40.003231 -200 45 -200 45 -200 45
2822500000 -1.1561599 38.867203 -200 45 -200 45 -200 45
2830750000 -1.1785519 37.769962 -200 45 -200 45 -200 45
2839000000 -1.1966639 36.717468 -200 45 -200 45 -200 45
2847250000 -1.2121427 35.617622 -200 45 -200 45 -200 45
2855500000 -1.2370338 34.595177 -200 45 -200 45 -200 45
2863750000 -1.2475181 33.537983 -200 45 -200 45 -200 45
2872000000 -1.2570633 32.536282 -200 45 -200 45 -200 45
2880250000 -1.2656337 31.431448 -200 45 -200 45 -200 45
2888500000 -1.2779925 30.32349 -200 45 -200 45 -200 45
2896750000 -1.2950227 29.27681 -200 45 -200 45 -200 45
2905000000 -1.3042769 28.205877 -200 45 -200 45 -200 45
2913250000 -1.311407 27.125326 -200 45 -200 45 -200 45
2921500000 -1.3268737 26.04948 -200 45 -200 45 -200 45
2929750000 -1.3369515 24.964237 -200 45 -200 45 -200 45
2938000000 -1.3459176 23.825863 -200 45 -200 45 -200 45
2946250000 -1.3600447 22.760221 -200 45 -200 45 -200 45
2954500000 -1.3679554 21.646671 -200 45 -200 45 -200 45
2962750000 -1.3770112 20.486069 -200 45 -200 45 -200 45
