!Keysight Technologies,N5222B,MY60213399,A.14.00.23
!Date: Tuesday, February 27, 2024 20:53:27
!Correction: S11(C  1-Port  ) 
!S21(Off) 
!S12(Off) 
!S22(Off) 
!S2P File: Measurement: :
# Hz S  dB   R 50
18000000000 -5.5652666 81.525047 -200 45 -200 45 -200 45
18005312500 -5.5738463 81.127502 -200 45 -200 45 -200 45
18010625000 -5.5806746 80.70446 -200 45 -200 45 -200 45
18015937500 -5.5907588 80.328255 -200 45 -200 45 -200 45
18021250000 -5.5960426 79.901497 -200 45 -200 45 -200 45
18026562500 -5.599062 79.498398 -200 45 -200 45 -200 45
18031875000 -5.6091027 79.123863 -200 45 -200 45 -200 45
18037187500 -5.6225615 78.72451 -200 45 -200 45 -200 45
18042500000 -5.6328073 78.29908 -200 45 -200 45 -200 45
18047812500 -5.6514444 77.918556 -200 45 -200 45 -200 45
18053125000 -5.664206 77.543999 -200 45 -200 45 -200 45
18058437500 -5.6665583 77.109985 -200 45 -200 45 -200 45
18063750000 -5.6701746 76.713165 -200 45 -200 45 -200 45
18069062500 -5.6788197 76.314423 -200 45 -200 45 -200 45
18074375000 -5.6982746 75.96183 -200 45 -200 45 -200 45
18079687500 -5.7129393 75.552589 -200 45 -200 45 -200 45
18085000000 -5.7219071 75.202393 -200 45 -200 45 -200 45
18090312500 -5.7364597 74.836517 -200 45 -200 45 -200 45
18095625000 -5.742672 74.496498 -200 45 -200 45 -200 45
18100937500 -5.7519007 74.140373 -200 45 -200 45 -200 45
18106250000 -5.7580795 73.776604 -200 45 -200 45 -200 45
18111562500 -5.7675939 73.430786 -200 45 -200 45 -200 45
18116875000 -5.7734303 73.061028 -200 45 -200 45 -200 45
18122187500 -5.769279 72.690666 -200 45 -200 45 -200 45
18127500000 -5.7804728 72.289169 -200 45 -200 45 -200 45
18132812500 -5.7763143 71.87677 -200 45 -200 45 -200 45
18138125000 -5.7866011 71.493797 -200 45 -200 45 -200 45
18143437500 -5.7939172 71.092834 -200 45 -200 45 -200 45
18148750000 -5.7957973 70.643906 -200 45 -200 45 -200 45
18154062500 -5.8053823 70.234543 -200 45 -200 45 -200 45
18159375000 -5.8203087 69.857407 -200 45 -200 45 -200 45
18164687500 -5.8307939 69.439903 -200 45 -200 45 -200 45
18170000000 -5.8427906 69.021248 -200 45 -200 45 -200 45
18175312500 -5.8564472 68.65976 -200 45 -200 45 -200 45
18180625000 -5.8691297 68.292488 -200 45 -200 45 -200 45
18185937500 -5.8743982 67.896339 -200 45 -200 45 -200 45
18191250000 -5.8872991 67.558533 -200 45 -200 45 -200 45
18196562500 -5.8979464 67.156708 -200 45 -200 45 -200 45
18201875000 -5.9025712 66.719566 -200 45 -200 45 -200 45
18207187500 -5.9122806 66.30645 -200 45 -200 45 -200 45
18212500000 -5.9276419 65.963936 -200 45 -200 45 -200 45
18217812500 -5.9413552 65.633675 -200 45 -200 45 -200 45
18223125000 -5.9379926 65.290375 -200 45 -200 45 -200 45
18228437500 -5.9441996 64.924767 -200 45 -200 45 -200 45
18233750000 -5.9545059 64.576553 -200 45 -200 45 -200 45
18239062500 -5.9631166 64.200363 -200 45 -200 45 -200 45
18244375000 -5.9654188 63.810387 -200 45 -200 45 -200 45
18249687500 -5.9810615 63.420628 -200 45 -200 45 -200 45
18255000000 -5.9924536 63.082897 -200 45 -200 45 -200 45
18260312500 -6.0090981 62.7346 -200 45 -200 45 -200 45
18265625000 -6.0134683 62.443733 -200 45 -200 45 -200 45
18270937500 -6.0229344 62.066319 -200 45 -200 45 -200 45
18276250000 -6.0374708 61.753994 -200 45 -200 45 -200 45
18281562500 -6.0465326 61.399933 -200 45 -200 45 -200 45
18286875000 -6.054306 61.086502 -200 45 -200 45 -200 45
18292187500 -6.0630307 60.754471 -200 45 -200 45 -200 45
18297500000 -6.0701485 60.396393 -200 45 -200 45 -200 45
18302812500 -6.0772338 60.045937 -200 45 -200 45 -200 45
18308125000 -6.0872607 59.744247 -200 45 -200 45 -200 45
18313437500 -6.0995002 59.414619 -200 45 -200 45 -200 45
18318750000 -6.1082816 59.019207 -200 45 -200 45 -200 45
18324062500 -6.1183281 58.684433 -200 45 -200 45 -200 45
18329375000 -6.1318903 58.371754 -200 45 -200 45 -200 45
18334687500 -6.1429658 58.044617 -200 45 -200 45 -200 45
18340000000 -6.1548619 57.696465 -200 45 -200 45 -200 45
18345312500 -6.1656299 57.383938 -200 45 -200 45 -200 45
18350625000 -6.179285 57.030209 -200 45 -200 45 -200 45
18355937500 -6.1963911 56.716156 -200 45 -200 45 -200 45
18361250000 -6.2056918 56.443005 -200 45 -200 45 -200 45
18366562500 -6.2093792 56.152782 -200 45 -200 45 -200 45
18371875000 -6.218843 55.840637 -200 45 -200 45 -200 45
18377187500 -6.2115455 55.512501 -200 45 -200 45 -200 45
18382500000 -6.2301717 55.179794 -200 45 -200 45 -200 45
18387812500 -6.2376289 54.849892 -200 45 -200 45 -200 45
18393125000 -6.24193 54.456585 -200 45 -200 45 -200 45
18398437500 -6.2431755 54.16293 -200 45 -200 45 -200 45
18403750000 -6.2531791 53.760799 -200 45 -200 45 -200 45
18409062500 -6.2580762 53.381405 -200 45 -200 45 -200 45
18414375000 -6.2737417 53.024567 -200 45 -200 45 -200 45
18419687500 -6.2967544 52.700741 -200 45 -200 45 -200 45
18425000000 -6.3081284 52.343292 -200 45 -200 45 -200 45
18430312500 -6.3250709 52.097126 -200 45 -200 45 -200 45
18435625000 -6.3222442 51.795181 -200 45 -200 45 -200 45
18440937500 -6.3320189 51.473019 -200 45 -200 45 -200 45
18446250000 -6.3541284 51.069332 -200 45 -200 45 -200 45
18451562500 -6.3728242 50.759682 -200 45 -200 45 -200 45
18456875000 -6.3972144 50.556187 -200 45 -200 45 -200 45
18462187500 -6.4059114 50.347458 -200 45 -200 45 -200 45
18467500000 -6.4081554 50.142132 -200 45 -200 45 -200 45
18472812500 -6.4104786 49.875881 -200 45 -200 45 -200 45
18478125000 -6.40801 49.619545 -200 45 -200 45 -200 45
18483437500 -6.4005795 49.315102 -200 45 -200 45 -200 45
18488750000 -6.4030523 48.957657 -200 45 -200 45 -200 45
18494062500 -6.4097347 48.628601 -200 45 -200 45 -200 45
18499375000 -6.4212875 48.331165 -200 45 -200 45 -200 45
18504687500 -6.4334459 48.034363 -200 45 -200 45 -200 45
18510000000 -6.4364667 47.710762 -200 45 -200 45 -200 45
18515312500 -6.4451566 47.425179 -200 45 -200 45 -200 45
18520625000 -6.4540401 47.091671 -200 45 -200 45 -200 45
18525937500 -6.4682589 46.802567 -200 45 -200 45 -200 45
18531250000 -6.4854035 46.530998 -200 45 -200 45 -200 45
18536562500 -6.4924889 46.270481 -200 45 -200 45 -200 45
18541875000 -6.4981885 46.027176 -200 45 -200 45 -200 45
18547187500 -6.5006528 45.716152 -200 45 -200 45 -200 45
18552500000 -6.5102148 45.397724 -200 45 -200 45 -200 45
18557812500 -6.5187368 45.109612 -200 45 -200 45 -200 45
18563125000 -6.5353956 44.80788 -200 45 -200 45 -200 45
18568437500 -6.5467997 44.543777 -200 45 -200 45 -200 45
18573750000 -6.5530629 44.285805 -200 45 -200 45 -200 45
18579062500 -6.5553088 44.039196 -200 45 -200 45 -200 45
18584375000 -6.5586433 43.72134 -200 45 -200 45 -200 45
18589687500 -6.5668759 43.454231 -200 45 -200 45 -200 45
18595000000 -6.5707068 43.137825 -200 45 -200 45 -200 45
18600312500 -6.5817571 42.826202 -200 45 -200 45 -200 45
18605625000 -6.5891795 42.498531 -200 45 -200 45 -200 45
18610937500 -6.5923691 42.148422 -200 45 -200 45 -200 45
18616250000 -6.6153955 41.879871 -200 45 -200 45 -200 45
18621562500 -6.6305084 41.613602 -200 45 -200 45 -200 45
18626875000 -6.6362801 41.372936 -200 45 -200 45 -200 45
18632187500 -6.6499257 41.106426 -200 45 -200 45 -200 45
18637500000 -6.6549053 40.833134 -200 45 -200 45 -200 45
18642812500 -6.665246 40.565327 -200 45 -200 45 -200 45
18648125000 -6.6675272 40.259354 -200 45 -200 45 -200 45
18653437500 -6.6752682 40.008369 -200 45 -200 45 -200 45
18658750000 -6.6793513 39.713501 -200 45 -200 45 -200 45
18664062500 -6.696105 39.451309 -200 45 -200 45 -200 45
18669375000 -6.7012935 39.264435 -200 45 -200 45 -200 45
18674687500 -6.6952634 38.935123 -200 45 -200 45 -200 45
18680000000 -6.7023587 38.630184 -200 45 -200 45 -200 45
18685312500 -6.7105179 38.282341 -200 45 -200 45 -200 45
18690625000 -6.7312541 37.967472 -200 45 -200 45 -200 45
18695937500 -6.7483492 37.723427 -200 45 -200 45 -200 45
18701250000 -6.7688847 37.462494 -200 45 -200 45 -200 45
18706562500 -6.7823329 37.23912 -200 45 -200 45 -200 45
18711875000 -6.8000302 37.037552 -200 45 -200 45 -200 45
18717187500 -6.812706 36.823734 -200 45 -200 45 -200 45
18722500000 -6.8202066 36.608131 -200 45 -200 45 -200 45
18727812500 -6.8211732 36.39933 -200 45 -200 45 -200 45
18733125000 -6.8275213 36.175175 -200 45 -200 45 -200 45
18738437500 -6.8299909 35.977123 -200 45 -200 45 -200 45
18743750000 -6.8288169 35.724384 -200 45 -200 45 -200 45
18749062500 -6.8241668 35.474792 -200 45 -200 45 -200 45
18754375000 -6.8253436 35.121479 -200 45 -200 45 -200 45
18759687500 -6.8405099 34.768353 -200 45 -200 45 -200 45
18765000000 -6.8586311 34.549862 -200 45 -200 45 -200 45
18770312500 -6.8720722 34.247269 -200 45 -200 45 -200 45
18775625000 -6.881937 34.018185 -200 45 -200 45 -200 45
18780937500 -6.8888345 33.798611 -200 45 -200 45 -200 45
18786250000 -6.9068298 33.55373 -200 45 -200 45 -200 45
18791562500 -6.9108272 33.327961 -200 45 -200 45 -200 45
18796875000 -6.9164104 33.088345 -200 45 -200 45 -200 45
18802187500 -6.9200673 32.918201 -200 45 -200 45 -200 45
18807500000 -6.9132347 32.669891 -200 45 -200 45 -200 45
18812812500 -6.9011774 32.396957 -200 45 -200 45 -200 45
18818125000 -6.9036422 32.09362 -200 45 -200 45 -200 45
18823437500 -6.8958344 31.771664 -200 45 -200 45 -200 45
18828750000 -6.9103789 31.446732 -200 45 -200 45 -200 45
18834062500 -6.9184589 31.119251 -200 45 -200 45 -200 45
18839375000 -6.9262681 30.844284 -200 45 -200 45 -200 45
18844687500 -6.9326625 30.623344 -200 45 -200 45 -200 45
18850000000 -6.9388509 30.373541 -200 45 -200 45 -200 45
18855312500 -6.9368501 30.115793 -200 45 -200 45 -200 45
18860625000 -6.9360142 29.87409 -200 45 -200 45 -200 45
18865937500 -6.942482 29.618809 -200 45 -200 45 -200 45
18871250000 -6.9443555 29.367878 -200 45 -200 45 -200 45
18876562500 -6.9454961 29.121155 -200 45 -200 45 -200 45
18881875000 -6.9470181 28.862246 -200 45 -200 45 -200 45
18887187500 -6.9410782 28.608555 -200 45 -200 45 -200 45
18892500000 -6.9381952 28.379036 -200 45 -200 45 -200 45
18897812500 -6.9366188 28.07312 -200 45 -200 45 -200 45
18903125000 -6.9387813 27.764725 -200 45 -200 45 -200 45
18908437500 -6.9462724 27.475451 -200 45 -200 45 -200 45
18913750000 -6.956183 27.221146 -200 45 -200 45 -200 45
18919062500 -6.9610224 27.013481 -200 45 -200 45 -200 45
18924375000 -6.9551969 26.801764 -200 45 -200 45 -200 45
18929687500 -6.962738 26.516865 -200 45 -200 45 -200 45
18935000000 -6.9755516 26.280107 -200 45 -200 45 -200 45
18940312500 -6.9815512 26.060682 -200 45 -200 45 -200 45
18945625000 -6.9827814 25.843081 -200 45 -200 45 -200 45
18950937500 -6.9861345 25.639687 -200 45 -200 45 -200 45
18956250000 -6.9893756 25.417885 -200 45 -200 45 -200 45
18961562500 -6.9905539 25.219513 -200 45 -200 45 -200 45
18966875000 -6.9878545 24.95694 -200 45 -200 45 -200 45
18972187500 -6.986486 24.679108 -200 45 -200 45 -200 45
18977500000 -6.9961834 24.440441 -200 45 -200 45 -200 45
18982812500 -6.9997549 24.148527 -200 45 -200 45 -200 45
18988125000 -7.0056677 23.917496 -200 45 -200 45 -200 45
18993437500 -7.0174155 23.667959 -200 45 -200 45 -200 45
18998750000 -7.0315113 23.470186 -200 45 -200 45 -200 45
19004062500 -7.0435004 23.293325 -200 45 -200 45 -200 45
19009375000 -7.0460181 23.156553 -200 45 -200 45 -200 45
19014687500 -7.046061 23.019985 -200 45 -200 45 -200 45
19020000000 -7.0389004 22.788248 -200 45 -200 45 -200 45
19025312500 -7.032876 22.555519 -200 45 -200 45 -200 45
19030625000 -7.0222635 22.312412 -200 45 -200 45 -200 45
19035937500 -7.01932 22.060184 -200 45 -200 45 -200 45
19041250000 -7.023675 21.756075 -200 45 -200 45 -200 45
19046562500 -7.0289536 21.535654 -200 45 -200 45 -200 45
19051875000 -7.0230899 21.279236 -200 45 -200 45 -200 45
19057187500 -7.0215945 21.067854 -200 45 -200 45 -200 45
19062500000 -7.0222139 20.757813 -200 45 -200 45 -200 45
19067812500 -7.0291286 20.536619 -200 45 -200 45 -200 45
19073125000 -7.0308313 20.262756 -200 45 -200 45 -200 45
19078437500 -7.0320106 20.045092 -200 45 -200 45 -200 45
19083750000 -7.0256543 19.815889 -200 45 -200 45 -200 45
19089062500 -7.018528 19.589184 -200 45 -200 45 -200 45
19094375000 -7.0175886 19.281204 -200 45 -200 45 -200 45
19099687500 -7.0209312 19.003405 -200 45 -200 45 -200 45
19105000000 -7.0295477 18.650354 -200 45 -200 45 -200 45
19110312500 -7.0383224 18.4625 -200 45 -200 45 -200 45
19115625000 -7.0443268 18.244749 -200 45 -200 45 -200 45
19120937500 -7.041873 18.017994 -200 45 -200 45 -200 45
19126250000 -7.0437551 17.871065 -200 45 -200 45 -200 45
19131562500 -7.0380874 17.666018 -200 45 -200 45 -200 45
19136875000 -7.0314479 17.476891 -200 45 -200 45 -200 45
19142187500 -7.0178399 17.238276 -200 45 -200 45 -200 45
19147500000 -7.0076184 16.959602 -200 45 -200 45 -200 45
19152812500 -7.0017409 16.655506 -200 45 -200 45 -200 45
19158125000 -7.0024414 16.394855 -200 45 -200 45 -200 45
19163437500 -7.0002518 16.102179 -200 45 -200 45 -200 45
19168750000 -6.9996662 15.812902 -200 45 -200 45 -200 45
19174062500 -6.999342 15.55833 -200 45 -200 45 -200 45
19179375000 -6.9940805 15.270092 -200 45 -200 45 -200 45
19184687500 -6.9987926 15.006391 -200 45 -200 45 -200 45
19190000000 -6.9930029 14.797166 -200 45 -200 45 -200 45
19195312500 -6.9890275 14.473856 -200 45 -200 45 -200 45
19200625000 -6.9928622 14.14748 -200 45 -200 45 -200 45
19205937500 -6.9955902 13.848925 -200 45 -200 45 -200 45
19211250000 -7.0034356 13.593725 -200 45 -200 45 -200 45
19216562500 -7.0128169 13.337333 -200 45 -200 45 -200 45
19221875000 -7.0197906 13.150615 -200 45 -200 45 -200 45
19227187500 -7.009366 12.877974 -200 45 -200 45 -200 45
19232500000 -7.0111933 12.649363 -200 45 -200 45 -200 45
19237812500 -7.009161 12.43412 -200 45 -200 45 -200 45
19243125000 -7.007123 12.226769 -200 45 -200 45 -200 45
19248437500 -7.0007529 11.967149 -200 45 -200 45 -200 45
19253750000 -6.992125 11.759173 -200 45 -200 45 -200 45
19259062500 -6.9843545 11.455943 -200 45 -200 45 -200 45
19264375000 -6.9748774 11.183127 -200 45 -200 45 -200 45
19269687500 -6.9627414 10.868154 -200 45 -200 45 -200 45
19275000000 -6.9584928 10.540826 -200 45 -200 45 -200 45
19280312500 -6.9642329 10.243739 -200 45 -200 45 -200 45
19285625000 -6.964344 9.9933481 -200 45 -200 45 -200 45
19290937500 -6.9672694 9.7511053 -200 45 -200 45 -200 45
19296250000 -6.9599185 9.4856892 -200 45 -200 45 -200 45
19301562500 -6.9572916 9.25072 -200 45 -200 45 -200 45
19306875000 -6.9525275 8.9386044 -200 45 -200 45 -200 45
19312187500 -6.9426918 8.644248 -200 45 -200 45 -200 45
19317500000 -6.9441681 8.3781567 -200 45 -200 45 -200 45
19322812500 -6.9434257 8.1238852 -200 45 -200 45 -200 45
19328125000 -6.9425058 7.8551464 -200 45 -200 45 -200 45
19333437500 -6.9381714 7.6239743 -200 45 -200 45 -200 45
19338750000 -6.9330544 7.3671761 -200 45 -200 45 -200 45
19344062500 -6.918498 7.149158 -200 45 -200 45 -200 45
19349375000 -6.9117131 6.9085374 -200 45 -200 45 -200 45
19354687500 -6.8959293 6.6638598 -200 45 -200 45 -200 45
19360000000 -6.8778424 6.3244619 -200 45 -200 45 -200 45
19365312500 -6.8669395 5.9797969 -200 45 -200 45 -200 45
19370625000 -6.8570056 5.646194 -200 45 -200 45 -200 45
19375937500 -6.8589902 5.3554912 -200 45 -200 45 -200 45
19381250000 -6.8506756 5.0929618 -200 45 -200 45 -200 45
19386562500 -6.8410449 4.8244958 -200 45 -200 45 -200 45
19391875000 -6.825634 4.4725485 -200 45 -200 45 -200 45
19397187500 -6.8175879 4.1860375 -200 45 -200 45 -200 45
19402500000 -6.8137131 3.843981 -200 45 -200 45 -200 45
19407812500 -6.8142548 3.499506 -200 45 -200 45 -200 45
19413125000 -6.8128195 3.2252877 -200 45 -200 45 -200 45
19418437500 -6.8121977 2.9087899 -200 45 -200 45 -200 45
19423750000 -6.8118191 2.6936572 -200 45 -200 45 -200 45
19429062500 -6.8063827 2.5035098 -200 45 -200 45 -200 45
19434375000 -6.7902503 2.2319469 -200 45 -200 45 -200 45
19439687500 -6.7678576 1.9192493 -200 45 -200 45 -200 45
19445000000 -6.759378 1.5629468 -200 45 -200 45 -200 45
19450312500 -6.756536 1.2442594 -200 45 -200 45 -200 45
19455625000 -6.7485213 0.91542596 -200 45 -200 45 -200 45
19460937500 -6.7500215 0.62933934 -200 45 -200 45 -200 45
19466250000 -6.7449794 0.33197755 -200 45 -200 45 -200 45
19471562500 -6.7379694 -0.00073525507 -200 45 -200 45 -200 45
19476875000 -6.7310963 -0.31440127 -200 45 -200 45 -200 45
19482187500 -6.7276964 -0.59824061 -200 45 -200 45 -200 45
19487500000 -6.7356715 -0.86724895 -200 45 -200 45 -200 45
19492812500 -6.731318 -1.0997003 -200 45 -200 45 -200 45
19498125000 -6.7308421 -1.3786564 -200 45 -200 45 -200 45
19503437500 -6.7172341 -1.6048009 -200 45 -200 45 -200 45
19508750000 -6.7057414 -1.909696 -200 45 -200 45 -200 45
19514062500 -6.6991115 -2.1703444 -200 45 -200 45 -200 45
19519375000 -6.6848111 -2.4813354 -200 45 -200 45 -200 45
19524687500 -6.6863403 -2.8105853 -200 45 -200 45 -200 45
19530000000 -6.6833658 -3.1173456 -200 45 -200 45 -200 45
19535312500 -6.6830635 -3.3944867 -200 45 -200 45 -200 45
19540625000 -6.67664 -3.637387 -200 45 -200 45 -200 45
19545937500 -6.6749754 -3.9266238 -200 45 -200 45 -200 45
19551250000 -6.6707931 -4.2097454 -200 45 -200 45 -200 45
19556562500 -6.6721382 -4.4407077 -200 45 -200 45 -200 45
19561875000 -6.6681457 -4.7053676 -200 45 -200 45 -200 45
19567187500 -6.6575942 -4.9560223 -200 45 -200 45 -200 45
19572500000 -6.6423364 -5.2599835 -200 45 -200 45 -200 45
19577812500 -6.6288905 -5.5197806 -200 45 -200 45 -200 45
19583125000 -6.6279435 -5.8185811 -200 45 -200 45 -200 45
19588437500 -6.620718 -6.0915346 -200 45 -200 45 -200 45
19593750000 -6.6083746 -6.4049425 -200 45 -200 45 -200 45
19599062500 -6.6001477 -6.7524595 -200 45 -200 45 -200 45
19604375000 -6.5875587 -7.1169386 -200 45 -200 45 -200 45
19609687500 -6.576056 -7.472537 -200 45 -200 45 -200 45
19615000000 -6.5752115 -7.7873054 -200 45 -200 45 -200 45
19620312500 -6.5756602 -8.1485929 -200 45 -200 45 -200 45
19625625000 -6.5725608 -8.4299393 -200 45 -200 45 -200 45
19630937500 -6.5741224 -8.7620268 -200 45 -200 45 -200 45
19636250000 -6.5657649 -9.0865526 -200 45 -200 45 -200 45
19641562500 -6.559835 -9.4229441 -200 45 -200 45 -200 45
19646875000 -6.5508733 -9.7565203 -200 45 -200 45 -200 45
19652187500 -6.5431852 -10.103093 -200 45 -200 45 -200 45
19657500000 -6.5414104 -10.401126 -200 45 -200 45 -200 45
19662812500 -6.5348682 -10.696909 -200 45 -200 45 -200 45
19668125000 -6.5173612 -11.040282 -200 45 -200 45 -200 45
19673437500 -6.5044084 -11.371342 -200 45 -200 45 -200 45
19678750000 -6.4918532 -11.786916 -200 45 -200 45 -200 45
19684062500 -6.4916029 -12.220245 -200 45 -200 45 -200 45
19689375000 -6.4947805 -12.570796 -200 45 -200 45 -200 45
19694687500 -6.4960546 -12.892684 -200 45 -200 45 -200 45
19700000000 -6.4950509 -13.243895 -200 45 -200 45 -200 45
19705312500 -6.4885101 -13.560316 -200 45 -200 45 -200 45
19710625000 -6.4851918 -13.885654 -200 45 -200 45 -200 45
19715937500 -6.4815645 -14.25644 -200 45 -200 45 -200 45
19721250000 -6.4823923 -14.645705 -200 45 -200 45 -200 45
19726562500 -6.4810433 -15.014714 -200 45 -200 45 -200 45
19731875000 -6.4786172 -15.28171 -200 45 -200 45 -200 45
19737187500 -6.4806252 -15.574416 -200 45 -200 45 -200 45
19742500000 -6.4711413 -15.877644 -200 45 -200 45 -200 45
19747812500 -6.4613357 -16.224209 -200 45 -200 45 -200 45
19753125000 -6.4651351 -16.581135 -200 45 -200 45 -200 45
19758437500 -6.459487 -16.930639 -200 45 -200 45 -200 45
19763750000 -6.4601421 -17.258787 -200 45 -200 45 -200 45
19769062500 -6.4600401 -17.577665 -200 45 -200 45 -200 45
19774375000 -6.4504504 -17.918045 -200 45 -200 45 -200 45
19779687500 -6.4478431 -18.311647 -200 45 -200 45 -200 45
19785000000 -6.4404974 -18.699713 -200 45 -200 45 -200 45
19790312500 -6.4475369 -19.038458 -200 45 -200 45 -200 45
19795625000 -6.4447646 -19.375561 -200 45 -200 45 -200 45
19800937500 -6.455112 -19.727236 -200 45 -200 45 -200 45
19806250000 -6.450459 -20.058645 -200 45 -200 45 -200 45
19811562500 -6.4402046 -20.338169 -200 45 -200 45 -200 45
19816875000 -6.4346848 -20.730017 -200 45 -200 45 -200 45
19822187500 -6.4328036 -21.059391 -200 45 -200 45 -200 45
19827500000 -6.423851 -21.476027 -200 45 -200 45 -200 45
19832812500 -6.4149451 -21.866056 -200 45 -200 45 -200 45
19838125000 -6.4130659 -22.313631 -200 45 -200 45 -200 45
