!Keysight Technologies,N5222B,MY60213399,A.14.00.23
!Date: Tuesday, February 27, 2024 20:34:42
!Correction: S11(C  1-Port  ) 
!S21(Off) 
!S12(Off) 
!S22(Off) 
!S2P File: Measurement: :
# Hz S  dB   R 50
100000000 0.0022230356 -11.61794 -200 45 -200 45 -200 45
108250000 0.001829235 -12.581437 -200 45 -200 45 -200 45
116500000 0.0042121923 -13.55355 -200 45 -200 45 -200 45
124750000 0.0034781988 -14.530835 -200 45 -200 45 -200 45
133000000 0.0012987637 -15.505226 -200 45 -200 45 -200 45
141250000 -0.0023878603 -16.456367 -200 45 -200 45 -200 45
149500000 -0.0037970601 -17.400114 -200 45 -200 45 -200 45
157750000 -0.009712914 -18.333771 -200 45 -200 45 -200 45
166000000 -0.0095520653 -19.263014 -200 45 -200 45 -200 45
174250000 -0.0078277187 -20.196444 -200 45 -200 45 -200 45
182500000 -0.0047739246 -21.138702 -200 45 -200 45 -200 45
190750000 -0.0057559335 -22.089899 -200 45 -200 45 -200 45
199000000 -0.0036043043 -23.069214 -200 45 -200 45 -200 45
207250000 -0.003275292 -24.023653 -200 45 -200 45 -200 45
215500000 -0.0063923234 -24.970999 -200 45 -200 45 -200 45
223750000 -0.0070912936 -25.94751 -200 45 -200 45 -200 45
232000000 -0.0093564596 -26.928312 -200 45 -200 45 -200 45
240250000 -0.0091032749 -27.88851 -200 45 -200 45 -200 45
248500000 -0.012574694 -28.860115 -200 45 -200 45 -200 45
256750000 -0.017549599 -29.844368 -200 45 -200 45 -200 45
265000000 -0.019905522 -30.789349 -200 45 -200 45 -200 45
273250000 -0.024470998 -31.791031 -200 45 -200 45 -200 45
281500000 -0.02800527 -32.709145 -200 45 -200 45 -200 45
289750000 -0.030018365 -33.632973 -200 45 -200 45 -200 45
298000000 -0.035875585 -34.584686 -200 45 -200 45 -200 45
306250000 -0.033406116 -35.522518 -200 45 -200 45 -200 45
314500000 -0.033462465 -36.477062 -200 45 -200 45 -200 45
322750000 -0.033248562 -37.460552 -200 45 -200 45 -200 45
331000000 -0.033719681 -38.387096 -200 45 -200 45 -200 45
339250000 -0.03277697 -39.397385 -200 45 -200 45 -200 45
347500000 -0.031415701 -40.352001 -200 45 -200 45 -200 45
355750000 -0.031303585 -41.298523 -200 45 -200 45 -200 45
364000000 -0.033912733 -42.246349 -200 45 -200 45 -200 45
372250000 -0.041247033 -43.2146 -200 45 -200 45 -200 45
380500000 -0.041444864 -44.182793 -200 45 -200 45 -200 45
388750000 -0.041026216 -45.163177 -200 45 -200 45 -200 45
397000000 -0.040856101 -46.104134 -200 45 -200 45 -200 45
405250000 -0.042169102 -47.082382 -200 45 -200 45 -200 45
413500000 -0.04125252 -48.051689 -200 45 -200 45 -200 45
421750000 -0.046546116 -49.043541 -200 45 -200 45 -200 45
430000000 -0.04814744 -50.025764 -200 45 -200 45 -200 45
438250000 -0.051967464 -51.006657 -200 45 -200 45 -200 45
446500000 -0.057779618 -51.975204 -200 45 -200 45 -200 45
454750000 -0.069170862 -52.956482 -200 45 -200 45 -200 45
463000000 -0.068094999 -53.944302 -200 45 -200 45 -200 45
471250000 -0.083084293 -54.902035 -200 45 -200 45 -200 45
479500000 -0.091154806 -55.866589 -200 45 -200 45 -200 45
487750000 -0.10364135 -56.818508 -200 45 -200 45 -200 45
496000000 -0.11172895 -57.766407 -200 45 -200 45 -200 45
504250000 -0.1176419 -58.712955 -200 45 -200 45 -200 45
512500000 -0.1245647 -59.607559 -200 45 -200 45 -200 45
520750000 -0.12601757 -60.558884 -200 45 -200 45 -200 45
529000000 -0.12921146 -61.524063 -200 45 -200 45 -200 45
537250000 -0.12954855 -62.443344 -200 45 -200 45 -200 45
545500000 -0.12887199 -63.37463 -200 45 -200 45 -200 45
553750000 -0.11822361 -64.342026 -200 45 -200 45 -200 45
562000000 -0.11806907 -65.331017 -200 45 -200 45 -200 45
570250000 -0.12079343 -66.340355 -200 45 -200 45 -200 45
578500000 -0.1233384 -67.334282 -200 45 -200 45 -200 45
586750000 -0.13691165 -68.375854 -200 45 -200 45 -200 45
595000000 -0.14521165 -69.337646 -200 45 -200 45 -200 45
603250000 -0.15911426 -70.302185 -200 45 -200 45 -200 45
611500000 -0.16669203 -71.255791 -200 45 -200 45 -200 45
619750000 -0.17901465 -72.162483 -200 45 -200 45 -200 45
628000000 -0.18599255 -73.10701 -200 45 -200 45 -200 45
636250000 -0.19222292 -74.021721 -200 45 -200 45 -200 45
644500000 -0.19299467 -74.99968 -200 45 -200 45 -200 45
652750000 -0.19288914 -75.962784 -200 45 -200 45 -200 45
661000000 -0.19985713 -76.979355 -200 45 -200 45 -200 45
669250000 -0.20801526 -77.975677 -200 45 -200 45 -200 45
677500000 -0.21725678 -78.950974 -200 45 -200 45 -200 45
685750000 -0.22420786 -79.994385 -200 45 -200 45 -200 45
694000000 -0.24121077 -80.989906 -200 45 -200 45 -200 45
702250000 -0.26804134 -81.945091 -200 45 -200 45 -200 45
710500000 -0.28276223 -82.865814 -200 45 -200 45 -200 45
718750000 -0.30528244 -83.750458 -200 45 -200 45 -200 45
727000000 -0.31006142 -84.653076 -200 45 -200 45 -200 45
735250000 -0.31514627 -85.609268 -200 45 -200 45 -200 45
743500000 -0.32193422 -86.5634 -200 45 -200 45 -200 45
751750000 -0.32803145 -87.503235 -200 45 -200 45 -200 45
760000000 -0.33676201 -88.462891 -200 45 -200 45 -200 45
768250000 -0.34836143 -89.436142 -200 45 -200 45 -200 45
776500000 -0.35866499 -90.405266 -200 45 -200 45 -200 45
784750000 -0.37302431 -91.368057 -200 45 -200 45 -200 45
793000000 -0.38414955 -92.234337 -200 45 -200 45 -200 45
801250000 -0.38991314 -93.210968 -200 45 -200 45 -200 45
809500000 -0.40024349 -94.125664 -200 45 -200 45 -200 45
817750000 -0.40294546 -95.080826 -200 45 -200 45 -200 45
826000000 -0.42772377 -96.043221 -200 45 -200 45 -200 45
834250000 -0.45288041 -96.976097 -200 45 -200 45 -200 45
842500000 -0.46175158 -97.859451 -200 45 -200 45 -200 45
850750000 -0.47792384 -98.762375 -200 45 -200 45 -200 45
859000000 -0.49756575 -99.6558 -200 45 -200 45 -200 45
867250000 -0.51013368 -100.49383 -200 45 -200 45 -200 45
875500000 -0.52326661 -101.31319 -200 45 -200 45 -200 45
883750000 -0.53101051 -102.2006 -200 45 -200 45 -200 45
892000000 -0.53069752 -103.01299 -200 45 -200 45 -200 45
900250000 -0.5257628 -103.92406 -200 45 -200 45 -200 45
908500000 -0.52956682 -104.88834 -200 45 -200 45 -200 45
916750000 -0.54275143 -105.8915 -200 45 -200 45 -200 45
925000000 -0.56129521 -106.79275 -200 45 -200 45 -200 45
933250000 -0.56586617 -107.60396 -200 45 -200 45 -200 45
941500000 -0.57792807 -108.50764 -200 45 -200 45 -200 45
949750000 -0.57262278 -109.38428 -200 45 -200 45 -200 45
958000000 -0.58151555 -110.32764 -200 45 -200 45 -200 45
966250000 -0.58214182 -111.21014 -200 45 -200 45 -200 45
974500000 -0.58308786 -112.17239 -200 45 -200 45 -200 45
982750000 -0.58734488 -113.13899 -200 45 -200 45 -200 45
991000000 -0.60294706 -114.11645 -200 45 -200 45 -200 45
999250000 -0.62943429 -115.05063 -200 45 -200 45 -200 45
1007500000 -0.63915706 -115.82657 -200 45 -200 45 -200 45
1015750000 -0.64355946 -116.72056 -200 45 -200 45 -200 45
1024000000 -0.65078479 -117.63781 -200 45 -200 45 -200 45
1032250000 -0.6575855 -118.48896 -200 45 -200 45 -200 45
1040500000 -0.66079062 -119.37383 -200 45 -200 45 -200 45
1048750000 -0.66164666 -120.28754 -200 45 -200 45 -200 45
1057000000 -0.66875762 -121.17518 -200 45 -200 45 -200 45
1065250000 -0.67420918 -122.05592 -200 45 -200 45 -200 45
1073500000 -0.67781538 -122.86911 -200 45 -200 45 -200 45
1081750000 -0.67581397 -123.7879 -200 45 -200 45 -200 45
1090000000 -0.67644852 -124.70195 -200 45 -200 45 -200 45
1098250000 -0.67502975 -125.62028 -200 45 -200 45 -200 45
1106500000 -0.67735124 -126.6022 -200 45 -200 45 -200 45
1114750000 -0.690494 -127.53468 -200 45 -200 45 -200 45
1123000000 -0.70178401 -128.39915 -200 45 -200 45 -200 45
1131250000 -0.71456248 -129.27713 -200 45 -200 45 -200 45
1139500000 -0.72143424 -130.13257 -200 45 -200 45 -200 45
1147750000 -0.71130621 -130.99937 -200 45 -200 45 -200 45
1156000000 -0.71233881 -131.92914 -200 45 -200 45 -200 45
1164250000 -0.71504438 -132.81572 -200 45 -200 45 -200 45
1172500000 -0.71786708 -133.73738 -200 45 -200 45 -200 45
1180750000 -0.71865869 -134.6302 -200 45 -200 45 -200 45
1189000000 -0.72164971 -135.55876 -200 45 -200 45 -200 45
1197250000 -0.7219404 -136.52095 -200 45 -200 45 -200 45
1205500000 -0.72913945 -137.43506 -200 45 -200 45 -200 45
1213750000 -0.73739862 -138.36679 -200 45 -200 45 -200 45
1222000000 -0.7385537 -139.25801 -200 45 -200 45 -200 45
1230250000 -0.74835557 -140.15045 -200 45 -200 45 -200 45
1238500000 -0.76140064 -141.03716 -200 45 -200 45 -200 45
1246750000 -0.76744026 -141.89053 -200 45 -200 45 -200 45
1255000000 -0.77240145 -142.72359 -200 45 -200 45 -200 45
1263250000 -0.77477711 -143.61426 -200 45 -200 45 -200 45
1271500000 -0.77471924 -144.49344 -200 45 -200 45 -200 45
1279750000 -0.76935488 -145.35831 -200 45 -200 45 -200 45
1288000000 -0.77499622 -146.26251 -200 45 -200 45 -200 45
1296250000 -0.77720547 -147.11145 -200 45 -200 45 -200 45
1304500000 -0.77104038 -148.00667 -200 45 -200 45 -200 45
1312750000 -0.78138226 -148.90706 -200 45 -200 45 -200 45
1321000000 -0.77736801 -149.74702 -200 45 -200 45 -200 45
1329250000 -0.77047682 -150.58023 -200 45 -200 45 -200 45
1337500000 -0.76016575 -151.41319 -200 45 -200 45 -200 45
1345750000 -0.74214345 -152.34547 -200 45 -200 45 -200 45
1354000000 -0.73229307 -153.3687 -200 45 -200 45 -200 45
1362250000 -0.71944988 -154.31226 -200 45 -200 45 -200 45
1370500000 -0.72671735 -155.21965 -200 45 -200 45 -200 45
1378750000 -0.71973765 -156.17125 -200 45 -200 45 -200 45
1387000000 -0.71571857 -157.11719 -200 45 -200 45 -200 45
1395250000 -0.71582752 -158.09764 -200 45 -200 45 -200 45
1403500000 -0.71855485 -159.06964 -200 45 -200 45 -200 45
1411750000 -0.71619993 -159.94685 -200 45 -200 45 -200 45
1420000000 -0.70864624 -160.91049 -200 45 -200 45 -200 45
1428250000 -0.7046237 -161.8866 -200 45 -200 45 -200 45
1436500000 -0.71089852 -162.8311 -200 45 -200 45 -200 45
1444750000 -0.70949316 -163.75307 -200 45 -200 45 -200 45
1453000000 -0.70667136 -164.72047 -200 45 -200 45 -200 45
1461250000 -0.70550215 -165.60851 -200 45 -200 45 -200 45
1469500000 -0.704705 -166.54817 -200 45 -200 45 -200 45
1477750000 -0.70401514 -167.4559 -200 45 -200 45 -200 45
1486000000 -0.70211506 -168.39362 -200 45 -200 45 -200 45
1494250000 -0.69557548 -169.34236 -200 45 -200 45 -200 45
1502500000 -0.69656152 -170.29092 -200 45 -200 45 -200 45
1510750000 -0.69652808 -171.26147 -200 45 -200 45 -200 45
1519000000 -0.68897021 -172.18954 -200 45 -200 45 -200 45
1527250000 -0.68777454 -173.13481 -200 45 -200 45 -200 45
1535500000 -0.68006384 -174.09619 -200 45 -200 45 -200 45
1543750000 -0.67751372 -175.08189 -200 45 -200 45 -200 45
1552000000 -0.67316502 -176.08128 -200 45 -200 45 -200 45
1560250000 -0.67791432 -177.08099 -200 45 -200 45 -200 45
1568500000 -0.68442976 -178.01123 -200 45 -200 45 -200 45
1576750000 -0.68726903 -178.95844 -200 45 -200 45 -200 45
1585000000 -0.68536597 -179.92645 -200 45 -200 45 -200 45
1593250000 -0.68882459 179.1066 -200 45 -200 45 -200 45
1601500000 -0.69200492 178.13989 -200 45 -200 45 -200 45
1609750000 -0.68878394 177.18828 -200 45 -200 45 -200 45
1618000000 -0.69561195 176.25288 -200 45 -200 45 -200 45
1626250000 -0.69560468 175.27769 -200 45 -200 45 -200 45
1634500000 -0.69719702 174.36383 -200 45 -200 45 -200 45
1642750000 -0.69770521 173.40851 -200 45 -200 45 -200 45
1651000000 -0.6970861 172.46568 -200 45 -200 45 -200 45
1659250000 -0.69407672 171.50107 -200 45 -200 45 -200 45
1667500000 -0.70096749 170.53056 -200 45 -200 45 -200 45
1675750000 -0.70158625 169.5957 -200 45 -200 45 -200 45
1684000000 -0.69486701 168.65161 -200 45 -200 45 -200 45
1692250000 -0.69480753 167.69406 -200 45 -200 45 -200 45
1700500000 -0.69283372 166.76617 -200 45 -200 45 -200 45
1708750000 -0.69077772 165.83247 -200 45 -200 45 -200 45
1717000000 -0.68982577 164.87862 -200 45 -200 45 -200 45
1725250000 -0.68828803 163.91504 -200 45 -200 45 -200 45
1733500000 -0.67910123 162.92557 -200 45 -200 45 -200 45
1741750000 -0.68079293 161.94711 -200 45 -200 45 -200 45
1750000000 -0.68197215 160.99324 -200 45 -200 45 -200 45
1758250000 -0.68110055 159.9993 -200 45 -200 45 -200 45
1766500000 -0.67834312 159.01541 -200 45 -200 45 -200 45
1774750000 -0.67731375 158.00699 -200 45 -200 45 -200 45
1783000000 -0.68078351 157.03104 -200 45 -200 45 -200 45
1791250000 -0.68295389 156.05617 -200 45 -200 45 -200 45
1799500000 -0.67831618 155.02509 -200 45 -200 45 -200 45
1807750000 -0.69057775 154.0661 -200 45 -200 45 -200 45
1816000000 -0.6933521 153.09978 -200 45 -200 45 -200 45
1824250000 -0.69661438 152.13814 -200 45 -200 45 -200 45
1832500000 -0.69376355 151.12907 -200 45 -200 45 -200 45
1840750000 -0.69985908 150.14951 -200 45 -200 45 -200 45
1849000000 -0.70173049 149.2339 -200 45 -200 45 -200 45
1857250000 -0.70179373 148.22098 -200 45 -200 45 -200 45
1865500000 -0.70476407 147.28157 -200 45 -200 45 -200 45
1873750000 -0.70707738 146.33875 -200 45 -200 45 -200 45
1882000000 -0.70399928 145.38014 -200 45 -200 45 -200 45
1890250000 -0.69715023 144.42163 -200 45 -200 45 -200 45
1898500000 -0.69606346 143.4129 -200 45 -200 45 -200 45
1906750000 -0.68873209 142.41856 -200 45 -200 45 -200 45
1915000000 -0.69234186 141.4505 -200 45 -200 45 -200 45
1923250000 -0.68947083 140.4875 -200 45 -200 45 -200 45
1931500000 -0.68973327 139.47154 -200 45 -200 45 -200 45
1939750000 -0.68550175 138.49823 -200 45 -200 45 -200 45
1948000000 -0.68863231 137.46935 -200 45 -200 45 -200 45
1956250000 -0.68531775 136.46948 -200 45 -200 45 -200 45
1964500000 -0.69236952 135.49596 -200 45 -200 45 -200 45
1972750000 -0.68843359 134.46069 -200 45 -200 45 -200 45
1981000000 -0.69033134 133.46793 -200 45 -200 45 -200 45
1989250000 -0.69142151 132.46686 -200 45 -200 45 -200 45
1997500000 -0.69277877 131.47406 -200 45 -200 45 -200 45
2005750000 -0.69356316 130.46565 -200 45 -200 45 -200 45
2014000000 -0.69796664 129.47412 -200 45 -200 45 -200 45
2022250000 -0.69226146 128.46646 -200 45 -200 45 -200 45
2030500000 -0.69052404 127.47598 -200 45 -200 45 -200 45
2038750000 -0.69866526 126.40823 -200 45 -200 45 -200 45
2047000000 -0.702636 125.36326 -200 45 -200 45 -200 45
2055250000 -0.71555406 124.36356 -200 45 -200 45 -200 45
2063500000 -0.71800631 123.32887 -200 45 -200 45 -200 45
2071750000 -0.72354484 122.34006 -200 45 -200 45 -200 45
2080000000 -0.73619407 121.29352 -200 45 -200 45 -200 45
2088250000 -0.74238205 120.3103 -200 45 -200 45 -200 45
2096500000 -0.74330539 119.33055 -200 45 -200 45 -200 45
2104750000 -0.75195467 118.29115 -200 45 -200 45 -200 45
2113000000 -0.76084793 117.27837 -200 45 -200 45 -200 45
2121250000 -0.77360797 116.31016 -200 45 -200 45 -200 45
2129500000 -0.77714729 115.34669 -200 45 -200 45 -200 45
2137750000 -0.78341812 114.33424 -200 45 -200 45 -200 45
2146000000 -0.7812472 113.3685 -200 45 -200 45 -200 45
2154250000 -0.77920341 112.37988 -200 45 -200 45 -200 45
2162500000 -0.78781998 111.38408 -200 45 -200 45 -200 45
2170750000 -0.78364533 110.33405 -200 45 -200 45 -200 45
2179000000 -0.7883088 109.3175 -200 45 -200 45 -200 45
2187250000 -0.79322773 108.25606 -200 45 -200 45 -200 45
2195500000 -0.79819173 107.29581 -200 45 -200 45 -200 45
2203750000 -0.8059684 106.24931 -200 45 -200 45 -200 45
2212000000 -0.80666625 105.23766 -200 45 -200 45 -200 45
2220250000 -0.82403964 104.19115 -200 45 -200 45 -200 45
2228500000 -0.82599163 103.15549 -200 45 -200 45 -200 45
2236750000 -0.84207863 102.16637 -200 45 -200 45 -200 45
2245000000 -0.84349483 101.11879 -200 45 -200 45 -200 45
2253250000 -0.85725218 100.09234 -200 45 -200 45 -200 45
2261500000 -0.8753311 99.087189 -200 45 -200 45 -200 45
2269750000 -0.88845283 98.094986 -200 45 -200 45 -200 45
2278000000 -0.89736015 97.144081 -200 45 -200 45 -200 45
2286250000 -0.91339821 96.187393 -200 45 -200 45 -200 45
2294500000 -0.91797423 95.155373 -200 45 -200 45 -200 45
2302750000 -0.93468225 94.199661 -200 45 -200 45 -200 45
2311000000 -0.93810856 93.202278 -200 45 -200 45 -200 45
2319250000 -0.95033711 92.201706 -200 45 -200 45 -200 45
2327500000 -0.95521474 91.206642 -200 45 -200 45 -200 45
2335750000 -0.96555191 90.246208 -200 45 -200 45 -200 45
2344000000 -0.97408694 89.277298 -200 45 -200 45 -200 45
2352250000 -0.98225904 88.335556 -200 45 -200 45 -200 45
2360500000 -0.98750639 87.34082 -200 45 -200 45 -200 45
2368750000 -0.98850507 86.299629 -200 45 -200 45 -200 45
2377000000 -1.002116 85.319107 -200 45 -200 45 -200 45
2385250000 -1.0140388 84.318024 -200 45 -200 45 -200 45
2393500000 -1.0149412 83.385101 -200 45 -200 45 -200 45
2401750000 -1.0169514 82.386345 -200 45 -200 45 -200 45
2410000000 -1.0315155 81.373978 -200 45 -200 45 -200 45
2418250000 -1.0377059 80.432365 -200 45 -200 45 -200 45
2426500000 -1.044883 79.40123 -200 45 -200 45 -200 45
2434750000 -1.0472966 78.41523 -200 45 -200 45 -200 45
2443000000 -1.0491884 77.382805 -200 45 -200 45 -200 45
2451250000 -1.0656666 76.342575 -200 45 -200 45 -200 45
2459500000 -1.0784605 75.330383 -200 45 -200 45 -200 45
2467750000 -1.0915378 74.389786 -200 45 -200 45 -200 45
2476000000 -1.1035895 73.372841 -200 45 -200 45 -200 45
2484250000 -1.1185499 72.381226 -200 45 -200 45 -200 45
2492500000 -1.1363375 71.359505 -200 45 -200 45 -200 45
2500750000 -1.1513106 70.410156 -200 45 -200 45 -200 45
2509000000 -1.1658719 69.451836 -200 45 -200 45 -200 45
2517250000 -1.1828349 68.45787 -200 45 -200 45 -200 45
2525500000 -1.2048285 67.55648 -200 45 -200 45 -200 45
2533750000 -1.2135736 66.611259 -200 45 -200 45 -200 45
2542000000 -1.2260842 65.710091 -200 45 -200 45 -200 45
2550250000 -1.2373592 64.755356 -200 45 -200 45 -200 45
2558500000 -1.2510448 63.88789 -200 45 -200 45 -200 45
2566750000 -1.2522019 63.026665 -200 45 -200 45 -200 45
2575000000 -1.2470796 62.092308 -200 45 -200 45 -200 45
2583250000 -1.2498568 61.094658 -200 45 -200 45 -200 45
2591500000 -1.2518746 60.194935 -200 45 -200 45 -200 45
2599750000 -1.262109 59.220608 -200 45 -200 45 -200 45
2608000000 -1.2639376 58.338299 -200 45 -200 45 -200 45
2616250000 -1.2587537 57.42683 -200 45 -200 45 -200 45
2624500000 -1.253682 56.468498 -200 45 -200 45 -200 45
2632750000 -1.2587662 55.468094 -200 45 -200 45 -200 45
2641000000 -1.2612255 54.512276 -200 45 -200 45 -200 45
2649250000 -1.2665037 53.589203 -200 45 -200 45 -200 45
2657500000 -1.2617612 52.612179 -200 45 -200 45 -200 45
2665750000 -1.2625303 51.657524 -200 45 -200 45 -200 45
2674000000 -1.2739403 50.699272 -200 45 -200 45 -200 45
2682250000 -1.2822572 49.80714 -200 45 -200 45 -200 45
2690500000 -1.27543 48.892742 -200 45 -200 45 -200 45
2698750000 -1.2797151 47.911198 -200 45 -200 45 -200 45
2707000000 -1.2810836 46.994896 -200 45 -200 45 -200 45
2715250000 -1.2786347 46.093151 -200 45 -200 45 -200 45
2723500000 -1.2778161 45.139004 -200 45 -200 45 -200 45
2731750000 -1.2785676 44.210182 -200 45 -200 45 -200 45
2740000000 -1.2704169 43.315605 -200 45 -200 45 -200 45
2748250000 -1.2552118 42.35358 -200 45 -200 45 -200 45
2756500000 -1.2460955 41.369278 -200 45 -200 45 -200 45
2764750000 -1.2473581 40.404797 -200 45 -200 45 -200 45
2773000000 -1.2391149 39.476177 -200 45 -200 45 -200 45
2781250000 -1.2342763 38.518597 -200 45 -200 45 -200 45
2789500000 -1.2131348 37.603638 -200 45 -200 45 -200 45
2797750000 -1.1995034 36.581112 -200 45 -200 45 -200 45
2806000000 -1.1820036 35.589855 -200 45 -200 45 -200 45
2814250000 -1.1733164 34.586628 -200 45 -200 45 -200 45
2822500000 -1.1615703 33.531868 -200 45 -200 45 -200 45
2830750000 -1.1550138 32.505772 -200 45 -200 45 -200 45
2839000000 -1.1442755 31.512295 -200 45 -200 45 -200 45
2847250000 -1.1300356 30.469194 -200 45 -200 45 -200 45
2855500000 -1.1229411 29.415258 -200 45 -200 45 -200 45
2863750000 -1.1129307 28.388126 -200 45 -200 45 -200 45
2872000000 -1.1102951 27.342072 -200 45 -200 45 -200 45
2880250000 -1.1002033 26.359283 -200 45 -200 45 -200 45
2888500000 -1.0906669 25.28233 -200 45 -200 45 -200 45
2896750000 -1.0763204 24.22673 -200 45 -200 45 -200 45
2905000000 -1.0788826 23.15346 -200 45 -200 45 -200 45
2913250000 -1.078787 22.137741 -200 45 -200 45 -200 45
2921500000 -1.0741658 21.121241 -200 45 -200 45 -200 45
2929750000 -1.0719835 20.094385 -200 45 -200 45 -200 45
2938000000 -1.0620925 19.055937 -200 45 -200 45 -200 45
2946250000 -1.0566682 18.079731 -200 45 -200 45 -200 45
2954500000 -1.0410869 17.04077 -200 45 -200 45 -200 45
