!Keysight Technologies,N5222B,MY60213399,A.14.00.23
!Date: Tuesday, February 27, 2024 20:51:50
!Correction: S11(C  1-Port  ) 
!S21(Off) 
!S12(Off) 
!S22(Off) 
!S2P File: Measurement: :
# Hz S  dB   R 50
18000000000 -7.8689938 1.9094522 -200 45 -200 45 -200 45
18005312500 -7.8904772 1.645867 -200 45 -200 45 -200 45
18010625000 -7.9097233 1.3670619 -200 45 -200 45 -200 45
18015937500 -7.93647 1.0858483 -200 45 -200 45 -200 45
18021250000 -7.9599223 0.79174566 -200 45 -200 45 -200 45
18026562500 -7.9932489 0.47182381 -200 45 -200 45 -200 45
18031875000 -8.0305214 0.22465397 -200 45 -200 45 -200 45
18037187500 -8.0556087 -0.034957431 -200 45 -200 45 -200 45
18042500000 -8.0802717 -0.31648836 -200 45 -200 45 -200 45
18047812500 -8.1128397 -0.60784578 -200 45 -200 45 -200 45
18053125000 -8.1490955 -0.86231244 -200 45 -200 45 -200 45
18058437500 -8.1806822 -1.1048415 -200 45 -200 45 -200 45
18063750000 -8.2053652 -1.3455304 -200 45 -200 45 -200 45
18069062500 -8.2268047 -1.6156999 -200 45 -200 45 -200 45
18074375000 -8.2685642 -1.8719164 -200 45 -200 45 -200 45
18079687500 -8.3011293 -2.131264 -200 45 -200 45 -200 45
18085000000 -8.3345499 -2.3986895 -200 45 -200 45 -200 45
18090312500 -8.3744373 -2.6100209 -200 45 -200 45 -200 45
18095625000 -8.4018354 -2.8319533 -200 45 -200 45 -200 45
18100937500 -8.4189367 -3.0504582 -200 45 -200 45 -200 45
18106250000 -8.4400434 -3.3068049 -200 45 -200 45 -200 45
18111562500 -8.4633598 -3.6316116 -200 45 -200 45 -200 45
18116875000 -8.4852076 -3.9871294 -200 45 -200 45 -200 45
18122187500 -8.5221624 -4.3649702 -200 45 -200 45 -200 45
18127500000 -8.5651798 -4.6713748 -200 45 -200 45 -200 45
18132812500 -8.6031408 -4.9594569 -200 45 -200 45 -200 45
18138125000 -8.6484947 -5.2232718 -200 45 -200 45 -200 45
18143437500 -8.6850109 -5.3878713 -200 45 -200 45 -200 45
18148750000 -8.7085514 -5.594861 -200 45 -200 45 -200 45
18154062500 -8.7278976 -5.8939013 -200 45 -200 45 -200 45
18159375000 -8.7575188 -6.1777997 -200 45 -200 45 -200 45
18164687500 -8.7842903 -6.4639001 -200 45 -200 45 -200 45
18170000000 -8.8137207 -6.7727051 -200 45 -200 45 -200 45
18175312500 -8.8416042 -6.9729848 -200 45 -200 45 -200 45
18180625000 -8.8683529 -7.2477579 -200 45 -200 45 -200 45
18185937500 -8.8905745 -7.5133147 -200 45 -200 45 -200 45
18191250000 -8.9195786 -7.7252316 -200 45 -200 45 -200 45
18196562500 -8.9466248 -7.9772215 -200 45 -200 45 -200 45
18201875000 -8.9749537 -8.2058525 -200 45 -200 45 -200 45
18207187500 -8.99613 -8.4813461 -200 45 -200 45 -200 45
18212500000 -9.0250235 -8.7603149 -200 45 -200 45 -200 45
18217812500 -9.0584297 -8.9975023 -200 45 -200 45 -200 45
18223125000 -9.0925627 -9.1636887 -200 45 -200 45 -200 45
18228437500 -9.1221704 -9.3463392 -200 45 -200 45 -200 45
18233750000 -9.1517153 -9.486721 -200 45 -200 45 -200 45
18239062500 -9.1778803 -9.608017 -200 45 -200 45 -200 45
18244375000 -9.1900978 -9.7407694 -200 45 -200 45 -200 45
18249687500 -9.1995344 -9.8798256 -200 45 -200 45 -200 45
18255000000 -9.2186165 -10.147419 -200 45 -200 45 -200 45
18260312500 -9.2457705 -10.381631 -200 45 -200 45 -200 45
18265625000 -9.2779608 -10.595528 -200 45 -200 45 -200 45
18270937500 -9.304472 -10.765468 -200 45 -200 45 -200 45
18276250000 -9.3239822 -10.942163 -200 45 -200 45 -200 45
18281562500 -9.3480835 -11.143425 -200 45 -200 45 -200 45
18286875000 -9.3730021 -11.370936 -200 45 -200 45 -200 45
18292187500 -9.402422 -11.624127 -200 45 -200 45 -200 45
18297500000 -9.433219 -11.826597 -200 45 -200 45 -200 45
18302812500 -9.4614325 -11.969724 -200 45 -200 45 -200 45
18308125000 -9.4891539 -12.11273 -200 45 -200 45 -200 45
18313437500 -9.5153503 -12.324017 -200 45 -200 45 -200 45
18318750000 -9.5339413 -12.59787 -200 45 -200 45 -200 45
18324062500 -9.5574217 -12.873819 -200 45 -200 45 -200 45
18329375000 -9.5898447 -13.165428 -200 45 -200 45 -200 45
18334687500 -9.6266899 -13.445238 -200 45 -200 45 -200 45
18340000000 -9.6740885 -13.720108 -200 45 -200 45 -200 45
18345312500 -9.7257013 -13.933456 -200 45 -200 45 -200 45
18350625000 -9.7675009 -14.145502 -200 45 -200 45 -200 45
18355937500 -9.814374 -14.256401 -200 45 -200 45 -200 45
18361250000 -9.8470516 -14.328634 -200 45 -200 45 -200 45
18366562500 -9.8771381 -14.430786 -200 45 -200 45 -200 45
18371875000 -9.8965025 -14.576152 -200 45 -200 45 -200 45
18377187500 -9.9135561 -14.763928 -200 45 -200 45 -200 45
18382500000 -9.9366789 -14.954667 -200 45 -200 45 -200 45
18387812500 -9.9525299 -15.234973 -200 45 -200 45 -200 45
18393125000 -9.9769163 -15.39327 -200 45 -200 45 -200 45
18398437500 -9.9942455 -15.63483 -200 45 -200 45 -200 45
18403750000 -10.02421 -15.918115 -200 45 -200 45 -200 45
18409062500 -10.055401 -16.175451 -200 45 -200 45 -200 45
18414375000 -10.089642 -16.376041 -200 45 -200 45 -200 45
18419687500 -10.133945 -16.515141 -200 45 -200 45 -200 45
18425000000 -10.164281 -16.608759 -200 45 -200 45 -200 45
18430312500 -10.18089 -16.712746 -200 45 -200 45 -200 45
18435625000 -10.198029 -16.822029 -200 45 -200 45 -200 45
18440937500 -10.209126 -16.951008 -200 45 -200 45 -200 45
18446250000 -10.216819 -17.174582 -200 45 -200 45 -200 45
18451562500 -10.236229 -17.400949 -200 45 -200 45 -200 45
18456875000 -10.255149 -17.633736 -200 45 -200 45 -200 45
18462187500 -10.276006 -17.862617 -200 45 -200 45 -200 45
18467500000 -10.308852 -18.052776 -200 45 -200 45 -200 45
18472812500 -10.334358 -18.260433 -200 45 -200 45 -200 45
18478125000 -10.36463 -18.401136 -200 45 -200 45 -200 45
18483437500 -10.381283 -18.552599 -200 45 -200 45 -200 45
18488750000 -10.408516 -18.725687 -200 45 -200 45 -200 45
18494062500 -10.436937 -18.872185 -200 45 -200 45 -200 45
18499375000 -10.46568 -18.973988 -200 45 -200 45 -200 45
18504687500 -10.492562 -19.112667 -200 45 -200 45 -200 45
18510000000 -10.512596 -19.306845 -200 45 -200 45 -200 45
18515312500 -10.541372 -19.434633 -200 45 -200 45 -200 45
18520625000 -10.569878 -19.560213 -200 45 -200 45 -200 45
18525937500 -10.598884 -19.662607 -200 45 -200 45 -200 45
18531250000 -10.636376 -19.774776 -200 45 -200 45 -200 45
18536562500 -10.663239 -19.878099 -200 45 -200 45 -200 45
18541875000 -10.689277 -19.940649 -200 45 -200 45 -200 45
18547187500 -10.710371 -20.041759 -200 45 -200 45 -200 45
18552500000 -10.735578 -20.195868 -200 45 -200 45 -200 45
18557812500 -10.768189 -20.256691 -200 45 -200 45 -200 45
18563125000 -10.800708 -20.382652 -200 45 -200 45 -200 45
18568437500 -10.825224 -20.44145 -200 45 -200 45 -200 45
18573750000 -10.845716 -20.412691 -200 45 -200 45 -200 45
18579062500 -10.856273 -20.537975 -200 45 -200 45 -200 45
18584375000 -10.878367 -20.738745 -200 45 -200 45 -200 45
18589687500 -10.905419 -20.868429 -200 45 -200 45 -200 45
18595000000 -10.933722 -21.030479 -200 45 -200 45 -200 45
18600312500 -10.967992 -21.123259 -200 45 -200 45 -200 45
18605625000 -10.991226 -21.220108 -200 45 -200 45 -200 45
18610937500 -11.026461 -21.315817 -200 45 -200 45 -200 45
18616250000 -11.069901 -21.358255 -200 45 -200 45 -200 45
18621562500 -11.085622 -21.397251 -200 45 -200 45 -200 45
18626875000 -11.113402 -21.455431 -200 45 -200 45 -200 45
18632187500 -11.131643 -21.471794 -200 45 -200 45 -200 45
18637500000 -11.14037 -21.583183 -200 45 -200 45 -200 45
18642812500 -11.152534 -21.681669 -200 45 -200 45 -200 45
18648125000 -11.167428 -21.861429 -200 45 -200 45 -200 45
18653437500 -11.193297 -21.96015 -200 45 -200 45 -200 45
18658750000 -11.211507 -22.102814 -200 45 -200 45 -200 45
18664062500 -11.239824 -22.202106 -200 45 -200 45 -200 45
18669375000 -11.270185 -22.268583 -200 45 -200 45 -200 45
18674687500 -11.280903 -22.320921 -200 45 -200 45 -200 45
18680000000 -11.296764 -22.423063 -200 45 -200 45 -200 45
18685312500 -11.318278 -22.472805 -200 45 -200 45 -200 45
18690625000 -11.337003 -22.568287 -200 45 -200 45 -200 45
18695937500 -11.351919 -22.588577 -200 45 -200 45 -200 45
18701250000 -11.354119 -22.697601 -200 45 -200 45 -200 45
18706562500 -11.36609 -22.762182 -200 45 -200 45 -200 45
18711875000 -11.376025 -22.882965 -200 45 -200 45 -200 45
18717187500 -11.384583 -22.988644 -200 45 -200 45 -200 45
18722500000 -11.396381 -23.180021 -200 45 -200 45 -200 45
18727812500 -11.412519 -23.326426 -200 45 -200 45 -200 45
18733125000 -11.43838 -23.476997 -200 45 -200 45 -200 45
18738437500 -11.465323 -23.476242 -200 45 -200 45 -200 45
18743750000 -11.494922 -23.493389 -200 45 -200 45 -200 45
18749062500 -11.505075 -23.438681 -200 45 -200 45 -200 45
18754375000 -11.493408 -23.4233 -200 45 -200 45 -200 45
18759687500 -11.486991 -23.52861 -200 45 -200 45 -200 45
18765000000 -11.493967 -23.632437 -200 45 -200 45 -200 45
18770312500 -11.504063 -23.75433 -200 45 -200 45 -200 45
18775625000 -11.518538 -23.800947 -200 45 -200 45 -200 45
18780937500 -11.525489 -23.85758 -200 45 -200 45 -200 45
18786250000 -11.539816 -23.906193 -200 45 -200 45 -200 45
18791562500 -11.541742 -23.921532 -200 45 -200 45 -200 45
18796875000 -11.546844 -24.063799 -200 45 -200 45 -200 45
18802187500 -11.561084 -24.083576 -200 45 -200 45 -200 45
18807500000 -11.56586 -24.128546 -200 45 -200 45 -200 45
18812812500 -11.57369 -24.174416 -200 45 -200 45 -200 45
18818125000 -11.578846 -24.210917 -200 45 -200 45 -200 45
18823437500 -11.578599 -24.2108 -200 45 -200 45 -200 45
18828750000 -11.577269 -24.287043 -200 45 -200 45 -200 45
18834062500 -11.577861 -24.400043 -200 45 -200 45 -200 45
18839375000 -11.578507 -24.492111 -200 45 -200 45 -200 45
18844687500 -11.584316 -24.54426 -200 45 -200 45 -200 45
18850000000 -11.57884 -24.637812 -200 45 -200 45 -200 45
18855312500 -11.578408 -24.696177 -200 45 -200 45 -200 45
18860625000 -11.577111 -24.789137 -200 45 -200 45 -200 45
18865937500 -11.578956 -24.913847 -200 45 -200 45 -200 45
18871250000 -11.576405 -25.044462 -200 45 -200 45 -200 45
18876562500 -11.58569 -25.202673 -200 45 -200 45 -200 45
18881875000 -11.581289 -25.317541 -200 45 -200 45 -200 45
18887187500 -11.575758 -25.432072 -200 45 -200 45 -200 45
18892500000 -11.574599 -25.572821 -200 45 -200 45 -200 45
18897812500 -11.578035 -25.784056 -200 45 -200 45 -200 45
18903125000 -11.587296 -25.988577 -200 45 -200 45 -200 45
18908437500 -11.599045 -26.079548 -200 45 -200 45 -200 45
18913750000 -11.605264 -26.140404 -200 45 -200 45 -200 45
18919062500 -11.608971 -26.200567 -200 45 -200 45 -200 45
18924375000 -11.593079 -26.272345 -200 45 -200 45 -200 45
18929687500 -11.57616 -26.388176 -200 45 -200 45 -200 45
18935000000 -11.570452 -26.565958 -200 45 -200 45 -200 45
18940312500 -11.572345 -26.712219 -200 45 -200 45 -200 45
18945625000 -11.574072 -26.82478 -200 45 -200 45 -200 45
18950937500 -11.568525 -26.826132 -200 45 -200 45 -200 45
18956250000 -11.555724 -26.946117 -200 45 -200 45 -200 45
18961562500 -11.536 -27.048058 -200 45 -200 45 -200 45
18966875000 -11.521535 -27.162868 -200 45 -200 45 -200 45
18972187500 -11.505226 -27.260298 -200 45 -200 45 -200 45
18977500000 -11.49933 -27.321337 -200 45 -200 45 -200 45
18982812500 -11.471801 -27.461245 -200 45 -200 45 -200 45
18988125000 -11.456937 -27.544256 -200 45 -200 45 -200 45
18993437500 -11.44374 -27.706205 -200 45 -200 45 -200 45
18998750000 -11.427124 -27.803438 -200 45 -200 45 -200 45
19004062500 -11.403374 -27.926722 -200 45 -200 45 -200 45
19009375000 -11.381911 -28.073452 -200 45 -200 45 -200 45
19014687500 -11.361574 -28.268112 -200 45 -200 45 -200 45
19020000000 -11.355378 -28.487333 -200 45 -200 45 -200 45
19025312500 -11.348063 -28.762197 -200 45 -200 45 -200 45
19030625000 -11.354038 -28.843803 -200 45 -200 45 -200 45
19035937500 -11.356382 -28.928129 -200 45 -200 45 -200 45
19041250000 -11.34916 -29.091982 -200 45 -200 45 -200 45
19046562500 -11.347911 -29.168346 -200 45 -200 45 -200 45
19051875000 -11.325773 -29.224983 -200 45 -200 45 -200 45
19057187500 -11.317093 -29.282753 -200 45 -200 45 -200 45
19062500000 -11.298096 -29.420401 -200 45 -200 45 -200 45
19067812500 -11.280484 -29.623047 -200 45 -200 45 -200 45
19073125000 -11.265779 -29.860737 -200 45 -200 45 -200 45
19078437500 -11.259665 -30.124779 -200 45 -200 45 -200 45
19083750000 -11.246565 -30.315603 -200 45 -200 45 -200 45
19089062500 -11.248135 -30.516018 -200 45 -200 45 -200 45
19094375000 -11.244865 -30.772715 -200 45 -200 45 -200 45
19099687500 -11.244068 -30.9198 -200 45 -200 45 -200 45
19105000000 -11.252545 -31.141945 -200 45 -200 45 -200 45
19110312500 -11.24221 -31.282961 -200 45 -200 45 -200 45
19115625000 -11.227558 -31.471924 -200 45 -200 45 -200 45
19120937500 -11.219469 -31.709229 -200 45 -200 45 -200 45
19126250000 -11.220302 -31.911627 -200 45 -200 45 -200 45
19131562500 -11.215366 -32.117756 -200 45 -200 45 -200 45
19136875000 -11.208064 -32.220295 -200 45 -200 45 -200 45
19142187500 -11.180626 -32.369083 -200 45 -200 45 -200 45
19147500000 -11.164885 -32.610146 -200 45 -200 45 -200 45
19152812500 -11.145658 -32.889511 -200 45 -200 45 -200 45
19158125000 -11.128855 -33.077038 -200 45 -200 45 -200 45
19163437500 -11.11176 -33.323711 -200 45 -200 45 -200 45
19168750000 -11.092223 -33.534168 -200 45 -200 45 -200 45
19174062500 -11.06727 -33.755741 -200 45 -200 45 -200 45
19179375000 -11.04567 -33.98925 -200 45 -200 45 -200 45
19184687500 -11.022021 -34.186703 -200 45 -200 45 -200 45
19190000000 -10.999679 -34.436077 -200 45 -200 45 -200 45
19195312500 -10.971228 -34.704487 -200 45 -200 45 -200 45
19200625000 -10.95004 -34.978916 -200 45 -200 45 -200 45
19205937500 -10.929982 -35.269749 -200 45 -200 45 -200 45
19211250000 -10.915303 -35.441441 -200 45 -200 45 -200 45
19216562500 -10.895109 -35.661739 -200 45 -200 45 -200 45
19221875000 -10.88358 -35.847466 -200 45 -200 45 -200 45
19227187500 -10.853669 -36.034554 -200 45 -200 45 -200 45
19232500000 -10.818946 -36.173077 -200 45 -200 45 -200 45
19237812500 -10.784732 -36.376835 -200 45 -200 45 -200 45
19243125000 -10.760559 -36.652672 -200 45 -200 45 -200 45
19248437500 -10.725487 -36.973866 -200 45 -200 45 -200 45
19253750000 -10.701989 -37.197121 -200 45 -200 45 -200 45
19259062500 -10.681112 -37.521725 -200 45 -200 45 -200 45
19264375000 -10.660963 -37.855461 -200 45 -200 45 -200 45
19269687500 -10.650011 -38.13306 -200 45 -200 45 -200 45
19275000000 -10.632021 -38.45282 -200 45 -200 45 -200 45
19280312500 -10.617851 -38.695374 -200 45 -200 45 -200 45
19285625000 -10.604983 -38.990154 -200 45 -200 45 -200 45
19290937500 -10.598449 -39.262417 -200 45 -200 45 -200 45
19296250000 -10.583809 -39.539078 -200 45 -200 45 -200 45
19301562500 -10.57488 -39.787804 -200 45 -200 45 -200 45
19306875000 -10.557673 -40.09874 -200 45 -200 45 -200 45
19312187500 -10.540537 -40.341938 -200 45 -200 45 -200 45
19317500000 -10.528708 -40.66967 -200 45 -200 45 -200 45
19322812500 -10.517152 -40.977867 -200 45 -200 45 -200 45
19328125000 -10.497413 -41.294636 -200 45 -200 45 -200 45
19333437500 -10.489624 -41.573334 -200 45 -200 45 -200 45
19338750000 -10.471951 -41.972057 -200 45 -200 45 -200 45
19344062500 -10.454648 -42.292168 -200 45 -200 45 -200 45
19349375000 -10.460905 -42.635124 -200 45 -200 45 -200 45
19354687500 -10.45304 -42.817299 -200 45 -200 45 -200 45
19360000000 -10.430991 -43.085873 -200 45 -200 45 -200 45
19365312500 -10.39424 -43.376526 -200 45 -200 45 -200 45
19370625000 -10.368974 -43.687641 -200 45 -200 45 -200 45
19375937500 -10.352008 -44.027199 -200 45 -200 45 -200 45
19381250000 -10.321324 -44.363308 -200 45 -200 45 -200 45
19386562500 -10.286167 -44.695862 -200 45 -200 45 -200 45
19391875000 -10.256335 -45.09013 -200 45 -200 45 -200 45
19397187500 -10.232674 -45.471813 -200 45 -200 45 -200 45
19402500000 -10.195462 -45.877773 -200 45 -200 45 -200 45
19407812500 -10.170458 -46.375153 -200 45 -200 45 -200 45
19413125000 -10.155667 -46.779465 -200 45 -200 45 -200 45
19418437500 -10.150105 -47.175293 -200 45 -200 45 -200 45
19423750000 -10.135265 -47.49651 -200 45 -200 45 -200 45
19429062500 -10.120344 -47.736233 -200 45 -200 45 -200 45
19434375000 -10.094278 -48.054447 -200 45 -200 45 -200 45
19439687500 -10.056533 -48.323353 -200 45 -200 45 -200 45
19445000000 -10.012396 -48.700768 -200 45 -200 45 -200 45
19450312500 -9.9859695 -49.115864 -200 45 -200 45 -200 45
19455625000 -9.9490919 -49.507736 -200 45 -200 45 -200 45
19460937500 -9.9239779 -49.972805 -200 45 -200 45 -200 45
19466250000 -9.9093437 -50.38752 -200 45 -200 45 -200 45
19471562500 -9.8918324 -50.887012 -200 45 -200 45 -200 45
19476875000 -9.8798351 -51.284439 -200 45 -200 45 -200 45
19482187500 -9.8745203 -51.656853 -200 45 -200 45 -200 45
19487500000 -9.8685513 -52.002296 -200 45 -200 45 -200 45
19492812500 -9.863409 -52.370285 -200 45 -200 45 -200 45
19498125000 -9.8460321 -52.770477 -200 45 -200 45 -200 45
19503437500 -9.8296471 -53.071674 -200 45 -200 45 -200 45
19508750000 -9.8036366 -53.447277 -200 45 -200 45 -200 45
19514062500 -9.7829437 -53.87693 -200 45 -200 45 -200 45
19519375000 -9.7700205 -54.252769 -200 45 -200 45 -200 45
19524687500 -9.7618513 -54.719643 -200 45 -200 45 -200 45
19530000000 -9.7535448 -55.172585 -200 45 -200 45 -200 45
19535312500 -9.7553253 -55.593304 -200 45 -200 45 -200 45
19540625000 -9.7426529 -55.942753 -200 45 -200 45 -200 45
19545937500 -9.735199 -56.382069 -200 45 -200 45 -200 45
19551250000 -9.7206411 -56.742661 -200 45 -200 45 -200 45
19556562500 -9.7158737 -57.202168 -200 45 -200 45 -200 45
19561875000 -9.7086744 -57.615223 -200 45 -200 45 -200 45
19567187500 -9.6935635 -57.974796 -200 45 -200 45 -200 45
19572500000 -9.6721754 -58.38018 -200 45 -200 45 -200 45
19577812500 -9.6412859 -58.783314 -200 45 -200 45 -200 45
19583125000 -9.6320477 -59.273891 -200 45 -200 45 -200 45
19588437500 -9.6208601 -59.752975 -200 45 -200 45 -200 45
19593750000 -9.6052542 -60.265388 -200 45 -200 45 -200 45
19599062500 -9.5908403 -60.733406 -200 45 -200 45 -200 45
19604375000 -9.5738792 -61.189335 -200 45 -200 45 -200 45
19609687500 -9.5532475 -61.66872 -200 45 -200 45 -200 45
19615000000 -9.544816 -62.130257 -200 45 -200 45 -200 45
19620312500 -9.5239925 -62.63261 -200 45 -200 45 -200 45
19625625000 -9.5071478 -63.115955 -200 45 -200 45 -200 45
19630937500 -9.4950495 -63.596336 -200 45 -200 45 -200 45
19636250000 -9.4756308 -64.113014 -200 45 -200 45 -200 45
19641562500 -9.4683447 -64.593559 -200 45 -200 45 -200 45
19646875000 -9.4582701 -65.061905 -200 45 -200 45 -200 45
19652187500 -9.4407415 -65.545868 -200 45 -200 45 -200 45
19657500000 -9.437417 -65.976662 -200 45 -200 45 -200 45
19662812500 -9.4232588 -66.448463 -200 45 -200 45 -200 45
19668125000 -9.4073086 -66.935913 -200 45 -200 45 -200 45
19673437500 -9.3896198 -67.381493 -200 45 -200 45 -200 45
19678750000 -9.3782825 -67.843758 -200 45 -200 45 -200 45
19684062500 -9.3542891 -68.362907 -200 45 -200 45 -200 45
19689375000 -9.344532 -68.866905 -200 45 -200 45 -200 45
19694687500 -9.3402538 -69.372177 -200 45 -200 45 -200 45
19700000000 -9.3269377 -69.853386 -200 45 -200 45 -200 45
19705312500 -9.3288813 -70.381561 -200 45 -200 45 -200 45
19710625000 -9.3223162 -70.851715 -200 45 -200 45 -200 45
19715937500 -9.324173 -71.326622 -200 45 -200 45 -200 45
19721250000 -9.3215942 -71.7789 -200 45 -200 45 -200 45
19726562500 -9.3111305 -72.234787 -200 45 -200 45 -200 45
19731875000 -9.3049231 -72.653969 -200 45 -200 45 -200 45
19737187500 -9.2980652 -73.160522 -200 45 -200 45 -200 45
19742500000 -9.2944155 -73.606499 -200 45 -200 45 -200 45
19747812500 -9.2798262 -74.098824 -200 45 -200 45 -200 45
19753125000 -9.2675524 -74.60257 -200 45 -200 45 -200 45
19758437500 -9.2558184 -75.151596 -200 45 -200 45 -200 45
19763750000 -9.2519341 -75.675865 -200 45 -200 45 -200 45
19769062500 -9.2466726 -76.184761 -200 45 -200 45 -200 45
19774375000 -9.2372284 -76.716888 -200 45 -200 45 -200 45
19779687500 -9.2339764 -77.266785 -200 45 -200 45 -200 45
19785000000 -9.2343683 -77.811752 -200 45 -200 45 -200 45
19790312500 -9.2207832 -78.320793 -200 45 -200 45 -200 45
19795625000 -9.2163353 -78.880417 -200 45 -200 45 -200 45
19800937500 -9.2194929 -79.43763 -200 45 -200 45 -200 45
19806250000 -9.2173462 -79.945305 -200 45 -200 45 -200 45
19811562500 -9.2107134 -80.429115 -200 45 -200 45 -200 45
